Time Stamp,ID,Extended,Dir,Bus,LEN,D1,D2,D3,D4,D5,D6,D7,D8
472693870,000000B2,false,Rx,0,8,00,00,00,00,00,00,00,00,
472693875,000000FD,false,Rx,0,8,B7,D5,1F,80,00,00,00,00,
472693881,00000116,false,Rx,0,8,50,05,01,00,20,00,00,FF,
472693886,000001A2,false,Rx,0,8,25,06,00,00,00,00,00,00,
472693891,000000AD,false,Rx,0,8,D5,EF,BF,FF,00,14,00,00,
472693897,000000AE,false,Rx,0,8,68,0F,00,00,FF,3C,01,02,
472693902,00000128,false,Rx,0,3,80,00,00,00,00,00,00,00,
472693907,00000365,false,Rx,0,8,AD,06,14,00,8D,0F,88,7A,
472693912,0000012D,false,Rx,0,8,5D,80,7F,00,00,00,FE,3F,
472693918,000000A7,false,Rx,0,8,50,0D,20,80,FD,01,98,3D,
472693923,000000A8,false,Rx,0,8,B2,9D,1D,A1,82,64,24,0E,
472695222,000000AF,false,Rx,0,4,83,79,00,00,00,00,00,00,
472696183,00000086,false,Rx,0,8,74,0D,2C,20,00,00,00,00,
472697460,000000B2,false,Rx,0,8,00,00,00,00,00,00,00,00,
472697739,00000101,false,Rx,0,8,3F,06,80,00,A2,00,00,00,
472697982,00000106,false,Rx,0,8,5F,06,63,00,02,00,00,00,
472698277,1B000076,true,Rx,0,8,76,00,04,01,01,00,00,00,
472698505,0000011E,false,Rx,0,8,A3,06,00,00,00,00,00,00,
472701290,000000AD,false,Rx,0,8,48,E0,BF,FF,00,14,00,00,
472701544,000000AE,false,Rx,0,8,DF,00,00,00,FF,3C,01,02,
472701875,000003DE,false,Rx,0,8,FE,00,00,00,00,00,00,00,
472703272,000000A7,false,Rx,0,8,9C,0E,20,80,FD,FD,97,3D,
472703485,000000A8,false,Rx,0,8,70,9E,1D,A1,82,64,2C,0E,
472703746,00000107,false,Rx,0,8,00,00,F8,2C,01,00,32,A6,
472703968,00000120,false,Rx,0,8,40,07,00,02,01,08,FF,01,
472704202,00000121,false,Rx,0,8,AF,07,00,40,37,5A,7E,FE,
472704432,00000147,false,Rx,0,8,00,00,00,00,F0,A3,60,1D,
472705223,000000AF,false,Rx,0,4,83,7A,00,00,00,00,00,00,
472706184,00000086,false,Rx,0,8,D8,0E,2C,20,00,00,00,00,
472711487,000000B2,false,Rx,0,8,00,00,00,00,00,00,00,00,
472711538,000000FD,false,Rx,0,8,A5,D6,1F,80,00,00,00,00,
472711543,00000116,false,Rx,0,8,FC,06,01,00,20,00,00,FF,
472711549,000000AD,false,Rx,0,8,86,E1,BF,FF,00,14,00,00,
472711554,000000AE,false,Rx,0,8,30,01,00,00,FF,3C,01,02,
472711748,00000128,false,Rx,0,3,84,2A,27,00,00,00,00,00,
472711990,0000012D,false,Rx,0,8,0A,81,7F,00,00,00,FE,3F,
472713264,000000A7,false,Rx,0,8,09,0F,E0,7F,FD,FD,97,3D,
472713503,000000A8,false,Rx,0,8,57,9F,1D,A1,82,64,30,0E,
472715219,000000AF,false,Rx,0,4,83,7B,00,00,00,00,00,00,
472716182,00000086,false,Rx,0,8,BC,0F,2C,20,00,00,00,00,
472716477,0000012B,false,Rx,0,8,05,40,40,28,00,00,00,00,
472717459,000000B2,false,Rx,0,8,00,00,00,00,00,00,00,00,
472717742,00000101,false,Rx,0,8,5B,07,80,00,A2,00,00,00,
472718005,00000106,false,Rx,0,8,3B,07,63,00,02,00,00,00,
472718260,0000011E,false,Rx,0,8,C7,07,00,00,00,00,00,00,
472718908,0000031E,false,Rx,0,8,F4,FD,3F,00,00,00,00,40,
472719162,0000032C,false,Rx,0,8,00,0F,00,00,98,24,00,00,
472719395,0000032F,false,Rx,0,8,00,FF,00,00,00,00,12,01,
472719669,00000040,false,Rx,0,8,DF,02,00,44,C1,00,00,00,
472720652,000003D8,false,Rx,0,8,00,00,08,00,00,00,00,00,
472721300,000000AD,false,Rx,0,8,62,E2,BF,FF,00,14,00,00,
472721556,000000AE,false,Rx,0,8,31,02,00,00,FF,3C,01,02,
472721800,00000462,false,Rx,0,8,01,00,38,00,00,01,00,00,
472723286,000000A7,false,Rx,0,8,C0,00,E0,7F,FD,FD,97,3D,
472723521,000000A8,false,Rx,0,8,97,90,1D,A1,82,64,2C,0E,
472723770,00000107,false,Rx,0,8,00,00,F8,2C,01,00,32,A6,
472723992,00000120,false,Rx,0,8,19,08,00,02,01,08,FF,01,
472724226,00000121,false,Rx,0,8,6C,08,00,40,37,5A,7E,FE,
472724482,00000147,false,Rx,0,8,00,00,00,00,F0,A3,60,1D,
472725210,000000AF,false,Rx,0,4,83,7C,0D,01,00,00,00,00,
472726191,00000086,false,Rx,0,8,FE,00,2C,20,00,00,00,00,
472732683,000000B2,false,Rx,0,8,00,00,00,00,00,00,00,00,
472732689,000000FD,false,Rx,0,8,9F,D7,1F,80,00,00,00,00,
472732695,00000116,false,Rx,0,8,98,07,01,00,20,00,00,FF,
472732701,000003E5,false,Rx,0,8,AA,2D,00,00,00,00,00,00,
472732706,000000AD,false,Rx,0,8,E3,E3,BF,FF,00,14,00,00,
472732711,000000AE,false,Rx,0,8,14,03,00,00,FF,3C,01,02,
472732717,00000128,false,Rx,0,3,80,00,00,00,00,00,00,00,
472732722,0000012D,false,Rx,0,8,18,82,7F,00,00,00,FE,3F,
472733254,000000A7,false,Rx,0,8,48,01,E0,7F,FD,FD,97,3D,
472733494,000000A8,false,Rx,0,8,ED,91,1D,A1,82,64,2C,0E,
472733727,0000030B,false,Rx,0,8,10,22,00,00,08,00,00,10,
472734667,000003B5,false,Rx,0,8,87,FE,12,3C,0C,99,20,00,
472735219,000000AF,false,Rx,0,4,83,7D,0D,01,00,00,00,00,
472736184,00000086,false,Rx,0,8,9A,01,2C,20,00,00,00,00,
472737499,000000B2,false,Rx,0,8,00,00,00,00,00,00,00,00,
472737789,00000101,false,Rx,0,8,19,08,80,00,A2,00,00,00,
472738032,00000106,false,Rx,0,8,79,08,63,00,02,00,00,00,
472738286,0000011E,false,Rx,0,8,85,08,00,00,00,00,00,00,
472741301,000000AD,false,Rx,0,8,41,E4,BF,FF,00,14,00,00,
472741530,000000AE,false,Rx,0,8,1A,04,00,00,FF,3C,01,02,
472741846,00000365,false,Rx,0,8,AD,06,14,00,8D,0F,88,7A,
472743263,000000A7,false,Rx,0,8,3C,02,E0,7F,FD,FD,97,3D,
472743498,000000A8,false,Rx,0,8,01,92,1D,A1,82,64,2C,0E,
472743737,00000107,false,Rx,0,8,00,00,F8,2C,01,00,3F,A6,
472743981,00000120,false,Rx,0,8,4F,09,00,02,01,08,FF,01,
472744216,00000121,false,Rx,0,8,AE,09,00,00,37,5A,7E,FE,
472744450,00000147,false,Rx,0,8,00,00,00,00,F0,A3,60,1D,
472744686,00000391,false,Rx,0,8,12,8C,22,4A,00,27,00,22,
472744913,000003BE,false,Rx,0,8,6A,0D,E6,00,C8,80,00,80,
472745090,000000AF,false,Rx,0,4,83,7E,00,00,00,00,00,00,
472745265,000003C0,false,Rx,0,4,C1,01,03,00,00,00,00,00,
472745498,000003C7,false,Rx,0,8,01,10,24,00,00,40,80,00,
472745760,000003D6,false,Rx,0,8,00,00,00,00,00,00,30,00,
472746179,00000086,false,Rx,0,8,36,02,2C,20,00,00,00,00,
472746531,0000012B,false,Rx,0,8,77,41,40,28,00,00,00,00,
472752713,00000570,false,Rx,0,8,FF,00,00,00,00,00,00,00,
472752718,000000B2,false,Rx,0,8,00,00,00,00,00,00,00,00,
472752723,000000FD,false,Rx,0,8,58,D8,1F,80,00,00,00,00,
472752729,00000116,false,Rx,0,8,DA,08,01,00,20,00,00,FF,
472752734,000005F0,false,Rx,0,8,FD,00,64,00,00,64,00,00,
472752739,000000AD,false,Rx,0,8,74,E5,BF,FF,00,14,00,00,
472752745,000000AE,false,Rx,0,8,E1,05,00,00,FF,3C,01,02,
472752750,00000128,false,Rx,0,3,84,2A,D8,00,00,00,00,00,
472752755,000005AC,false,Rx,0,8,00,00,FF,FE,FE,F7,07,00,
472752760,0000012D,false,Rx,0,8,89,83,7F,00,00,00,FE,3F,
472753277,000000A7,false,Rx,0,8,BD,03,E0,7F,FD,FD,97,3D,
472753512,000000A8,false,Rx,0,8,9E,93,1D,A1,82,64,24,0E,
472755230,000000AF,false,Rx,0,4,83,7F,00,00,00,00,00,00,
472756170,00000086,false,Rx,0,8,52,03,2C,20,00,00,00,00,
472757468,000000B2,false,Rx,0,8,00,00,00,00,00,00,00,00,
472757752,00000101,false,Rx,0,8,7D,09,80,00,A2,00,00,00,
472757995,00000106,false,Rx,0,8,1D,09,63,00,02,00,00,00,
472758229,0000011E,false,Rx,0,8,E1,09,00,00,00,00,00,00,
472759131,1B000010,true,Rx,0,8,10,00,04,05,11,00,00,00,
472761298,000000AD,false,Rx,0,8,6A,E6,BF,FF,00,14,00,00,
472761551,000000AE,false,Rx,0,8,BA,06,00,00,FF,3C,01,02,
472761858,000000B1,false,Rx,0,8,30,28,00,00,00,00,00,00,
472762131,16A95414,true,Rx,0,8,00,30,7E,C3,0F,00,00,00,
472763291,000000A7,false,Rx,0,8,87,04,E0,7F,FD,FD,97,3D,
472763526,000000A8,false,Rx,0,8,75,94,1D,A1,82,64,18,0E,
472763769,00000107,false,Rx,0,8,00,00,F8,2C,01,00,4C,A6,
472763991,00000120,false,Rx,0,8,94,0A,00,02,01,08,FF,01,
472764226,00000121,false,Rx,0,8,F6,0A,00,40,37,5A,7E,FE,
472764481,00000147,false,Rx,0,8,00,00,00,00,F0,A3,60,1D,
472765210,000000AF,false,Rx,0,4,83,70,F2,01,00,00,00,00,
472766191,00000086,false,Rx,0,8,41,04,2C,20,00,00,00,00,
472772737,000000B2,false,Rx,0,8,00,00,00,00,00,00,00,00,
472772743,000000FD,false,Rx,0,8,6A,D9,1F,80,00,00,00,00,
472772748,00000116,false,Rx,0,8,BE,09,01,00,20,00,00,FF,
472772753,00000392,false,Rx,0,8,DB,2E,00,00,00,00,00,04,
472772759,0000031E,false,Rx,0,8,81,FE,3F,00,00,00,00,40,
472772764,0000032C,false,Rx,0,8,00,0F,00,00,98,24,00,00,
472772769,0000032F,false,Rx,0,8,00,FF,00,00,00,00,12,01,
472772775,00000040,false,Rx,0,8,BB,03,00,44,C1,00,00,00,
472772780,000000AD,false,Rx,0,8,35,E7,BF,FF,00,14,00,00,
472772785,00000463,false,Rx,0,8,00,E0,03,00,00,00,00,00,
472772791,000000AE,false,Rx,0,8,28,07,00,00,FF,3C,01,02,
472772796,000003DB,false,Rx,0,8,50,00,01,04,07,24,01,A2,
472772801,00000128,false,Rx,0,3,80,00,00,00,00,00,00,00,
472772806,0000012D,false,Rx,0,8,06,84,7F,00,00,00,FE,3F,
472772812,000003C8,false,Rx,0,8,00,00,54,24,00,60,01,82,
472773310,000000A7,false,Rx,0,8,FC,05,E0,7F,FD,FD,97,3D,
472773544,000000A8,false,Rx,0,8,57,95,1D,A1,82,64,14,0E,
472775218,000000AF,false,Rx,0,4,83,71,F2,01,00,00,00,00,
472776183,00000086,false,Rx,0,8,25,05,2C,20,00,00,00,00,
472776451,0000012B,false,Rx,0,8,D3,42,40,28,00,00,00,00,
472777493,000000B2,false,Rx,0,8,00,00,00,00,00,00,00,00,
472777782,00000101,false,Rx,0,8,21,0A,80,00,A2,03,00,00,
472778022,00000106,false,Rx,0,8,B1,0A,63,00,02,00,00,00,
472778276,0000011E,false,Rx,0,8,4D,0A,00,00,00,00,00,00,
472781297,000000AD,false,Rx,0,8,A2,E8,BF,FF,00,14,00,00,
472781553,000000AE,false,Rx,0,8,5F,08,00,00,FF,3C,01,02,
472781859,000003DD,false,Rx,0,8,48,04,10,18,FE,4F,0A,00,
472783253,0000030B,false,Rx,0,8,10,23,00,00,08,00,00,10,
472783492,000000A7,false,Rx,0,8,6F,06,E0,7F,FD,FD,97,3D,
472783733,000000A8,false,Rx,0,8,2F,96,1D,A1,82,64,18,0E,
472783977,00000107,false,Rx,0,8,00,00,F8,2C,01,00,4C,A6,
472784212,00000120,false,Rx,0,8,38,0B,00,02,01,08,FF,01,
472784455,00000121,false,Rx,0,8,5D,0B,00,40,37,5A,7E,FE,
472784694,00000147,false,Rx,0,8,00,00,00,00,F0,A3,60,1D,
472785214,000000AF,false,Rx,0,4,83,72,00,00,00,00,00,00,
472786180,00000086,false,Rx,0,8,89,06,2C,20,00,00,00,00,
472792762,000000B2,false,Rx,0,8,00,00,00,00,00,00,00,00,
472792767,000000FD,false,Rx,0,8,26,DA,1F,80,00,00,00,00,
472792772,00000116,false,Rx,0,8,12,0A,01,00,20,00,00,FF,
472792778,000000AD,false,Rx,0,8,A6,E9,BF,FF,00,14,00,00,
472792783,000000AE,false,Rx,0,8,B7,09,00,00,FF,3C,01,02,
472792788,00000128,false,Rx,0,3,84,FF,07,00,00,00,00,00,
472792793,00000365,false,Rx,0,8,AD,06,14,00,8D,0F,88,7A,
472792799,0000012D,false,Rx,0,8,79,85,7F,00,00,00,FE,3F,
472793277,000000A7,false,Rx,0,8,E6,07,E0,7F,FD,FD,97,3D,
472793511,000000A8,false,Rx,0,8,3A,97,1D,A1,82,64,18,0E,
472793759,00000641,false,Rx,0,8,D9,12,42,13,14,12,7D,14,
472794002,00000676,false,Rx,0,8,00,00,00,80,00,C0,20,01,
472795223,000000AF,false,Rx,0,4,83,73,00,00,00,00,00,00,
472796182,00000086,false,Rx,0,8,ED,07,2C,20,00,00,00,00,
472797503,000000B2,false,Rx,0,8,00,00,00,00,00,00,00,00,
472797769,00000101,false,Rx,0,8,45,0B,80,00,A2,03,00,00,
472798011,00000106,false,Rx,0,8,D5,0B,63,00,02,00,00,00,
472798265,0000011E,false,Rx,0,8,29,0B,00,00,00,00,00,00,
472801301,000000AD,false,Rx,0,8,F7,EA,BF,FF,00,14,00,00,
472801556,000000AE,false,Rx,0,8,CB,0A,00,00,FF,3C,01,02,
472801866,000003DE,false,Rx,0,8,FE,00,00,00,00,00,00,00,
472803321,000000A7,false,Rx,0,8,AB,08,E0,7F,FD,FD,97,3D,
472803555,000000A8,false,Rx,0,8,18,98,1D,A1,82,64,18,0E,
472803774,00000107,false,Rx,0,8,00,00,F8,2C,01,00,59,A6,
472804021,00000120,false,Rx,0,8,E2,0C,00,02,01,08,FF,01,
472804256,00000121,false,Rx,0,8,98,0C,00,40,37,5A,7E,FE,
472804511,00000147,false,Rx,0,8,00,00,00,00,F0,A3,60,1D,
472805081,000000AF,false,Rx,0,4,83,74,32,01,00,00,00,00,
472805374,1B000053,true,Rx,0,8,53,00,04,01,01,00,00,00,
472805708,1B000015,true,Rx,0,8,15,00,04,02,01,00,00,00,
472806173,00000086,false,Rx,0,8,AF,08,2C,20,00,00,00,00,
472806427,0000012B,false,Rx,0,8,8B,43,40,28,00,00,00,00,
472806623,17331F10,true,Rx,0,3,37,C4,0A,00,00,00,00,00,
472812737,000000B2,false,Rx,0,8,00,00,00,00,00,00,00,00,
472812742,000000FD,false,Rx,0,8,09,DB,1F,80,00,00,00,00,
472812748,00000116,false,Rx,0,8,76,0B,01,00,20,00,00,FF,
472812753,000000AD,false,Rx,0,8,42,EB,BF,FF,00,14,00,00,
472812758,000000AE,false,Rx,0,8,69,0B,00,00,FF,3C,01,02,
472812764,00000128,false,Rx,0,3,80,00,00,00,00,00,00,00,
472812769,0000012D,false,Rx,0,8,C9,86,7F,00,00,00,FE,3F,
472813307,000000A7,false,Rx,0,8,7B,09,E0,7F,FD,FD,97,3D,
472813542,000000A8,false,Rx,0,8,6A,99,1D,A1,82,64,18,0E,
472815219,000000AF,false,Rx,0,4,83,75,32,01,00,00,00,00,
472816182,00000086,false,Rx,0,8,CB,09,2C,20,00,00,00,00,
472817479,000000B2,false,Rx,0,8,00,00,00,00,00,00,00,00,
472817748,00000101,false,Rx,0,8,99,0C,80,00,A2,05,00,00,
472818012,00000106,false,Rx,0,8,C6,0C,63,00,02,00,00,00,
472818286,0000011E,false,Rx,0,8,3A,0C,00,00,00,00,00,00,
472818914,0000031E,false,Rx,0,8,68,FF,3F,00,00,00,00,40,
472819170,0000032C,false,Rx,0,8,00,0F,00,00,98,24,00,00,
472819424,0000032F,false,Rx,0,8,00,FF,00,00,00,00,12,01,
472819679,00000040,false,Rx,0,8,A8,04,00,44,C1,00,00,00,
472820641,00000041,false,Rx,0,8,7B,01,00,00,00,00,00,00,
472821308,000000AD,false,Rx,0,8,2F,EC,BF,FF,00,14,00,00,
472821563,000000AE,false,Rx,0,8,D1,0C,00,00,FF,3C,01,02,
472821809,000003D8,false,Rx,0,8,00,00,08,00,00,00,00,00,
472822072,00000464,false,Rx,0,8,00,00,00,00,00,00,00,00,
472822622,00000520,false,Rx,0,8,90,07,00,08,00,0A,00,0A,
472823291,000000A7,false,Rx,0,8,7D,0A,E0,7F,FD,FD,97,3D,
472823525,000000A8,false,Rx,0,8,0D,9A,1D,A1,82,64,1C,0E,
472823766,00000107,false,Rx,0,8,00,00,F8,2C,01,00,59,A6,
472823988,00000120,false,Rx,0,8,52,0D,00,02,01,08,FF,01,
472824224,00000121,false,Rx,0,8,8B,0D,00,40,37,5A,7E,FE,
472824457,00000147,false,Rx,0,8,00,00,00,00,F0,A3,60,1D,
472824758,17F00015,true,Rx,0,8,00,15,00,00,00,00,00,80,
472825218,000000AF,false,Rx,0,4,83,76,00,00,00,00,00,00,
472826184,00000086,false,Rx,0,8,67,0A,2C,20,00,00,00,00,
472832819,000000B2,false,Rx,0,8,00,00,00,00,00,00,00,00,
472832832,000000FD,false,Rx,0,8,90,DC,1F,80,00,00,00,00,
472832838,00000116,false,Rx,0,8,65,0C,01,00,20,00,00,FF,
472832843,000003E5,false,Rx,0,8,28,2E,00,00,00,00,00,00,
472832848,000000AD,false,Rx,0,8,5E,ED,BF,FF,00,14,00,00,
472832854,000000AE,false,Rx,0,8,B2,0D,00,00,FF,3C,01,02,
472832859,00000128,false,Rx,0,3,80,00,00,00,00,00,00,00,
472832864,0000012D,false,Rx,0,8,98,87,7F,00,00,00,FE,3F,
472833295,000000A7,false,Rx,0,8,13,0B,E0,7F,FD,FD,97,3D,
472833530,000000A8,false,Rx,0,8,87,9B,1D,A1,82,64,20,0E,
472833777,0000030B,false,Rx,0,8,10,24,00,00,08,00,00,10,
472834612,000003B5,false,Rx,0,8,87,FE,12,3C,0C,99,20,00,
472835223,000000AF,false,Rx,0,4,83,77,00,00,00,00,00,00,
472836184,00000086,false,Rx,0,8,03,0B,2C,20,00,00,00,00,
472836478,0000012B,false,Rx,0,8,0B,44,40,28,00,00,00,00,
472837500,000000B2,false,Rx,0,8,00,00,00,00,00,00,00,00,
472837758,00000101,false,Rx,0,8,77,0D,80,00,A2,01,00,00,
472838020,00000106,false,Rx,0,8,A2,0D,63,00,02,00,00,00,
472838275,0000011E,false,Rx,0,8,5E,0D,00,00,00,00,00,00,
472841329,000000AD,false,Rx,0,8,84,EE,BF,FF,00,14,00,00,
472841563,000000AE,false,Rx,0,8,8A,0E,00,00,FF,3C,01,02,
472841849,00000394,false,Rx,0,8,1C,1C,00,1A,00,00,00,00,
472842084,00000365,false,Rx,0,8,AD,06,14,00,8D,0F,88,7A,
472843302,000000A7,false,Rx,0,8,AC,0C,E0,7F,FD,FD,97,3D,
472843536,000000A8,false,Rx,0,8,DE,9C,1D,A1,82,64,1C,0E,
472843760,00000107,false,Rx,0,8,00,00,F8,2C,01,00,66,A6,
472844004,00000120,false,Rx,0,8,39,0E,00,02,01,08,FF,01,
472844239,00000121,false,Rx,0,8,25,0E,00,00,37,5A,7E,FE,
472844472,00000147,false,Rx,0,8,00,00,00,00,F0,A3,60,1D,
472844715,00000391,false,Rx,0,8,12,8C,22,4A,00,27,00,22,
472844959,000003BE,false,Rx,0,8,75,0E,E6,00,C8,80,00,80,
472845112,000003C0,false,Rx,0,4,31,02,03,00,00,00,00,00,
472845288,000000AF,false,Rx,0,4,83,78,00,00,00,00,00,00,
472845543,000003C7,false,Rx,0,8,76,10,24,00,00,40,80,00,
472845788,000003D6,false,Rx,0,8,01,00,00,00,00,00,30,00,
472846189,00000086,false,Rx,0,8,10,0C,2C,20,00,00,00,00,
472852782,000000B2,false,Rx,0,8,00,00,00,00,00,00,00,00,
472852788,000000FD,false,Rx,0,8,19,DD,1F,80,00,00,00,00,
472852793,00000116,false,Rx,0,8,01,0D,01,00,20,00,00,FF,
472852798,000000AD,false,Rx,0,8,D5,EF,BF,FF,00,14,00,00,
472852804,000000AE,false,Rx,0,8,68,0F,00,00,FF,3C,01,02,
472852809,00000128,false,Rx,0,3,84,00,28,00,00,00,00,00,
472852814,000005AC,false,Rx,0,8,00,00,FF,FE,FE,F7,07,00,
472852819,0000012D,false,Rx,0,8,57,88,7F,00,00,00,FE,3F,
472853317,000000A7,false,Rx,0,8,5C,0D,E0,7F,FD,FD,97,3D,
472853553,000000A8,false,Rx,0,8,85,9D,1D,A1,82,64,10,0E,
472855230,000000AF,false,Rx,0,4,83,79,00,00,00,00,00,00,
472856191,00000086,false,Rx,0,8,74,0D,2C,20,00,00,00,00,
472857448,000000B2,false,Rx,0,8,00,00,00,00,00,00,00,00,
472857707,00000101,false,Rx,0,8,DB,0E,80,00,A2,01,00,00,
472857971,00000106,false,Rx,0,8,0E,0E,63,00,02,00,00,00,
472858225,0000011E,false,Rx,0,8,F2,0E,00,00,00,00,00,00,
472861302,000000AD,false,Rx,0,8,48,E0,BF,FF,00,14,00,00,
472861557,000000AE,false,Rx,0,8,DF,00,00,00,FF,3C,01,02,
472861842,000000B1,false,Rx,0,8,ED,29,00,00,00,00,00,00,
472862142,16A95414,true,Rx,0,8,00,30,7E,C3,0F,00,00,00,
472863361,000000A7,false,Rx,0,8,90,0E,E0,7F,FD,01,98,3D,
472863595,000000A8,false,Rx,0,8,D7,9E,1D,A1,82,64,00,0E,
472863848,00000107,false,Rx,0,8,00,00,F8,2C,01,00,73,A6,
472864057,00000120,false,Rx,0,8,EC,0F,00,02,01,08,FF,01,
472864317,00000121,false,Rx,0,8,AE,0F,00,40,37,5A,7E,FE,
472864551,00000147,false,Rx,0,8,00,00,00,00,F0,A3,60,1D,
472865081,000000AF,false,Rx,0,4,83,7A,28,01,00,00,00,00,
472866182,00000086,false,Rx,0,8,D8,0E,2C,20,00,00,00,00,
472866438,0000012B,false,Rx,0,8,AE,45,40,28,00,00,00,00,
472871611,000000B2,false,Rx,0,8,00,00,00,00,00,00,00,00,
472871616,000000FD,false,Rx,0,8,E6,DE,1F,80,00,00,00,00,
472871622,00000116,false,Rx,0,8,AD,0E,01,00,20,00,00,FF,
472871627,00000392,false,Rx,0,8,BF,2F,00,00,00,00,00,04,
472871632,000006B4,false,Rx,0,8,01,48,31,37,41,55,30,48,
472871638,0000031E,false,Rx,0,8,FB,F0,3F,00,00,00,00,40,
472871643,0000032C,false,Rx,0,8,00,0F,00,00,98,24,00,00,
472871648,0000032F,false,Rx,0,8,00,FF,00,00,00,00,12,01,
472871654,00000040,false,Rx,0,8,CC,05,00,44,C1,00,00,00,
472871659,000000AD,false,Rx,0,8,86,E1,BF,FF,00,14,00,00,
472871664,000000AE,false,Rx,0,8,30,01,00,00,FF,3C,01,02,
472871848,00000462,false,Rx,0,8,01,00,38,00,00,01,00,00,
472872005,00000128,false,Rx,0,3,80,00,00,00,00,00,00,00,
472872239,000003DB,false,Rx,0,8,50,00,01,04,07,24,01,A2,
472872474,0000012D,false,Rx,0,8,F2,89,7F,00,00,00,FE,3F,
472872732,00000465,false,Rx,0,8,00,00,00,00,00,00,00,80,
472872948,000003C8,false,Rx,0,8,00,00,54,24,00,60,01,82,
472873268,1B000077,true,Rx,0,8,77,00,04,02,01,00,00,00,
472873502,000000A7,false,Rx,0,8,05,0F,20,80,FD,01,98,3D,
472873742,000000A8,false,Rx,0,8,37,9F,1D,A1,82,64,FC,0D,
472875228,000000AF,false,Rx,0,4,83,7B,28,01,00,00,00,00,
472876193,00000086,false,Rx,0,8,BC,0F,2C,20,00,00,00,00,
472877535,000000B2,false,Rx,0,8,00,00,00,00,00,00,00,00,
472877799,00000101,false,Rx,0,8,4F,0F,80,00,A2,02,00,00,
472878061,00000106,false,Rx,0,8,6A,0F,63,00,02,00,00,00,
472878289,0000011E,false,Rx,0,8,96,0F,00,00,00,00,00,00,
472878569,000001AB,false,Rx,0,8,1D,0A,04,02,18,00,04,00,
472881310,000000AD,false,Rx,0,8,62,E2,BF,FF,00,14,00,00,
472881563,000000AE,false,Rx,0,8,31,02,00,00,FF,3C,01,02,
472881849,000003DD,false,Rx,0,8,48,04,10,18,FE,4F,0A,00,
472883291,0000030B,false,Rx,0,8,10,25,00,00,08,00,00,10,
472883526,000000A7,false,Rx,0,8,CC,00,20,80,FD,01,98,3D,
472883767,000000A8,false,Rx,0,8,5F,90,1D,A1,82,64,FC,0D,
472883989,00000107,false,Rx,0,8,00,00,F8,2C,01,00,73,A6,
472884244,00000120,false,Rx,0,8,26,00,00,02,01,08,FF,01,
472884479,00000121,false,Rx,0,8,60,00,00,40,37,5A,7E,FE,
472884719,00000147,false,Rx,0,8,00,00,00,00,F0,A3,60,1D,
472885219,000000AF,false,Rx,0,4,83,7C,00,00,00,00,00,00,
472886203,00000086,false,Rx,0,8,FE,00,2C,20,00,00,00,00,
472893976,000000B2,false,Rx,0,8,00,00,00,00,00,00,00,00,
472893981,000000FD,false,Rx,0,8,71,DF,1F,80,00,00,00,00,
472893987,00000116,false,Rx,0,8,C9,0F,01,00,20,00,00,FF,
472893992,000001A2,false,Rx,0,8,4D,07,00,00,00,00,00,00,
472893997,000000AD,false,Rx,0,8,E3,E3,BF,FF,00,14,00,00,
472894003,000000AE,false,Rx,0,8,14,03,00,00,FF,3C,01,02,
472894008,00000128,false,Rx,0,3,84,00,D7,00,00,00,00,00,
472894013,00000365,false,Rx,0,8,AD,06,14,00,8D,0F,88,7A,
472894018,0000012D,false,Rx,0,8,7B,8A,7F,00,00,00,FE,3F,
472894024,000000A7,false,Rx,0,8,44,01,20,80,FD,01,98,3D,
472894029,000000A8,false,Rx,0,8,4A,91,1D,A1,82,64,00,0E,
472895231,000000AF,false,Rx,0,4,83,7D,00,00,00,00,00,00,
472896191,00000086,false,Rx,0,8,9A,01,2C,20,00,00,00,00,
472896464,0000012B,false,Rx,0,8,B7,46,40,28,00,00,00,00,
472897448,000000B2,false,Rx,0,8,00,00,00,00,00,00,00,00,
472897733,00000101,false,Rx,0,8,FD,00,80,00,A2,01,00,00,
472897976,00000106,false,Rx,0,8,28,00,63,00,02,00,00,00,
472898270,1B000076,true,Rx,0,8,76,00,04,01,01,00,00,00,
472898504,0000011E,false,Rx,0,8,D4,00,00,00,00,00,00,00,
472901320,000000AD,false,Rx,0,8,41,E4,BF,FF,00,14,00,00,
472901576,000000AE,false,Rx,0,8,1A,04,00,00,FF,3C,01,02,
472901866,000003DE,false,Rx,0,8,FE,00,00,00,00,00,00,00,
472903321,000000A7,false,Rx,0,8,30,02,20,80,FD,01,98,3D,
472903556,000000A8,false,Rx,0,8,A6,92,1D,A1,82,64,00,0E,
472903801,00000107,false,Rx,0,8,00,00,F8,2C,01,00,80,A6,
472904043,00000120,false,Rx,0,8,D3,01,00,02,01,08,FF,01,
472904277,00000121,false,Rx,0,8,0C,01,00,40,37,5A,7E,FE,
472904511,00000147,false,Rx,0,8,00,00,00,00,F0,A3,60,1D,
472905219,000000AF,false,Rx,0,4,83,7E,D7,01,00,00,00,00,
472906178,00000086,false,Rx,0,8,36,02,2C,20,00,00,00,00,
472911602,000000B2,false,Rx,0,8,00,00,00,00,00,00,00,00,
472911607,000000FD,false,Rx,0,8,0B,D0,1F,80,00,00,00,00,
472911613,00000116,false,Rx,0,8,8B,00,01,00,20,00,00,FF,
472911618,000000AD,false,Rx,0,8,74,E5,BF,FF,00,14,00,00,
472911623,000000AE,false,Rx,0,8,E1,05,00,00,FF,3C,01,02,
472911769,00000128,false,Rx,0,3,80,00,00,00,00,00,00,00,
472912012,0000012D,false,Rx,0,8,60,8B,7F,00,00,00,FE,3F,
472913350,000000A7,false,Rx,0,8,B1,03,20,80,FD,01,98,3D,
472913559,000000A8,false,Rx,0,8,26,93,1D,A1,82,64,FC,0D,
472915220,000000AF,false,Rx,0,4,83,7F,D7,01,00,00,00,00,
472916184,00000086,false,Rx,0,8,52,03,2C,20,00,00,00,00,
472917483,000000B2,false,Rx,0,8,00,00,00,00,00,00,00,00,
472917744,00000101,false,Rx,0,8,DC,01,80,00,A2,03,00,00,
472918007,00000106,false,Rx,0,8,4C,01,63,00,02,00,00,00,
472918260,0000011E,false,Rx,0,8,B0,01,00,00,00,00,00,00,
472918947,0000031E,false,Rx,0,8,31,F1,3F,00,00,00,00,40,
472919200,0000032C,false,Rx,0,8,00,0F,00,00,98,24,00,00,
472919433,0000032F,false,Rx,0,8,00,FF,00,00,00,00,12,01,
472919695,00000040,false,Rx,0,8,60,06,00,44,C1,00,00,00,
472920609,000003D8,false,Rx,0,8,00,00,08,00,00,00,00,00,
472921337,000000AD,false,Rx,0,8,6A,E6,BF,FF,00,14,00,00,
472921591,000000AE,false,Rx,0,8,BA,06,00,00,FF,3C,01,02,
472921815,00000463,false,Rx,0,8,00,E0,03,00,00,00,00,00,
472923289,000000A7,false,Rx,0,8,8B,04,20,80,FD,01,98,3D,
472923525,000000A8,false,Rx,0,8,DD,94,1D,A1,82,64,04,0E,
472923769,00000107,false,Rx,0,8,00,00,F8,2C,01,00,80,A6,
472924012,00000120,false,Rx,0,8,2B,02,00,02,01,08,FF,01,
472924246,00000121,false,Rx,0,8,83,02,00,40,37,5A,7E,FE,
472924480,00000147,false,Rx,0,8,00,00,00,00,F0,A3,60,1D,
472925093,000000AF,false,Rx,0,4,83,70,00,00,00,00,00,00,
472926193,00000086,false,Rx,0,8,41,04,2C,20,00,00,00,00,
472926421,0000012B,false,Rx,0,8,92,47,40,28,00,00,00,00,
472932792,000000B2,false,Rx,0,8,00,00,00,00,00,00,00,00,
472932797,000000FD,false,Rx,0,8,01,D1,1F,80,00,00,00,00,
472932803,00000116,false,Rx,0,8,EF,01,01,00,20,00,00,FF,
472932808,000003E5,false,Rx,0,8,18,2F,00,00,00,00,00,00,
472932813,000000AD,false,Rx,0,8,35,E7,BF,FF,00,14,00,00,
472932819,000000AE,false,Rx,0,8,28,07,00,00,FF,3C,01,02,
472932832,00000128,false,Rx,0,3,84,FF,08,00,00,00,00,00,
472932837,0000012D,false,Rx,0,8,52,8C,7F,00,00,00,FE,3F,
472933347,000000A7,false,Rx,0,8,F0,05,20,80,FD,01,98,3D,
472933555,000000A8,false,Rx,0,8,FF,95,1D,A1,82,64,08,0E,
472933808,0000030B,false,Rx,0,8,10,26,00,00,08,00,00,10,
472934604,000003B5,false,Rx,0,8,87,FE,12,3E,0C,99,20,00,
472935230,000000AF,false,Rx,0,4,83,71,00,00,00,00,00,00,
472936170,00000086,false,Rx,0,8,25,05,2C,20,00,00,00,00,
472936465,000005EA,false,Rx,0,8,00,00,00,36,F8,FE,FB,FF,
472937467,000000B2,false,Rx,0,8,00,00,00,00,00,00,00,00,
472937982,00000101,false,Rx,0,8,70,02,80,00,A2,03,00,00,
472938236,00000106,false,Rx,0,8,E0,02,63,00,02,00,00,00,
472938529,1A55552B,true,Rx,0,8,00,00,00,00,00,FE,F8,03,
472938776,0000011E,false,Rx,0,8,1C,02,00,00,00,00,00,00,
472941310,000000AD,false,Rx,0,8,A2,E8,BF,FF,00,14,00,00,
472941564,000000AE,false,Rx,0,8,5F,08,00,00,FF,3C,01,02,
472941854,00000365,false,Rx,0,8,AD,06,14,00,8D,0F,88,7A,
472943329,000000A7,false,Rx,0,8,63,06,20,80,FD,01,98,3D,
472943563,000000A8,false,Rx,0,8,CF,96,1D,A1,82,64,08,0E,
472943788,00000107,false,Rx,0,8,00,00,F8,2C,01,00,8D,A6,
472944031,00000120,false,Rx,0,8,F9,03,00,02,01,08,FF,01,
472944266,00000121,false,Rx,0,8,4C,03,00,00,37,5A,7E,FE,
472944494,00000147,false,Rx,0,8,00,00,00,00,F0,A3,60,1D,
472944759,00000366,false,Rx,0,8,00,00,00,20,80,03,00,00,
472944980,00000391,false,Rx,0,8,12,8C,22,4A,00,27,00,22,
472945235,000003BE,false,Rx,0,8,78,0F,E6,00,C8,80,00,80,
472945389,000000AF,false,Rx,0,4,83,72,35,01,00,00,00,00,
472945565,000003C0,false,Rx,0,4,84,03,03,00,00,00,00,00,
472945809,000003C7,false,Rx,0,8,01,10,24,00,00,40,80,00,
472946052,000003D6,false,Rx,0,8,02,00,00,00,00,00,30,00,
472946306,00000086,false,Rx,0,8,89,06,2C,20,00,00,00,00,
472952810,000000B2,false,Rx,0,8,00,00,00,00,00,00,00,00,
472952816,000000FD,false,Rx,0,8,CE,D2,1F,80,00,00,00,00,
472952821,00000116,false,Rx,0,8,43,02,01,00,20,00,00,FF,
472952834,000005F0,false,Rx,0,8,FD,00,64,00,00,64,00,00,
472952839,0000065A,false,Rx,0,8,00,00,02,10,00,00,3C,00,
472952844,000000AD,false,Rx,0,8,A6,E9,BF,FF,00,14,00,00,
472952850,000000AE,false,Rx,0,8,B7,09,00,00,FF,3C,01,02,
472952855,000005AC,false,Rx,0,8,00,00,FF,FE,FE,F7,07,00,
472952860,00000128,false,Rx,0,3,80,00,00,00,00,00,00,00,
472952865,0000012D,false,Rx,0,8,3E,8D,7F,00,00,00,FE,3F,
472953277,000000A7,false,Rx,0,8,EA,07,20,80,FD,01,98,3D,
472953512,000000A8,false,Rx,0,8,AA,97,1D,A1,82,64,00,0E,
472955210,000000AF,false,Rx,0,4,83,73,35,01,00,00,00,00,
472956200,00000086,false,Rx,0,8,ED,07,2C,20,00,00,00,00,
472956474,0000012B,false,Rx,0,8,47,48,40,28,00,00,00,00,
472957480,000000B2,false,Rx,0,8,00,00,00,00,00,00,00,00,
472957742,00000101,false,Rx,0,8,DB,03,80,00,A2,05,00,00,
472958005,00000106,false,Rx,0,8,84,03,63,00,02,00,00,00,
472958259,0000011E,false,Rx,0,8,78,03,00,00,00,00,00,00,
472959124,1B000010,true,Rx,0,8,10,00,04,05,11,00,00,00,
472961329,000000AD,false,Rx,0,8,F7,EA,BF,FF,00,14,00,00,
472961563,000000AE,false,Rx,0,8,CB,0A,00,00,FF,3C,01,02,
472961896,16A95414,true,Rx,0,8,00,30,7E,C3,0F,00,00,00,
472962129,000000B1,false,Rx,0,8,42,2A,00,00,00,00,00,00,
472963310,000000A7,false,Rx,0,8,CD,08,20,80,FD,05,88,3D,
472963546,000000A8,false,Rx,0,8,72,88,1D,61,82,64,F4,0D,
472963789,00000107,false,Rx,0,8,00,00,F8,2C,01,00,9A,A6,
472964031,00000120,false,Rx,0,8,AF,04,00,02,01,08,FF,01,
472964265,00000121,false,Rx,0,8,CC,04,00,40,37,5A,7E,FE,
472964498,00000147,false,Rx,0,8,00,00,00,00,F0,A3,60,1D,
472964741,00000585,false,Rx,0,8,0F,3C,00,7F,11,00,00,00,
472965196,000000AF,false,Rx,0,4,83,74,00,00,00,00,00,00,
472966184,00000086,false,Rx,0,8,AF,08,2C,20,00,00,00,00,
472972836,000000B2,false,Rx,0,8,00,00,00,00,00,00,00,00,
472972841,000000FD,false,Rx,0,8,BB,D3,1F,80,00,00,00,00,
472972847,00000116,false,Rx,0,8,27,03,01,00,20,00,00,FF,
472972852,00000392,false,Rx,0,8,FD,20,00,00,00,00,00,04,
472972857,0000031E,false,Rx,0,8,8B,F2,3F,00,00,00,00,40,
472972863,0000032C,false,Rx,0,8,00,0F,00,00,98,24,00,00,
472972868,0000032F,false,Rx,0,8,00,FF,00,00,00,00,12,01,
472972873,00000040,false,Rx,0,8,04,07,00,44,C1,00,00,00,
472972879,000000AD,false,Rx,0,8,42,EB,BF,FF,00,14,00,00,
472972884,000000AE,false,Rx,0,8,69,0B,00,00,FF,3C,01,02,
472972889,00000464,false,Rx,0,8,00,00,00,00,00,00,00,00,
472972895,00000128,false,Rx,0,3,80,00,00,00,00,00,00,00,
472972900,000003DB,false,Rx,0,8,50,00,01,04,07,24,01,A2,
472972905,0000012D,false,Rx,0,8,0E,8E,7F,00,00,00,FE,3F,
472972910,000003C8,false,Rx,0,8,00,00,54,24,00,60,01,82,
472973321,000000A7,false,Rx,0,8,04,09,60,80,FD,05,88,3D,
472973557,000000A8,false,Rx,0,8,38,89,1D,61,82,64,F0,0D,
472975230,000000AF,false,Rx,0,4,83,75,00,00,00,00,00,00,
472976165,00000086,false,Rx,0,8,CB,09,2C,20,00,00,00,00,
472977487,000000B2,false,Rx,0,8,00,00,00,00,00,00,00,00,
472977750,00000101,false,Rx,0,8,B2,04,80,00,A2,02,00,00,
472977988,00000106,false,Rx,0,8,97,04,63,00,02,00,00,00,
472978268,0000011E,false,Rx,0,8,6B,04,00,00,00,00,00,00,
472981321,000000AD,false,Rx,0,8,2F,EC,BF,FF,00,14,00,00,
472981555,000000AE,false,Rx,0,8,D1,0C,00,00,FF,3C,01,02,
472981862,000003DD,false,Rx,0,8,48,04,10,18,FE,4F,0A,00,
472983282,0000030B,false,Rx,0,8,10,27,00,00,08,00,00,10,
472983516,000000A7,false,Rx,0,8,02,0A,60,80,FD,05,88,3D,
472983761,000000A8,false,Rx,0,8,18,8A,1D,A1,82,64,F4,0D,
472983982,00000107,false,Rx,0,8,00,00,F8,2C,01,00,9A,A6,
472984216,00000120,false,Rx,0,8,AD,05,00,02,01,08,FF,01,
472984451,00000121,false,Rx,0,8,FB,05,00,40,37,5A,7E,FE,
472984720,00000147,false,Rx,0,8,00,00,00,00,F0,A3,60,1D,
472985081,000000AF,false,Rx,0,4,83,76,00,00,00,00,00,00,
472986182,00000086,false,Rx,0,8,67,0A,2C,20,00,00,00,00,
472986438,0000012B,false,Rx,0,8,4F,49,40,28,00,00,00,00,
472992857,000000B2,false,Rx,0,8,00,00,00,00,00,00,00,00,
472992862,000000FD,false,Rx,0,8,2D,D4,1F,80,00,00,00,00,
472992868,00000116,false,Rx,0,8,34,04,01,00,20,00,00,FF,
472992873,000000AD,false,Rx,0,8,5E,ED,BF,FF,00,14,00,00,
472992878,000000AE,false,Rx,0,8,B2,0D,00,00,FF,3C,01,02,
472992884,00000128,false,Rx,0,3,84,10,2A,00,00,00,00,00,
472992889,00000365,false,Rx,0,8,AD,06,14,00,8D,0F,88,7A,
472992894,0000012D,false,Rx,0,8,F9,8F,7F,00,00,00,FE,3F,
472993425,000000A7,false,Rx,0,8,6C,0B,60,80,FD,05,88,3D,
472993659,000000A8,false,Rx,0,8,CA,8B,1D,A1,82,64,00,0E,
472995220,000000AF,false,Rx,0,4,83,77,00,00,00,00,00,00,
472996203,00000086,false,Rx,0,8,03,0B,2C,20,00,00,00,00,
472997440,000000B2,false,Rx,0,8,00,00,00,00,00,00,00,00,
472997724,00000101,false,Rx,0,8,62,05,80,00,A2,00,40,00,
472997966,00000106,false,Rx,0,8,F3,05,63,00,02,00,00,00,
472998220,0000011E,false,Rx,0,8,0F,05,00,00,00,00,00,00,
473001317,000000AD,false,Rx,0,8,84,EE,BF,FF,00,14,00,00,
473001546,000000AE,false,Rx,0,8,8A,0E,00,00,FF,3C,01,02,
473001859,00000394,false,Rx,0,8,3A,1D,00,1A,00,00,00,00,
473002088,000003DE,false,Rx,0,8,FE,00,00,00,00,00,00,00,
473003278,000000A7,false,Rx,0,8,D3,0C,60,80,FD,05,88,3D,
473003512,000000A8,false,Rx,0,8,A4,8C,1D,A1,82,64,08,0E,
473003761,00000107,false,Rx,0,8,00,00,F8,2C,01,00,A7,A6,
473003981,00000120,false,Rx,0,8,42,06,00,02,01,08,FF,01,
473004225,00000121,false,Rx,0,8,FC,06,00,40,37,5A,7E,FE,
473004459,00000147,false,Rx,0,8,00,00,00,00,F0,A7,60,1D,
473005211,000000AF,false,Rx,0,4,83,78,3A,01,00,00,00,00,
473005504,1B000015,true,Rx,0,8,15,00,04,02,01,00,00,00,
473005764,1B000053,true,Rx,0,8,53,00,04,01,01,00,00,00,
473006190,00000086,false,Rx,0,8,10,0C,2C,20,00,00,00,00,
473011666,000000B2,false,Rx,0,8,00,00,00,00,00,00,00,00,
473011672,000000FD,false,Rx,0,8,B7,D5,1F,80,00,00,00,00,
473011678,00000116,false,Rx,0,8,50,05,01,00,20,00,00,FF,
473011684,000000AD,false,Rx,0,8,D5,EF,BF,FF,00,14,00,00,
473011689,000000AE,false,Rx,0,8,68,0F,00,00,FF,3C,01,02,
473011766,00000128,false,Rx,0,3,80,00,00,00,00,00,00,00,
473012030,0000012D,false,Rx,0,8,5D,80,7F,00,00,00,FE,3F,
473013309,000000A7,false,Rx,0,8,23,0D,60,80,FD,05,88,3D,
473013543,000000A8,false,Rx,0,8,8F,8D,1D,A1,82,64,0C,0E,
473015219,000000AF,false,Rx,0,4,83,79,3A,01,00,00,00,00,
473016203,00000086,false,Rx,0,8,74,0D,2C,20,00,00,00,00,
473016457,0000012B,false,Rx,0,8,5F,4A,40,28,00,00,00,00,
473017460,000000B2,false,Rx,0,8,00,00,00,00,00,00,00,00,
473017738,00000101,false,Rx,0,8,3F,06,80,00,A2,00,00,00,
473018002,00000106,false,Rx,0,8,5F,06,63,00,02,00,00,00,
473018254,0000011E,false,Rx,0,8,A3,06,00,00,00,00,00,00,
473018881,0000031E,false,Rx,0,8,C9,F3,3F,00,00,00,00,40,
473019141,0000032C,false,Rx,0,8,00,0F,00,00,98,24,00,00,
473019395,0000032F,false,Rx,0,8,00,FF,00,00,00,00,12,01,
473019628,00000040,false,Rx,0,8,46,08,00,44,C1,00,00,00,
473020594,000003D8,false,Rx,0,8,00,00,08,00,00,00,00,00,
473021341,000000AD,false,Rx,0,8,48,E0,BF,FF,00,14,00,00,
473021574,000000AE,false,Rx,0,8,DF,00,00,00,FF,3C,01,02,
473021820,00000462,false,Rx,0,8,01,00,38,00,00,01,00,00,
473022057,00000520,false,Rx,0,8,D2,08,00,08,00,0A,00,0A,
473023302,000000A7,false,Rx,0,8,22,0E,60,80,FD,01,88,3D,
473023536,000000A8,false,Rx,0,8,3D,8E,1D,A1,82,64,0C,0E,
473023781,00000107,false,Rx,0,8,00,00,F8,2C,01,00,A7,A6,
473023998,00000120,false,Rx,0,8,40,07,00,02,01,08,FF,01,
473024237,00000121,false,Rx,0,8,AF,07,00,40,37,5A,7E,FE,
473024493,00000147,false,Rx,0,8,00,00,00,00,F0,A7,60,1D,
473025202,000000AF,false,Rx,0,4,83,7A,00,00,00,00,00,00,
473026184,00000086,false,Rx,0,8,D8,0E,2C,20,00,00,00,00,
473032871,000000B2,false,Rx,0,8,00,00,00,00,00,00,00,00,
473032877,000000FD,false,Rx,0,8,A5,D6,1F,80,00,00,00,00,
473032882,00000116,false,Rx,0,8,FC,06,01,00,20,00,00,FF,
473032887,000003E5,false,Rx,0,8,F3,20,00,00,00,00,00,00,
473032893,000000AD,false,Rx,0,8,86,E1,BF,FF,00,14,00,00,
473032898,000000AE,false,Rx,0,8,30,01,00,00,FF,3C,01,02,
473032903,00000128,false,Rx,0,3,84,10,D5,00,00,00,00,00,
473032908,0000012D,false,Rx,0,8,0A,81,7F,00,00,00,FE,3F,
473033259,000000A7,false,Rx,0,8,E5,0F,20,80,FD,01,88,3D,
473033493,000000A8,false,Rx,0,8,B2,8F,1D,A1,82,64,0C,0E,
473033760,0000030B,false,Rx,0,8,10,28,00,00,08,00,00,10,
473034003,00000643,false,Rx,0,8,85,02,13,00,00,00,00,00,
473034725,000003B5,false,Rx,0,8,87,FE,12,3E,0C,99,20,00,
473035223,000000AF,false,Rx,0,4,83,7B,00,00,00,00,00,00,
473036187,00000086,false,Rx,0,8,BC,0F,2C,20,00,00,00,00,
473037443,000000B2,false,Rx,0,8,00,00,00,00,00,00,00,00,
473037731,00000101,false,Rx,0,8,5B,07,80,00,A2,00,00,00,
473037973,00000106,false,Rx,0,8,3B,07,63,00,02,00,00,00,
473038228,0000011E,false,Rx,0,8,C7,07,00,00,00,00,00,00,
473041321,000000AD,false,Rx,0,8,62,E2,BF,FF,00,14,00,00,
473041575,000000AE,false,Rx,0,8,31,02,00,00,FF,3C,01,02,
473041846,00000365,false,Rx,0,8,AD,06,14,00,8D,0F,88,7A,
473043283,000000A7,false,Rx,0,8,2C,00,20,80,FD,01,88,3D,
473043516,000000A8,false,Rx,0,8,E2,80,1D,A1,82,64,08,0E,
473043760,00000107,false,Rx,0,8,00,00,F8,2C,01,00,B4,A6,
473044003,00000120,false,Rx,0,8,19,08,00,02,01,08,FF,01,
473044238,00000121,false,Rx,0,8,6C,08,00,40,37,5A,7E,FE,
473044471,00000147,false,Rx,0,8,00,00,00,00,F0,A7,60,1D,
473044730,000002C2,false,Rx,0,8,00,00,00,00,00,00,00,00,
473044953,00000391,false,Rx,0,8,12,8C,22,4A,00,27,00,22,
473045129,000000AF,false,Rx,0,4,83,7C,C5,01,00,00,00,00,
473045362,000003BE,false,Rx,0,8,C1,00,E6,00,C8,80,00,80,
473045537,000003C0,false,Rx,0,4,FE,04,03,00,00,00,00,00,
473045781,000003C7,false,Rx,0,8,76,10,24,00,00,40,80,00,
473046025,000003D6,false,Rx,0,8,03,00,00,00,00,00,30,00,
473046319,17F00076,true,Rx,0,8,20,76,00,00,00,00,00,80,
473046552,00000086,false,Rx,0,8,FE,00,2C,20,00,00,00,00,
473046801,00000640,false,Rx,0,8,E0,92,81,C7,7D,20,0F,00,
473054069,0000012B,false,Rx,0,8,FA,4B,40,28,00,00,00,00,
473054074,00000647,false,Rx,0,8,B8,FD,FF,7F,00,00,00,18,
473054079,0000065F,false,Rx,0,8,2E,20,00,00,00,00,2C,7F,
473054085,000000B2,false,Rx,0,8,00,00,00,00,00,00,00,00,
473054090,00000670,false,Rx,0,8,19,10,00,00,00,01,00,88,
473054095,000000FD,false,Rx,0,8,9F,D7,1F,80,00,00,00,00,
473054101,00000116,false,Rx,0,8,98,07,01,00,20,00,00,FF,
473054106,000000AD,false,Rx,0,8,E3,E3,BF,FF,00,14,00,00,
473054111,000000AE,false,Rx,0,8,14,03,00,00,FF,3C,01,02,
473054117,000005AC,false,Rx,0,8,00,00,FF,FE,FE,F7,07,00,
473054122,00000128,false,Rx,0,3,80,00,00,00,00,00,00,00,
473054127,0000012D,false,Rx,0,8,18,82,7F,00,00,00,FE,3F,
473054132,000000A7,false,Rx,0,8,A4,01,20,80,FD,01,88,3D,
473054138,000000A8,false,Rx,0,8,A0,81,1D,A1,82,64,0C,0E,
473055223,000000AF,false,Rx,0,4,83,7D,C5,01,00,00,00,00,
473056184,00000086,false,Rx,0,8,9A,01,2C,20,00,00,00,00,
473057487,000000B2,false,Rx,0,8,00,00,00,00,00,00,00,00,
473057752,00000101,false,Rx,0,8,E9,08,80,00,A2,03,00,00,
473057994,00000106,false,Rx,0,8,79,08,63,00,02,00,00,00,
473058250,0000011E,false,Rx,0,8,85,08,00,00,00,00,00,00,
473061321,000000AD,false,Rx,0,8,41,E4,BF,FF,00,14,00,00,
473061576,000000AE,false,Rx,0,8,1A,04,00,00,FF,3C,01,02,
473061875,16A95414,true,Rx,0,8,00,30,7E,C3,0F,00,00,00,
473062134,000000B1,false,Rx,0,8,C2,2B,00,00,00,00,00,00,
473063298,000000A7,false,Rx,0,8,D0,02,20,80,FD,01,88,3D,
473063533,000000A8,false,Rx,0,8,E4,82,1D,A1,82,64,10,0E,
473063761,00000107,false,Rx,0,8,00,00,F8,2C,01,00,C1,A6,
473064003,00000120,false,Rx,0,8,4F,09,00,02,01,08,FF,01,
473064238,00000121,false,Rx,0,8,93,09,00,40,37,5A,7E,FE,
473064472,00000147,false,Rx,0,8,00,00,00,00,F0,A7,60,1D,
473065202,000000AF,false,Rx,0,4,83,7E,00,00,00,00,00,00,
473066203,00000086,false,Rx,0,8,36,02,2C,20,00,00,00,00,
473072885,000000B2,false,Rx,0,8,00,00,00,00,00,00,00,00,
473072890,000000FD,false,Rx,0,8,58,D8,1F,80,00,00,00,00,
473072896,00000116,false,Rx,0,8,DA,08,01,00,20,00,00,FF,
473072901,00000392,false,Rx,0,8,99,21,00,00,00,00,00,04,
473072906,000006B4,false,Rx,0,8,00,91,97,71,29,33,56,57,
473072912,0000031E,false,Rx,0,8,64,F4,3F,00,00,00,00,40,
473072917,0000032C,false,Rx,0,8,00,0F,00,00,98,24,00,00,
473072922,0000032F,false,Rx,0,8,00,FF,00,00,00,00,12,01,
473072928,00000040,false,Rx,0,8,22,09,00,44,C1,00,00,00,
473072933,000000AD,false,Rx,0,8,74,E5,BF,FF,00,14,00,00,
473072938,000000AE,false,Rx,0,8,E1,05,00,00,FF,3C,01,02,
473072944,00000463,false,Rx,0,8,00,E0,03,00,00,00,00,00,
473072949,00000128,false,Rx,0,3,84,FF,09,00,00,00,00,00,
473072954,000003DB,false,Rx,0,8,50,00,01,04,07,24,01,A2,
473073005,0000012D,false,Rx,0,8,89,83,7F,00,00,00,FE,3F,
473073010,000003C8,false,Rx,0,8,00,00,54,24,00,60,01,82,
473073015,17F00077,true,Rx,0,8,20,77,00,00,00,00,00,00,
473073315,1B000077,true,Rx,0,8,77,00,04,02,01,00,00,00,
473073550,000000A7,false,Rx,0,8,51,03,20,80,FD,01,88,3D,
473073776,000000A8,false,Rx,0,8,33,83,1D,A1,82,64,14,0E,
473075223,000000AF,false,Rx,0,4,83,7F,00,00,00,00,00,00,
473076184,00000086,false,Rx,0,8,52,03,2C,20,00,00,00,00,
473076477,0000012B,false,Rx,0,8,BF,4C,40,28,00,00,00,00,
473077539,000000B2,false,Rx,0,8,00,00,00,00,00,00,00,00,
473077808,00000101,false,Rx,0,8,7D,09,80,00,A2,00,00,00,
473078071,00000106,false,Rx,0,8,1D,09,63,00,02,00,00,00,
473078305,0000011E,false,Rx,0,8,E1,09,00,00,00,00,00,00,
473078554,000001AB,false,Rx,0,8,83,0B,04,02,18,00,04,00,
473081322,000000AD,false,Rx,0,8,6A,E6,BF,FF,00,14,00,00,
473081550,000000AE,false,Rx,0,8,BA,06,00,00,FF,3C,01,02,
473081847,000003DD,false,Rx,0,8,48,04,10,18,FE,4F,0A,00,
473083265,0000030B,false,Rx,0,8,10,29,00,00,08,00,00,10,
473083500,000000A7,false,Rx,0,8,6B,04,20,80,FD,01,88,3D,
473083739,000000A8,false,Rx,0,8,D7,84,1D,A1,82,64,18,0E,
473083982,00000107,false,Rx,0,8,00,00,F8,2C,01,00,C1,A6,
473084217,00000120,false,Rx,0,8,94,0A,00,02,01,08,FF,01,
473084451,00000121,false,Rx,0,8,F6,0A,00,40,37,5A,7E,FE,
473084686,00000147,false,Rx,0,8,00,00,00,00,F0,A7,60,1D,
473084935,0000065E,false,Rx,0,8,00,00,FE,80,23,00,00,00,
473085209,000000AF,false,Rx,0,4,83,70,41,01,00,00,00,00,
473086192,00000086,false,Rx,0,8,41,04,2C,20,00,00,00,00,
473094096,000000B2,false,Rx,0,8,00,00,00,00,00,00,00,00,
473094102,000000FD,false,Rx,0,8,6A,D9,1F,80,00,00,00,00,
473094107,00000116,false,Rx,0,8,BE,09,01,00,20,00,00,FF,
473094112,000001A2,false,Rx,0,8,50,08,00,00,00,00,00,00,
473094118,000000AD,false,Rx,0,8,35,E7,BF,FF,00,14,00,00,
473094123,000000AE,false,Rx,0,8,28,07,00,00,FF,3C,01,02,
473094128,00000365,false,Rx,0,8,AD,06,14,00,8D,0F,88,7A,
473094134,00000128,false,Rx,0,3,80,00,00,00,00,00,00,00,
473094139,0000012D,false,Rx,0,8,06,84,7F,00,00,00,FE,3F,
473094144,000003D4,false,Rx,0,8,22,02,80,06,00,04,00,00,
473094149,000000A7,false,Rx,0,8,10,05,20,80,FD,01,88,3D,
473094155,000000A8,false,Rx,0,8,BD,85,1D,A1,82,64,18,0E,
473095219,000000AF,false,Rx,0,4,83,71,41,01,00,00,00,00,
473096182,00000086,false,Rx,0,8,25,05,2C,20,00,00,00,00,
473097458,000000B2,false,Rx,0,8,00,00,00,00,00,00,00,00,
473097741,00000101,false,Rx,0,8,94,0A,80,00,A2,02,00,00,
473097984,00000106,false,Rx,0,8,B1,0A,63,00,02,00,00,00,
473098212,0000011E,false,Rx,0,8,4D,0A,00,00,00,00,00,00,
473098511,1B000076,true,Rx,0,8,76,00,04,01,01,00,00,00,
473101292,000000AD,false,Rx,0,8,A2,E8,BF,FF,00,14,00,00,
473101572,000000AE,false,Rx,0,8,5F,08,00,00,FF,3C,01,02,
473101859,000003DE,false,Rx,0,8,FE,00,00,00,00,00,00,00,
473103278,000000A7,false,Rx,0,8,83,06,20,80,FD,01,88,3D,
473103512,000000A8,false,Rx,0,8,8D,86,1D,A1,82,64,18,0E,
473103755,00000107,false,Rx,0,8,00,00,F8,2C,01,00,CE,A6,
473103998,00000120,false,Rx,0,8,38,0B,00,02,01,08,FF,01,
473104206,00000121,false,Rx,0,8,5D,0B,00,40,37,5A,7E,FE,
473104475,00000147,false,Rx,0,8,00,00,00,00,F0,A7,60,1D,
473105085,000000AF,false,Rx,0,4,83,72,00,00,00,00,00,00,
473106183,00000086,false,Rx,0,8,89,06,2C,20,00,00,00,00,
473106437,0000012B,false,Rx,0,8,EB,4D,40,28,00,00,00,00,
473112899,000000B2,false,Rx,0,8,00,00,00,00,00,00,00,00,
473112904,000000FD,false,Rx,0,8,26,DA,1F,80,00,00,00,00,
473112909,00000116,false,Rx,0,8,12,0A,01,00,20,00,00,FF,
473112915,000000AD,false,Rx,0,8,A6,E9,BF,FF,00,14,00,00,
473112920,000000AE,false,Rx,0,8,B7,09,00,00,FF,3C,01,02,
473112925,00000128,false,Rx,0,3,80,00,00,00,00,00,00,00,
473112930,0000012D,false,Rx,0,8,79,85,7F,00,00,00,FE,3F,
473113479,000000A7,false,Rx,0,8,0A,07,20,80,FD,01,88,3D,
473113734,000000A8,false,Rx,0,8,A0,87,1D,A1,82,64,1C,0E,
473115223,000000AF,false,Rx,0,4,83,73,00,00,00,00,00,00,
473116183,00000086,false,Rx,0,8,ED,07,2C,20,00,00,00,00,
473117455,000000B2,false,Rx,0,8,00,00,00,00,00,00,00,00,
473117748,00000101,false,Rx,0,8,44,0B,80,00,A2,00,40,00,
473117991,00000106,false,Rx,0,8,D5,0B,63,00,02,00,00,00,
473118245,0000011E,false,Rx,0,8,29,0B,00,00,00,00,00,00,
473118889,0000031E,false,Rx,0,8,1B,F5,3F,00,00,00,00,40,
473119122,0000032C,false,Rx,0,8,00,0F,00,00,98,24,00,00,
473119378,0000032F,false,Rx,0,8,00,FF,00,00,00,00,12,01,
473119611,00000040,false,Rx,0,8,8E,0A,00,44,C1,00,00,00,
473120559,000003D8,false,Rx,0,8,00,00,08,00,00,00,00,00,
473121342,000000AD,false,Rx,0,8,F7,EA,BF,FF,00,14,00,00,
473121575,000000AE,false,Rx,0,8,CB,0A,00,00,FF,3C,01,02,
473121848,00000464,false,Rx,0,8,00,00,00,00,00,00,00,00,
473123366,000000A7,false,Rx,0,8,0C,08,E0,7F,FD,01,88,3D,
473123574,000000A8,false,Rx,0,8,FD,88,1D,A1,82,64,24,0E,
473123836,00000107,false,Rx,0,8,00,00,F8,2C,01,00,CE,A6,
473124070,00000120,false,Rx,0,8,E2,0C,00,02,01,08,FF,01,
473124305,00000121,false,Rx,0,8,98,0C,00,40,37,5A,7E,FE,
473124538,00000147,false,Rx,0,8,00,00,00,00,F0,A7,60,1D,
473125211,000000AF,false,Rx,0,4,83,74,00,00,00,00,00,00,
473126191,00000086,false,Rx,0,8,AF,08,2C,20,00,00,00,00,
473132910,000000B2,false,Rx,0,8,00,00,00,00,00,00,00,00,
473132915,000000FD,false,Rx,0,8,09,DB,1F,80,00,00,00,00,
473132921,00000116,false,Rx,0,8,76,0B,01,00,20,00,00,FF,
473132926,000003E5,false,Rx,0,8,B2,21,00,00,00,00,00,00,
473132931,000000AD,false,Rx,0,8,42,EB,BF,FF,00,14,00,00,
473132937,000000AE,false,Rx,0,8,69,0B,00,00,FF,3C,01,02,
473132942,00000128,false,Rx,0,3,84,1B,29,00,00,00,00,00,
473132947,0000012D,false,Rx,0,8,C9,86,7F,00,00,00,FE,3F,
473133280,000000A7,false,Rx,0,8,9B,09,E0,7F,FD,FD,87,3D,
473133489,000000A8,false,Rx,0,8,C7,89,1D,A1,82,64,28,0E,
473133759,0000030B,false,Rx,0,8,10,2A,00,00,08,00,00,10,
473134079,000006B7,false,Rx,0,8,D1,9D,A3,45,01,12,00,A2,
473134373,000006B8,false,Rx,0,8,B8,07,84,98,1C,6C,00,00,
473135026,000003B5,false,Rx,0,8,87,FE,12,3C,0C,99,20,00,
473135221,000000AF,false,Rx,0,4,83,75,00,00,00,00,00,00,
473136204,00000086,false,Rx,0,8,CB,09,2C,20,00,00,00,00,
473136477,0000012B,false,Rx,0,8,A4,4E,40,28,00,00,00,00,
473137519,000000B2,false,Rx,0,8,00,00,00,00,00,00,00,00,
473137784,00000101,false,Rx,0,8,A6,0C,80,00,A2,00,00,00,
473138046,00000106,false,Rx,0,8,C6,0C,63,00,02,00,00,00,
473138301,0000011E,false,Rx,0,8,3A,0C,00,00,00,00,00,00,
473141338,000000AD,false,Rx,0,8,2F,EC,BF,FF,00,14,00,00,
473141571,000000AE,false,Rx,0,8,D1,0C,00,00,FF,3C,01,02,
473141849,00000365,false,Rx,0,8,AD,06,14,00,8D,0F,88,7A,
473143349,000000A7,false,Rx,0,8,9D,0A,E0,7F,FD,FD,87,3D,
473143583,000000A8,false,Rx,0,8,98,8A,1D,A1,82,64,28,0E,
473143808,00000107,false,Rx,0,8,00,00,F8,2C,01,00,DB,A6,
473144052,00000120,false,Rx,0,8,52,0D,00,02,01,08,FF,01,
473144287,00000121,false,Rx,0,8,8B,0D,00,40,37,5A,7E,FE,
473144521,00000147,false,Rx,0,8,00,00,00,00,F0,A7,60,1D,
473144769,00000391,false,Rx,0,8,12,8C,22,4A,00,27,00,22,
473144990,000003BE,false,Rx,0,8,B5,01,E6,00,C8,80,00,80,
473145167,000003C0,false,Rx,0,4,4B,05,03,00,00,00,00,00,
473145316,000000AF,false,Rx,0,4,83,76,32,01,00,00,00,00,
473145576,000003C7,false,Rx,0,8,01,10,24,00,00,40,80,00,
473145821,000003D6,false,Rx,0,8,04,00,00,00,00,00,30,00,
473146179,00000086,false,Rx,0,8,67,0A,2C,20,00,00,00,00,
473146861,00000569,false,Rx,0,8,00,00,00,3E,F8,10,00,00,
473154101,000000B2,false,Rx,0,8,00,00,00,00,00,00,00,00,
473154106,000005F0,false,Rx,0,8,FD,00,64,00,00,64,00,00,
473154111,000000FD,false,Rx,0,8,90,DC,1F,80,00,00,00,00,
473154117,00000116,false,Rx,0,8,65,0C,01,00,20,00,00,FF,
473154122,000000AD,false,Rx,0,8,5E,ED,BF,FF,00,14,00,00,
473154127,000000AE,false,Rx,0,8,B2,0D,00,00,FF,3C,01,02,
473154133,000005AC,false,Rx,0,8,00,00,FF,FE,FE,F7,07,00,
473154138,00000128,false,Rx,0,3,80,00,00,00,00,00,00,00,
473154143,0000012D,false,Rx,0,8,98,87,7F,00,00,00,FE,3F,
473154148,000000A7,false,Rx,0,8,F3,0B,E0,7F,FD,FD,87,3D,
473154154,000000A8,false,Rx,0,8,25,8B,1D,A1,82,64,20,0E,
473155220,000000AF,false,Rx,0,4,83,77,32,01,00,00,00,00,
473156182,00000086,false,Rx,0,8,03,0B,2C,20,00,00,00,00,
473157519,000000B2,false,Rx,0,8,00,00,00,00,00,00,00,00,
473157784,00000101,false,Rx,0,8,C2,0D,80,00,A2,00,00,00,
473158022,00000106,false,Rx,0,8,A2,0D,63,00,02,00,00,00,
473158280,0000011E,false,Rx,0,8,5E,0D,00,00,00,00,00,00,
473159124,1B000010,true,Rx,0,8,10,00,04,05,11,00,00,00,
473161330,000000AD,false,Rx,0,8,84,EE,BF,FF,00,14,00,00,
473161563,000000AE,false,Rx,0,8,8A,0E,00,00,FF,3C,01,02,
473161890,16A95414,true,Rx,0,8,00,30,7E,C3,0F,00,00,00,
473162118,000000B1,false,Rx,0,8,E0,2C,00,00,00,00,00,00,
473162377,00000394,false,Rx,0,8,05,1E,00,1A,00,00,00,00,
473163302,000000A7,false,Rx,0,8,EB,0C,E0,7F,FD,01,98,3D,
473163537,000000A8,false,Rx,0,8,3E,9C,1D,A1,82,64,0C,0E,
473163781,00000107,false,Rx,0,8,00,00,F8,2C,01,00,E8,A6,
473164024,00000120,false,Rx,0,8,39,0E,00,02,01,08,FF,01,
473164259,00000121,false,Rx,0,8,18,0E,00,40,37,5A,7E,FE,
473164492,00000147,false,Rx,0,8,00,00,00,00,F0,A3,60,1D,
473164782,16A95415,true,Rx,0,8,00,00,00,00,14,00,98,00,
473165084,000000AF,false,Rx,0,4,83,78,00,00,00,00,00,00,
473166182,00000086,false,Rx,0,8,10,0C,2C,20,00,00,00,00,
473166438,0000012B,false,Rx,0,8,8E,4F,40,28,00,00,00,00,
473172942,000000B2,false,Rx,0,8,00,00,00,00,00,00,00,00,
473172948,000000FD,false,Rx,0,8,19,DD,1F,80,00,00,00,00,
473172953,00000116,false,Rx,0,8,01,0D,01,00,20,00,00,FF,
473172958,00000392,false,Rx,0,8,35,22,00,00,00,00,00,04,
473172964,0000031E,false,Rx,0,8,9C,F6,3F,00,00,00,00,40,
473172969,0000032C,false,Rx,0,8,00,0F,00,00,98,24,00,00,
473172974,0000032F,false,Rx,0,8,00,FF,00,00,00,00,12,01,
473172980,00000040,false,Rx,0,8,EA,0B,00,44,C1,00,00,00,
473172985,000000AD,false,Rx,0,8,D5,EF,BF,FF,00,14,00,00,
473172990,000000AE,false,Rx,0,8,68,0F,00,00,FF,3C,01,02,
473172996,000003DB,false,Rx,0,8,50,00,01,04,07,24,01,A2,
473173001,00000128,false,Rx,0,3,84,1B,D6,00,00,00,00,00,
473173006,0000012D,false,Rx,0,8,57,88,7F,00,00,00,FE,3F,
473173011,000003C8,false,Rx,0,8,00,00,54,24,00,60,01,82,
473173220,00000385,false,Rx,0,8,20,00,22,00,00,00,02,00,
473173480,000000A7,false,Rx,0,8,1B,0D,E0,7F,FD,01,98,3D,
473173702,000000A8,false,Rx,0,8,5D,9D,1D,A1,82,64,04,0E,
473173944,000003E8,false,Rx,0,8,00,02,00,00,00,20,00,00,
473174219,000003FE,false,Rx,0,8,00,00,00,00,00,00,00,00,
473174453,00000462,false,Rx,0,8,82,80,93,5A,C1,81,B4,00,
473175223,000000AF,false,Rx,0,4,83,79,00,00,00,00,00,00,
473176184,00000086,false,Rx,0,8,74,0D,2C,20,00,00,00,00,
473177546,000000B2,false,Rx,0,8,00,00,00,00,00,00,00,00,
473177809,00000101,false,Rx,0,8,6E,0E,80,00,A2,00,00,00,
473178071,00000106,false,Rx,0,8,0E,0E,63,00,02,00,00,00,
473178325,0000011E,false,Rx,0,8,F2,0E,00,00,00,00,00,00,
473181320,000000AD,false,Rx,0,8,48,E0,BF,FF,00,14,00,00,
473181575,000000AE,false,Rx,0,8,DF,00,00,00,FF,3C,01,02,
473181847,000003DD,false,Rx,0,8,48,04,10,18,FE,4F,0A,00,
473183283,0000030B,false,Rx,0,8,10,2B,00,00,08,00,00,10,
473183517,000000A7,false,Rx,0,8,DB,0E,20,80,FD,01,98,3D,
473183734,000000A8,false,Rx,0,8,EF,9E,1D,A1,82,64,04,0E,
473183983,00000107,false,Rx,0,8,00,00,F8,2C,01,00,E8,A6,
473184217,00000120,false,Rx,0,8,EC,0F,00,02,01,08,FF,01,
473184451,00000121,false,Rx,0,8,AE,0F,00,40,37,5A,7E,FE,
473184716,00000147,false,Rx,0,8,00,00,00,00,F0,A3,60,1D,
473185194,000000AF,false,Rx,0,4,83,7A,CD,01,00,00,00,00,
473186178,00000086,false,Rx,0,8,D8,0E,2C,20,00,00,00,00,
473194130,000000B2,false,Rx,0,8,00,00,00,00,00,00,00,00,
473194135,000000FD,false,Rx,0,8,E6,DE,1F,80,00,00,00,00,
473194140,00000116,false,Rx,0,8,AD,0E,01,00,20,00,00,FF,
473194146,000000AD,false,Rx,0,8,86,E1,BF,FF,00,14,00,00,
473194151,000000AE,false,Rx,0,8,30,01,00,00,FF,3C,01,02,
473194156,00000365,false,Rx,0,8,AD,06,14,00,8D,0F,88,7A,
473194162,00000128,false,Rx,0,3,80,00,00,00,00,00,00,00,
473194167,0000012D,false,Rx,0,8,F2,89,7F,00,00,00,FE,3F,
473194172,000000A7,false,Rx,0,8,05,0F,20,80,FD,01,98,3D,
473194177,000000A8,false,Rx,0,8,B8,9F,1D,A1,82,64,10,0E,
473195203,000000AF,false,Rx,0,4,83,7B,CD,01,00,00,00,00,
473196203,00000086,false,Rx,0,8,BC,0F,2C,20,00,00,00,00,
473196437,0000012B,false,Rx,0,8,05,40,40,28,00,00,00,00,
473197480,000000B2,false,Rx,0,8,00,00,00,00,00,00,00,00,
473197764,00000101,false,Rx,0,8,4E,0F,80,00,A2,01,40,00,
473198006,00000106,false,Rx,0,8,6A,0F,63,00,02,00,00,00,
473198261,0000011E,false,Rx,0,8,96,0F,00,00,00,00,00,00,
473201338,000000AD,false,Rx,0,8,62,E2,BF,FF,00,14,00,00,
473201570,000000AE,false,Rx,0,8,31,02,00,00,FF,3C,01,02,
473201859,000003DE,false,Rx,0,8,FE,00,00,00,00,00,00,00,
473203298,000000A7,false,Rx,0,8,CC,00,20,80,FD,01,98,3D,
473203533,000000A8,false,Rx,0,8,A0,90,1D,A1,82,64,18,0E,
473203760,00000107,false,Rx,0,8,00,00,F8,2C,01,00,F4,A6,
473204004,00000120,false,Rx,0,8,26,00,00,02,01,08,FF,01,
473204237,00000121,false,Rx,0,8,60,00,00,40,37,5A,7E,FE,
473204501,00000147,false,Rx,0,8,00,00,00,00,F0,A3,60,1D,
473205212,000000AF,false,Rx,0,4,83,7C,00,00,00,00,00,00,
473205484,1B000053,true,Rx,0,8,53,00,04,01,01,00,00,00,
473205789,1B000015,true,Rx,0,8,15,00,04,02,01,00,00,00,
473206210,00000086,false,Rx,0,8,FE,00,2C,20,00,00,00,00,
473211804,000000B2,false,Rx,0,8,00,00,00,00,00,00,00,00,
473211810,000000FD,false,Rx,0,8,71,DF,1F,80,00,00,00,00,
473211815,00000116,false,Rx,0,8,C9,0F,01,00,20,00,00,FF,
473211820,000000AD,false,Rx,0,8,E3,E3,BF,FF,00,14,00,00,
473211834,000000AE,false,Rx,0,8,14,03,00,00,FF,3C,01,02,
473211839,00000128,false,Rx,0,3,84,FF,0A,00,00,00,00,00,
473212033,0000012D,false,Rx,0,8,7B,8A,7F,00,00,00,FE,3F,
473213349,000000A7,false,Rx,0,8,0F,01,E0,7F,FD,01,98,3D,
473213584,000000A8,false,Rx,0,8,E2,91,1D,A1,82,64,1C,0E,
473215219,000000AF,false,Rx,0,4,83,7D,00,00,00,00,00,00,
473216203,00000086,false,Rx,0,8,9A,01,2C,20,00,00,00,00,
473217441,000000B2,false,Rx,0,8,00,00,00,00,00,00,00,00,
473217729,00000101,false,Rx,0,8,FD,00,80,00,A2,01,00,00,
473217971,00000106,false,Rx,0,8,28,00,63,00,02,00,00,00,
473218199,0000011E,false,Rx,0,8,D4,00,00,00,00,00,00,00,
473218930,0000031E,false,Rx,0,8,9A,F7,3F,00,00,00,00,40,
473219189,0000032C,false,Rx,0,8,00,0F,00,00,98,24,00,00,
473219444,0000032F,false,Rx,0,8,00,FF,00,00,00,00,12,01,
473219679,00000040,false,Rx,0,8,F9,0C,00,44,C1,00,00,00,
473220517,000003D8,false,Rx,0,8,00,00,08,00,00,00,00,00,
473221349,000000AD,false,Rx,0,8,41,E4,BF,FF,00,14,00,00,
473221605,00000463,false,Rx,0,8,02,89,1F,00,00,00,00,00,
473221856,000000AE,false,Rx,0,8,1A,04,00,00,FF,3C,01,02,
473222089,00000520,false,Rx,0,8,B6,09,00,08,00,0A,00,0A,
473223368,000000A7,false,Rx,0,8,30,02,20,80,FD,01,98,3D,
473223603,000000A8,false,Rx,0,8,49,92,1D,A1,82,64,20,0E,
473223823,00000107,false,Rx,0,8,00,00,F8,2C,01,00,F4,A6,
473224070,00000120,false,Rx,0,8,D3,01,00,02,01,08,FF,01,
473224304,00000121,false,Rx,0,8,0C,01,00,40,37,5A,7E,FE,
473224560,00000147,false,Rx,0,8,00,00,00,00,F0,A3,60,1D,
473225072,000000AF,false,Rx,0,4,83,7E,20,01,00,00,00,00,
473226190,00000086,false,Rx,0,8,36,02,2C,20,00,00,00,00,
473226446,0000012B,false,Rx,0,8,77,41,40,28,00,00,00,00,
473232999,000000B2,false,Rx,0,8,00,00,00,00,00,00,00,00,
473233004,000000FD,false,Rx,0,8,0B,D0,1F,80,00,00,00,00,
473233010,00000116,false,Rx,0,8,8B,00,01,00,20,00,00,FF,
473233015,000003E5,false,Rx,0,8,6F,22,00,00,00,00,00,00,
473233020,000000AD,false,Rx,0,8,74,E5,BF,FF,00,14,00,00,
473233026,000000AE,false,Rx,0,8,E1,05,00,00,FF,3C,01,02,
473233031,00000128,false,Rx,0,3,80,00,00,00,00,00,00,00,
473233036,0000012D,false,Rx,0,8,60,8B,7F,00,00,00,FE,3F,
473233348,000000A7,false,Rx,0,8,B1,03,20,80,FD,01,98,3D,
473233584,000000A8,false,Rx,0,8,E1,93,1D,A1,82,64,1C,0E,
473233836,0000030B,false,Rx,0,8,10,2C,00,00,08,00,00,10,
473234464,000003B5,false,Rx,0,8,87,FE,12,3E,0C,99,20,00,
473235211,000000AF,false,Rx,0,4,83,7F,20,01,00,00,00,00,
473236179,00000086,false,Rx,0,8,52,03,2C,20,00,00,00,00,
473237499,000000B2,false,Rx,0,8,00,00,00,00,00,00,00,00,
473237760,00000101,false,Rx,0,8,DD,01,80,00,A2,00,40,00,
473238024,00000106,false,Rx,0,8,4C,01,63,00,02,00,00,00,
473238278,0000011E,false,Rx,0,8,B0,01,00,00,00,00,00,00,
473241338,000000AD,false,Rx,0,8,6A,E6,BF,FF,00,14,00,00,
473241571,000000AE,false,Rx,0,8,BA,06,00,00,FF,3C,01,02,
473241849,00000365,false,Rx,0,8,AD,06,14,00,8D,0F,88,7A,
473243283,000000A7,false,Rx,0,8,87,04,E0,7F,FD,FD,97,3D,
473243516,000000A8,false,Rx,0,8,3D,94,1D,A1,82,64,14,0E,
473243760,00000107,false,Rx,0,8,00,00,F8,2C,01,00,01,A7,
473244004,00000120,false,Rx,0,8,2B,02,00,02,01,08,FF,01,
473244238,00000121,false,Rx,0,8,83,02,00,40,37,5A,7E,FE,
473244467,00000147,false,Rx,0,8,00,00,00,00,F0,A3,60,1D,
473244715,00000391,false,Rx,0,8,12,8C,22,4A,00,27,00,22,
473244959,000003BE,false,Rx,0,8,DA,02,E6,00,C8,80,00,80,
473245108,000003C0,false,Rx,0,4,BB,06,03,00,00,00,00,00,
473245288,000000AF,false,Rx,0,4,83,70,00,00,00,00,00,00,
473245543,000003C7,false,Rx,0,8,76,10,24,00,00,40,80,00,
473245790,000003D6,false,Rx,0,8,05,00,00,00,00,00,30,00,
473246189,00000086,false,Rx,0,8,41,04,2C,20,00,00,00,00,
473252999,000000B2,false,Rx,0,8,00,00,00,00,00,00,00,00,
473253005,000000FD,false,Rx,0,8,01,D1,1F,80,00,00,00,00,
473253010,00000116,false,Rx,0,8,EF,01,01,00,20,00,00,FF,
473253015,000000AD,false,Rx,0,8,35,E7,BF,FF,00,14,00,00,
473253021,000000AE,false,Rx,0,8,28,07,00,00,FF,3C,01,02,
473253026,000005AC,false,Rx,0,8,00,00,FF,FE,FE,F7,07,00,
473253031,00000128,false,Rx,0,3,80,00,00,00,00,00,00,00,
473253036,0000012D,false,Rx,0,8,52,8C,7F,00,00,00,FE,3F,
473253310,000000A7,false,Rx,0,8,FC,05,E0,7F,FD,FD,97,3D,
473253545,000000A8,false,Rx,0,8,6F,95,1D,A1,82,64,10,0E,
473255219,000000AF,false,Rx,0,4,83,71,00,00,00,00,00,00,
473256182,00000086,false,Rx,0,8,25,05,2C,20,00,00,00,00,
473256477,0000012B,false,Rx,0,8,D3,42,40,28,00,00,00,00,
473257460,000000B2,false,Rx,0,8,00,00,00,00,00,00,00,00,
473257742,00000101,false,Rx,0,8,80,02,80,00,A2,00,00,00,
473257979,00000106,false,Rx,0,8,E0,02,63,00,02,00,00,00,
473258233,0000011E,false,Rx,0,8,1C,02,00,00,00,00,00,00,
473261338,000000AD,false,Rx,0,8,A2,E8,BF,FF,00,14,00,00,
473261592,000000AE,false,Rx,0,8,5F,08,00,00,FF,3C,01,02,
473261881,16A95414,true,Rx,0,8,00,30,7E,C3,0F,00,00,00,
473262136,000000B1,false,Rx,0,8,6E,2D,00,00,00,00,00,00,
473263378,000000A7,false,Rx,0,8,C8,06,E0,7F,FD,01,88,3D,
473263612,000000A8,false,Rx,0,8,25,86,1D,A1,82,64,04,0E,
473263862,00000107,false,Rx,0,8,00,00,F8,2C,01,00,0E,A7,
473264096,00000120,false,Rx,0,8,F9,03,00,02,01,08,FF,01,
473264331,00000121,false,Rx,0,8,71,03,00,40,37,5A,7E,FE,
473264566,00000147,false,Rx,0,8,00,00,00,00,F0,A3,60,1D,
473265211,000000AF,false,Rx,0,4,83,72,00,00,00,00,00,00,
473266191,00000086,false,Rx,0,8,89,06,2C,20,00,00,00,00,
473271873,000000B2,false,Rx,0,8,00,00,00,00,00,00,00,00,
473271878,000000FD,false,Rx,0,8,CE,D2,1F,80,00,00,00,00,
473271883,00000116,false,Rx,0,8,43,02,01,00,20,00,00,FF,
473271889,00000392,false,Rx,0,8,51,23,00,00,00,00,00,04,
473271894,0000065D,false,Rx,0,8,44,23,2B,12,00,40,82,7B,
473271899,000006B4,false,Rx,0,8,02,4D,35,33,31,32,37,37,
473271905,0000031E,false,Rx,0,8,D3,F8,3F,00,00,00,00,40,
473271910,0000032C,false,Rx,0,8,00,0F,00,00,98,24,00,00,
473271915,00000040,false,Rx,0,8,9D,0D,00,44,C1,00,00,00,
473271921,0000032F,false,Rx,0,8,00,FF,00,00,00,00,12,01,
473271926,000000AD,false,Rx,0,8,A6,E9,BF,FF,00,14,00,00,
473271931,000000AE,false,Rx,0,8,B7,09,00,00,FF,3C,01,02,
473271937,00000464,false,Rx,0,8,10,4C,00,00,00,00,00,00,
473272013,00000128,false,Rx,0,3,84,08,2A,00,00,00,00,00,
473272247,000003DB,false,Rx,0,8,50,00,01,04,07,24,01,A2,
473272481,0000012D,false,Rx,0,8,3E,8D,7F,00,00,00,FE,3F,
473272739,000003C8,false,Rx,0,8,00,00,54,24,00,60,01,82,
473273021,1B000077,true,Rx,0,8,77,00,04,02,01,00,00,00,
473273395,000000A7,false,Rx,0,8,0A,07,20,80,FD,01,88,3D,
473273603,000000A8,false,Rx,0,8,30,87,1D,A1,82,64,04,0E,
473275223,000000AF,false,Rx,0,4,83,73,00,00,00,00,00,00,
473276183,00000086,false,Rx,0,8,ED,07,2C,20,00,00,00,00,
473277563,000000B2,false,Rx,0,8,00,00,00,00,00,00,00,00,
473277856,00000101,false,Rx,0,8,E4,03,80,00,A2,00,00,00,
473278089,00000106,false,Rx,0,8,84,03,63,00,02,00,00,00,
473278344,0000011E,false,Rx,0,8,78,03,00,00,00,00,00,00,
473278599,000001AB,false,Rx,0,8,5F,0C,04,02,18,00,04,00,
473281340,000000AD,false,Rx,0,8,F7,EA,BF,FF,00,14,00,00,
473281596,000000AE,false,Rx,0,8,CB,0A,00,00,FF,3C,01,02,
473281848,000003DD,false,Rx,0,8,48,04,10,18,FE,4F,0A,00,
473283286,0000030B,false,Rx,0,8,10,2D,00,00,08,00,00,10,
473283541,000000A7,false,Rx,0,8,47,08,20,80,FD,01,88,3D,
473283769,000000A8,false,Rx,0,8,12,88,1D,A1,82,64,04,0E,
473284012,00000107,false,Rx,0,8,00,00,F8,2C,01,00,0E,A7,
473284246,00000120,false,Rx,0,8,AF,04,00,02,01,08,FF,01,
473284481,00000121,false,Rx,0,8,CC,04,00,40,37,5A,7E,FE,
473284712,00000147,false,Rx,0,8,00,00,00,00,F0,A3,60,1D,
473285080,000000AF,false,Rx,0,4,83,74,22,01,00,00,00,00,
473286184,00000086,false,Rx,0,8,AF,08,2C,20,00,00,00,00,
473286417,0000012B,false,Rx,0,8,8B,43,40,28,00,00,00,00,
473294252,000000B2,false,Rx,0,8,00,00,00,00,00,00,00,00,
473294258,000000FD,false,Rx,0,8,BB,D3,1F,80,00,00,00,00,
473294263,00000116,false,Rx,0,8,27,03,01,00,20,00,00,FF,
473294268,000001A2,false,Rx,0,8,45,09,00,00,00,00,00,00,
473294274,000000AD,false,Rx,0,8,42,EB,BF,FF,00,14,00,00,
473294279,000000AE,false,Rx,0,8,69,0B,00,00,FF,3C,01,02,
473294284,00000365,false,Rx,0,8,AD,06,14,00,8D,0F,88,7A,
473294290,00000128,false,Rx,0,3,80,00,00,00,00,00,00,00,
473294295,0000012D,false,Rx,0,8,0E,8E,7F,00,00,00,FE,3F,
473294300,000000A7,false,Rx,0,8,97,09,20,80,FD,01,88,3D,
473294305,000000A8,false,Rx,0,8,B8,89,1D,A1,82,64,10,0E,
473295211,000000AF,false,Rx,0,4,83,75,22,01,00,00,00,00,
473296191,00000086,false,Rx,0,8,CB,09,2C,20,00,00,00,00,
473296857,000005F5,false,Rx,0,8,FE,07,F8,1F,00,FF,DF,FF,
473297466,000000B2,false,Rx,0,8,00,00,00,00,00,00,00,00,
473297723,00000101,false,Rx,0,8,B2,04,80,00,A2,02,00,00,
473297991,00000106,false,Rx,0,8,97,04,63,00,02,00,00,00,
473298259,1B000076,true,Rx,0,8,76,00,04,01,01,00,00,00,
473298519,0000011E,false,Rx,0,8,6B,04,00,00,00,00,00,00,
473301336,000000AD,false,Rx,0,8,2F,EC,BF,FF,00,14,00,00,
473301591,000000AE,false,Rx,0,8,D1,0C,00,00,FF,3C,01,02,
473301861,000003DE,false,Rx,0,8,FE,00,00,00,00,00,00,00,
473303262,000000A7,false,Rx,0,8,91,0A,20,80,FD,01,88,3D,
473303496,000000A8,false,Rx,0,8,97,8A,1D,A1,82,64,18,0E,
473303742,00000107,false,Rx,0,8,00,00,F8,2C,01,00,1A,A7,
473303959,00000120,false,Rx,0,8,AD,05,00,02,01,08,FF,01,
473304219,00000121,false,Rx,0,8,FB,05,00,40,37,5A,7E,FE,
473304453,00000147,false,Rx,0,8,00,00,00,00,F0,A3,60,1D,
473305204,000000AF,false,Rx,0,4,83,76,00,00,00,00,00,00,
473306183,00000086,false,Rx,0,8,67,0A,2C,20,00,00,00,00,
473311851,000000B2,false,Rx,0,8,00,00,00,00,00,00,00,00,
473311856,000000FD,false,Rx,0,8,2D,D4,1F,80,00,00,00,00,
473311862,00000116,false,Rx,0,8,34,04,01,00,20,00,00,FF,
473311867,000000AD,false,Rx,0,8,5E,ED,BF,FF,00,14,00,00,
473311872,000000AE,false,Rx,0,8,B2,0D,00,00,FF,3C,01,02,
473311878,00000128,false,Rx,0,3,84,08,D5,00,00,00,00,00,
473312032,0000012D,false,Rx,0,8,F9,8F,7F,00,00,00,FE,3F,
473313284,000000A7,false,Rx,0,8,FF,0B,20,80,FD,01,88,3D,
473313523,000000A8,false,Rx,0,8,62,8B,1D,A1,82,64,1C,0E,
473315220,000000AF,false,Rx,0,4,83,77,00,00,00,00,00,00,
473316182,00000086,false,Rx,0,8,03,0B,2C,20,00,00,00,00,
473316438,0000012B,false,Rx,0,8,0B,44,40,28,00,00,00,00,
473317440,000000B2,false,Rx,0,8,00,00,00,00,00,00,00,00,
473317727,00000101,false,Rx,0,8,D6,05,80,00,A2,02,00,00,
473317949,00000106,false,Rx,0,8,F3,05,63,00,02,00,00,00,
473318204,0000011E,false,Rx,0,8,0F,05,00,00,00,00,00,00,
473318936,0000031E,false,Rx,0,8,EC,F9,3F,00,00,00,00,40,
473319190,0000032C,false,Rx,0,8,00,0F,00,00,98,24,00,00,
473319423,0000032F,false,Rx,0,8,00,FF,00,00,00,00,12,01,
473319680,00000040,false,Rx,0,8,31,0E,00,44,C1,00,00,00,
473320522,000003D8,false,Rx,0,8,00,00,08,00,00,00,00,00,
473321369,000000AD,false,Rx,0,8,84,EE,BF,FF,00,14,00,00,
473321642,17F00015,true,Rx,0,8,00,15,00,00,00,00,00,80,
473321889,000000AE,false,Rx,0,8,8A,0E,00,00,FF,3C,01,02,
473322122,00000462,false,Rx,0,8,01,00,38,00,00,01,00,00,
473322377,00000394,false,Rx,0,8,FA,1F,00,1A,00,00,00,00,
473322631,00000465,false,Rx,0,8,00,00,00,00,00,00,00,80,
473323309,000000A7,false,Rx,0,8,40,0C,20,80,FD,01,88,3D,
473323551,000000A8,false,Rx,0,8,3B,8C,1D,A1,82,64,20,0E,
473323780,00000107,false,Rx,0,8,00,00,F8,2C,01,00,1A,A7,
473324023,00000120,false,Rx,0,8,42,06,00,02,01,08,FF,01,
473324252,00000121,false,Rx,0,8,FC,06,00,40,37,5A,7E,FE,
473324513,00000147,false,Rx,0,8,00,00,00,00,F0,A3,60,1D,
473325203,000000AF,false,Rx,0,4,83,78,DD,01,00,00,00,00,
473326199,00000086,false,Rx,0,8,10,0C,2C,20,00,00,00,00,
473333046,000000B2,false,Rx,0,8,00,00,00,00,00,00,00,00,
473333052,000000FD,false,Rx,0,8,B7,D5,1F,80,00,00,00,00,
473333057,00000116,false,Rx,0,8,50,05,01,00,20,00,00,FF,
473333062,000003E5,false,Rx,0,8,3B,23,00,00,00,00,00,00,
473333068,000000AD,false,Rx,0,8,D5,EF,BF,FF,00,14,00,00,
473333073,000000AE,false,Rx,0,8,68,0F,00,00,FF,3C,01,02,
473333078,00000128,false,Rx,0,3,80,00,00,00,00,00,00,00,
473333083,0000012D,false,Rx,0,8,5D,80,7F,00,00,00,FE,3F,
473333277,000000A7,false,Rx,0,8,B0,0D,20,80,FD,01,88,3D,
473333513,000000A8,false,Rx,0,8,28,8D,1D,A1,82,64,20,0E,
473333760,0000030B,false,Rx,0,8,10,2E,00,00,08,00,00,10,
473334452,000003B5,false,Rx,0,8,87,FE,12,3E,0C,99,20,00,
473335203,000000AF,false,Rx,0,4,83,79,DD,01,00,00,00,00,
473336129,00000086,false,Rx,0,8,74,0D,2C,20,00,00,00,00,
473337487,000000B2,false,Rx,0,8,00,00,00,00,00,00,00,00,
473337741,00000101,false,Rx,0,8,8A,06,80,00,A2,01,00,00,
473338029,00000106,false,Rx,0,8,5F,06,63,00,02,00,00,00,
473338283,0000011E,false,Rx,0,8,A3,06,00,00,00,00,00,00,
473341357,000000AD,false,Rx,0,8,48,E0,BF,FF,00,14,00,00,
473341586,000000AE,false,Rx,0,8,DF,00,00,00,FF,3C,01,02,
473341849,00000365,false,Rx,0,8,AD,06,14,00,8D,0F,88,7A,
473343263,000000A7,false,Rx,0,8,37,0E,E0,7F,FD,FD,87,3D,
473343503,000000A8,false,Rx,0,8,9A,8E,1D,A1,82,64,20,0E,
473343747,00000107,false,Rx,0,8,00,00,F8,2C,01,00,27,A7,
473343992,00000120,false,Rx,0,8,40,07,00,02,01,08,FF,01,
473344226,00000121,false,Rx,0,8,AF,07,00,40,37,5A,7E,FE,
473344460,00000147,false,Rx,0,8,00,00,00,00,F0,A3,60,1D,
473344703,00000391,false,Rx,0,8,12,8C,22,49,00,27,00,22,
473344946,000003BE,false,Rx,0,8,29,03,E6,00,C8,80,00,80,
473345100,000000AF,false,Rx,0,4,83,7A,00,00,00,00,00,00,
473345355,000003C7,false,Rx,0,8,01,10,24,00,00,40,80,00,
473345630,17331110,true,Rx,0,8,34,58,1A,05,1A,0F,19,21,
473345796,000003C0,false,Rx,0,4,0E,07,03,00,00,00,00,00,
473346059,000003D6,false,Rx,0,8,06,00,00,00,00,00,30,00,
473346292,00000086,false,Rx,0,8,D8,0E,2C,20,00,00,00,00,
473346547,0000012B,false,Rx,0,8,AE,45,40,28,00,00,00,00,
473346837,000005F7,false,Rx,0,8,00,FF,FB,DF,FF,FE,FF,FF,
473353079,000000B2,false,Rx,0,8,00,00,00,00,00,00,00,00,
473353085,000000FD,false,Rx,0,8,A5,D6,1F,80,00,00,00,00,
473353090,00000116,false,Rx,0,8,FC,06,01,00,20,00,00,FF,
473353095,000005F0,false,Rx,0,8,FD,00,64,00,00,64,00,00,
473353101,000000AD,false,Rx,0,8,86,E1,BF,FF,00,14,00,00,
473353106,000000AE,false,Rx,0,8,30,01,00,00,FF,3C,01,02,
473353111,000005AC,false,Rx,0,8,00,00,FF,FE,FE,F7,07,00,
473353117,00000128,false,Rx,0,3,84,FF,0B,00,00,00,00,00,
473353122,0000012D,false,Rx,0,8,0A,81,7F,00,00,00,FE,3F,
473353297,000000A7,false,Rx,0,8,E9,0F,E0,7F,FD,FD,87,3D,
473353511,000000A8,false,Rx,0,8,6A,8F,1D,A1,82,64,18,0E,
473355211,000000AF,false,Rx,0,4,83,7B,00,00,00,00,00,00,
473356199,00000086,false,Rx,0,8,BC,0F,2C,20,00,00,00,00,
473357480,000000B2,false,Rx,0,8,00,00,00,00,00,00,00,00,
473357734,00000101,false,Rx,0,8,EE,07,80,00,A2,01,00,00,
473357996,00000106,false,Rx,0,8,3B,07,63,00,02,00,00,00,
473358255,0000011E,false,Rx,0,8,C7,07,00,00,00,00,00,00,
473359124,1B000010,true,Rx,0,8,10,00,04,05,11,00,00,00,
473361328,000000AD,false,Rx,0,8,62,E2,BF,FF,00,14,00,00,
473361582,000000AE,false,Rx,0,8,31,02,00,00,FF,3C,01,02,
473361890,16A95414,true,Rx,0,8,00,30,7E,C3,0F,00,00,00,
473362124,000000B1,false,Rx,0,8,71,2E,00,00,00,00,00,00,
473363301,000000A7,false,Rx,0,8,67,00,E0,7F,FD,01,88,3D,
473363536,000000A8,false,Rx,0,8,A5,80,1D,61,82,64,08,0E,
473363781,00000107,false,Rx,0,8,00,00,F8,2C,01,00,34,A7,
473364023,00000120,false,Rx,0,8,19,08,00,02,01,08,FF,01,
473364258,00000121,false,Rx,0,8,6C,08,00,40,37,5A,7E,FE,
473364491,00000147,false,Rx,0,8,00,00,00,00,F0,A3,60,1D,
473365203,000000AF,false,Rx,0,4,83,7C,20,01,00,00,00,00,
473366204,00000086,false,Rx,0,8,FE,00,2C,20,00,00,00,00,
473371929,000000B2,false,Rx,0,8,00,00,00,00,00,00,00,00,
473371934,000000FD,false,Rx,0,8,9F,D7,1F,80,00,00,00,00,
473371940,00000116,false,Rx,0,8,98,07,01,00,20,00,00,FF,
473371945,00000392,false,Rx,0,8,42,24,00,00,00,00,00,04,
473371950,0000031E,false,Rx,0,8,D8,FA,3F,00,00,00,00,40,
473371956,0000032C,false,Rx,0,8,00,0F,00,00,98,24,00,00,
473371961,0000032F,false,Rx,0,8,00,FF,00,00,00,00,12,01,
473371966,00000040,false,Rx,0,8,55,0F,00,44,C1,00,00,00,
473371972,000000AD,false,Rx,0,8,E3,E3,BF,FF,00,14,00,00,
473371977,00000463,false,Rx,0,8,00,40,02,00,00,00,00,00,
473371982,000000AE,false,Rx,0,8,14,03,00,00,FF,3C,01,02,
473372098,000003DB,false,Rx,0,8,50,00,01,04,07,24,01,A2,
473372228,00000128,false,Rx,0,3,80,00,00,00,00,00,00,00,
473372486,0000012D,false,Rx,0,8,18,82,7F,00,00,00,FE,3F,
473372751,000003C8,false,Rx,0,8,00,00,54,24,00,60,01,82,
473373329,000000A7,false,Rx,0,8,A4,01,20,80,FD,01,88,3D,
473373563,000000A8,false,Rx,0,8,AF,81,1D,61,82,64,00,0E,
473375219,000000AF,false,Rx,0,4,83,7D,20,01,00,00,00,00,
473376182,00000086,false,Rx,0,8,9A,01,2C,20,00,00,00,00,
473376438,0000012B,false,Rx,0,8,B7,46,40,28,00,00,00,00,
473377473,000000B2,false,Rx,0,8,00,00,00,00,00,00,00,00,
473377761,00000101,false,Rx,0,8,26,08,80,00,A2,05,00,00,
473378003,00000106,false,Rx,0,8,79,08,63,00,02,00,00,00,
473378257,0000011E,false,Rx,0,8,85,08,00,00,00,00,00,00,
473381336,000000AD,false,Rx,0,8,41,E4,BF,FF,00,14,00,00,
473381592,000000AE,false,Rx,0,8,1A,04,00,00,FF,3C,01,02,
473381849,000003DD,false,Rx,0,8,48,04,10,18,FE,4F,0A,00,
473383283,0000030B,false,Rx,0,8,10,2F,00,00,08,00,00,10,
473383516,000000A7,false,Rx,0,8,D0,02,20,80,FD,01,88,3D,
473383756,000000A8,false,Rx,0,8,3C,82,1D,A1,82,64,04,0E,
473384000,00000107,false,Rx,0,8,00,00,F8,2C,01,00,34,A7,
473384233,00000120,false,Rx,0,8,4F,09,00,02,01,08,FF,01,
473384468,00000121,false,Rx,0,8,93,09,00,40,37,5A,7E,FE,
473384708,00000147,false,Rx,0,8,00,00,00,00,F0,A3,60,1D,
473385207,000000AF,false,Rx,0,4,83,7E,00,00,00,00,00,00,
473386190,00000086,false,Rx,0,8,36,02,2C,20,00,00,00,00,
473393073,000000B2,false,Rx,0,8,00,00,00,00,00,00,00,00,
473393078,000000FD,false,Rx,0,8,58,D8,1F,80,00,00,00,00,
473393084,00000116,false,Rx,0,8,DA,08,01,00,20,00,00,FF,
473393089,000000AD,false,Rx,0,8,74,E5,BF,FF,00,14,00,00,
473393094,000000AE,false,Rx,0,8,E1,05,00,00,FF,3C,01,02,
473393100,00000365,false,Rx,0,8,AD,06,14,00,8D,0F,88,7A,
473393105,00000128,false,Rx,0,3,80,00,00,00,00,00,00,00,
473393110,0000012D,false,Rx,0,8,89,83,7F,00,00,00,FE,3F,
473393284,000000A7,false,Rx,0,8,51,03,20,80,FD,01,88,3D,
473393519,000000A8,false,Rx,0,8,0B,83,1D,A1,82,64,10,0E,
473394072,17331110,true,Rx,0,5,44,51,0F,1A,2E,00,00,00,
473395211,000000AF,false,Rx,0,4,83,7F,00,00,00,00,00,00,
473396191,00000086,false,Rx,0,8,52,03,2C,20,00,00,00,00,
473397487,000000B2,false,Rx,0,8,00,00,00,00,00,00,00,00,
473397740,00000101,false,Rx,0,8,42,09,80,00,A2,05,00,00,
473398007,00000106,false,Rx,0,8,1D,09,63,00,02,00,00,00,
473398263,0000011E,false,Rx,0,8,E1,09,00,00,00,00,00,00,
473401338,000000AD,false,Rx,0,8,6A,E6,BF,FF,00,14,00,00,
473401591,000000AE,false,Rx,0,8,BA,06,00,00,FF,3C,01,02,
473401842,000003DE,false,Rx,0,8,FE,00,00,00,00,00,00,00,
473403340,000000A7,false,Rx,0,8,8B,04,20,80,FD,01,98,3D,
473403574,000000A8,false,Rx,0,8,75,94,1D,A1,82,64,18,0E,
473403819,00000107,false,Rx,0,8,00,00,F8,2C,01,00,40,A7,
473404063,00000120,false,Rx,0,8,94,0A,00,02,01,08,FF,01,
473404297,00000121,false,Rx,0,8,F6,0A,00,40,37,5A,7E,FE,
473404531,00000147,false,Rx,0,8,00,00,00,00,F0,A7,60,1D,
473405064,000000AF,false,Rx,0,4,83,70,00,00,00,00,00,00,
473405360,1B000053,true,Rx,0,8,53,00,04,01,01,00,00,00,
473405632,1B000015,true,Rx,0,8,15,00,04,02,01,00,00,00,
473406203,00000086,false,Rx,0,8,41,04,2C,20,00,00,00,00,
473406438,0000012B,false,Rx,0,8,92,47,40,28,00,00,00,00,
473411897,000000B2,false,Rx,0,8,00,00,00,00,00,00,00,00,
473411902,000000FD,false,Rx,0,8,6A,D9,1F,80,00,00,00,00,
473411908,00000116,false,Rx,0,8,BE,09,01,00,20,00,00,FF,
473411913,000000AD,false,Rx,0,8,35,E7,BF,FF,00,14,00,00,
473411918,000000AE,false,Rx,0,8,28,07,00,00,FF,3C,01,02,
473411924,00000128,false,Rx,0,3,84,1D,29,00,00,00,00,00,
473412038,0000012D,false,Rx,0,8,06,84,7F,00,00,00,FE,3F,
473413381,000000A7,false,Rx,0,8,F0,05,20,80,FD,01,98,3D,
473413616,000000A8,false,Rx,0,8,10,95,1D,A1,82,64,28,0E,
473415210,000000AF,false,Rx,0,4,83,71,00,00,00,00,00,00,
473416211,00000086,false,Rx,0,8,25,05,2C,20,00,00,00,00,
473417482,000000B2,false,Rx,0,8,00,00,00,00,00,00,00,00,
473417756,00000101,false,Rx,0,8,94,0A,80,00,A2,02,00,00,
473418017,00000106,false,Rx,0,8,B1,0A,63,00,02,00,00,00,
473418272,0000011E,false,Rx,0,8,4D,0A,00,00,00,00,00,00,
473418982,0000031E,false,Rx,0,8,FE,FB,3F,00,00,00,00,40,
473419235,0000032C,false,Rx,0,8,00,0F,00,00,98,24,00,00,
473419491,0000032F,false,Rx,0,8,00,FF,00,00,00,00,12,01,
473419733,00000040,false,Rx,0,8,17,00,00,44,C1,00,00,00,
473420490,000003D8,false,Rx,0,8,00,00,08,00,00,00,00,00,
473421357,000000AD,false,Rx,0,8,A2,E8,BF,FF,00,14,00,00,
473421591,00000520,false,Rx,0,8,1A,0A,00,08,00,0A,00,0A,
473421849,000000AE,false,Rx,0,8,5F,08,00,00,FF,3C,01,02,
473422082,00000464,false,Rx,0,8,00,00,00,00,00,00,00,00,
473423362,000000A7,false,Rx,0,8,63,06,20,80,FD,01,98,3D,
473423570,000000A8,false,Rx,0,8,20,96,1D,A1,82,64,28,0E,
473423819,00000107,false,Rx,0,8,00,00,F8,2C,01,00,40,A7,
473424061,00000120,false,Rx,0,8,38,0B,00,02,01,08,FF,01,
473424297,00000121,false,Rx,0,8,5D,0B,00,40,37,5A,7E,FE,
473424530,00000147,false,Rx,0,8,00,00,00,00,F0,A7,60,1D,
473425200,000000AF,false,Rx,0,4,83,72,34,01,00,00,00,00,
473426183,00000086,false,Rx,0,8,89,06,2C,20,00,00,00,00,
473433098,000000B2,false,Rx,0,8,00,00,00,00,00,00,00,00,
473433104,000000FD,false,Rx,0,8,26,DA,1F,80,00,00,00,00,
473433109,00000116,false,Rx,0,8,12,0A,01,00,20,00,00,FF,
473433114,000003E5,false,Rx,0,8,6A,24,00,00,00,00,00,00,
473433120,000000AD,false,Rx,0,8,A6,E9,BF,FF,00,14,00,00,
473433125,000000AE,false,Rx,0,8,B7,09,00,00,FF,3C,01,02,
473433130,00000128,false,Rx,0,3,80,00,00,00,00,00,00,00,
473433135,0000012D,false,Rx,0,8,79,85,7F,00,00,00,FE,3F,
473433291,000000A7,false,Rx,0,8,EA,07,20,80,FD,01,98,3D,
473433525,000000A8,false,Rx,0,8,45,97,1D,A1,82,64,20,0E,
473433769,0000030B,false,Rx,0,8,10,20,00,00,08,00,00,10,
473434406,000003B5,false,Rx,0,8,87,FE,12,3E,0C,99,20,00,
473434995,000005EA,false,Rx,0,8,00,00,00,36,F8,FE,FB,FF,
473435210,000000AF,false,Rx,0,4,83,73,34,01,00,00,00,00,
473436229,1A55552B,true,Rx,0,8,00,00,00,00,00,FE,F8,03,
473436485,00000086,false,Rx,0,8,ED,07,2C,20,00,00,00,00,
473436746,0000012B,false,Rx,0,8,47,48,40,28,00,00,00,00,
473437502,000000B2,false,Rx,0,8,00,00,00,00,00,00,00,00,
473437770,00000101,false,Rx,0,8,44,0B,80,00,A2,00,40,00,
473438011,00000106,false,Rx,0,8,D5,0B,63,00,02,00,00,00,
473438266,0000011E,false,Rx,0,8,29,0B,00,00,00,00,00,00,
473441361,000000AD,false,Rx,0,8,F7,EA,BF,FF,00,14,00,00,
473441594,000000AE,false,Rx,0,8,CB,0A,00,00,FF,3C,01,02,
473441849,00000365,false,Rx,0,8,AD,06,14,00,8D,0F,88,7A,
473443310,000000A7,false,Rx,0,8,AB,08,E0,7F,FD,FD,97,3D,
473443544,000000A8,false,Rx,0,8,50,98,1D,A1,82,64,14,0E,
473443790,00000107,false,Rx,0,8,00,00,F8,2C,01,00,4D,A7,
473444006,00000120,false,Rx,0,8,E2,0C,00,02,01,08,FF,01,
473444240,00000121,false,Rx,0,8,98,0C,00,40,37,5A,7E,FE,
473444500,00000147,false,Rx,0,8,00,00,00,00,F0,A7,60,1D,
473444743,00000391,false,Rx,0,8,12,8C,22,49,00,27,00,22,
473444965,000003BE,false,Rx,0,8,DE,04,E6,00,C8,80,00,80,
473445140,000003C0,false,Rx,0,4,4F,08,03,00,00,00,00,00,
473445295,000000AF,false,Rx,0,4,83,74,00,00,00,00,00,00,
473445550,000003C7,false,Rx,0,8,76,10,24,00,00,40,80,00,
473445771,000003D6,false,Rx,0,8,07,00,00,00,00,00,30,00,
473446177,00000086,false,Rx,0,8,AF,08,2C,20,00,00,00,00,
473453126,000000B2,false,Rx,0,8,00,00,00,00,00,00,00,00,
473453132,000000FD,false,Rx,0,8,09,DB,1F,80,00,00,00,00,
473453137,00000116,false,Rx,0,8,76,0B,01,00,20,00,00,FF,
473453142,000000AD,false,Rx,0,8,42,EB,BF,FF,00,14,00,00,
473453148,000000AE,false,Rx,0,8,69,0B,00,00,FF,3C,01,02,
473453153,000005AC,false,Rx,0,8,00,00,FF,FE,FE,F7,07,00,
473453158,00000128,false,Rx,0,3,84,1D,D6,00,00,00,00,00,
473453163,0000012D,false,Rx,0,8,C9,86,7F,00,00,00,FE,3F,
473453278,000000A7,false,Rx,0,8,7B,09,E0,7F,FD,FD,97,3D,
473453512,000000A8,false,Rx,0,8,B2,99,1D,A1,82,64,0C,0E,
473455210,000000AF,false,Rx,0,4,83,75,00,00,00,00,00,00,
473456170,00000086,false,Rx,0,8,CB,09,2C,20,00,00,00,00,
473457468,000000B2,false,Rx,0,8,00,00,00,00,00,00,00,00,
473457748,00000101,false,Rx,0,8,57,0C,80,00,A2,00,40,00,
473458010,00000106,false,Rx,0,8,54,0C,64,00,02,00,00,00,
473458265,0000011E,false,Rx,0,8,3A,0C,00,00,00,00,00,00,
473461341,000000AD,false,Rx,0,8,2F,EC,BF,FF,00,14,00,00,
473461596,000000AE,false,Rx,0,8,D1,0C,00,00,FF,3C,01,02,
473461882,16A95414,true,Rx,0,8,00,30,7E,C3,0F,00,00,00,
473462115,000000B1,false,Rx,0,8,4D,2F,00,00,00,00,00,00,
473463357,000000A7,false,Rx,0,8,3A,0A,E0,7F,FD,01,98,3D,
473463592,000000A8,false,Rx,0,8,D5,9A,1D,A1,82,64,08,0E,
473463820,00000107,false,Rx,0,8,00,00,F8,2C,01,00,5A,A7,
473464064,00000120,false,Rx,0,8,52,0D,00,02,01,08,FF,01,
473464298,00000121,false,Rx,0,8,8B,0D,00,40,37,5A,7E,FE,
473464532,00000147,false,Rx,0,8,00,00,00,00,F0,A7,60,1D,
473465065,000000AF,false,Rx,0,4,83,76,CB,01,00,00,00,00,
473466187,00000086,false,Rx,0,8,67,0A,2C,20,00,00,00,00,
473466442,0000012B,false,Rx,0,8,4F,49,40,28,00,00,00,00,
473471962,000000B2,false,Rx,0,8,00,00,00,00,00,00,00,00,
473471967,000000FD,false,Rx,0,8,90,DC,1F,80,00,00,00,00,
473471972,00000116,false,Rx,0,8,65,0C,01,00,20,00,00,FF,
473471978,00000392,false,Rx,0,8,26,25,00,00,00,00,00,04,
473471983,000006B4,false,Rx,0,8,00,91,97,71,29,33,56,57,
473471988,0000031E,false,Rx,0,8,5D,FC,3F,00,00,00,00,40,
473471994,0000032C,false,Rx,0,8,00,0F,00,00,98,24,00,00,
473471999,00000040,false,Rx,0,8,73,01,00,44,C1,00,00,00,
473472004,0000032F,false,Rx,0,8,00,FF,00,00,00,00,12,01,
473472010,000000AD,false,Rx,0,8,5E,ED,BF,FF,00,14,00,00,
473472015,00000462,false,Rx,0,8,01,00,38,00,00,01,00,00,
473472020,000000AE,false,Rx,0,8,B2,0D,00,00,FF,3C,01,02,
473472115,000003DB,false,Rx,0,8,50,00,01,04,07,24,01,A2,
473472272,00000128,false,Rx,0,3,80,00,00,00,00,00,00,00,
473472539,0000012D,false,Rx,0,8,98,87,7F,00,00,00,FE,3F,
473472809,000003C8,false,Rx,0,8,00,00,54,24,00,60,01,82,
473473090,1B000077,true,Rx,0,8,77,00,04,02,01,00,00,00,
473473404,000000A7,false,Rx,0,8,1F,0B,20,80,FD,01,98,3D,
473473638,000000A8,false,Rx,0,8,18,9B,1D,A1,82,64,08,0E,
473475193,000000AF,false,Rx,0,4,83,77,CB,01,00,00,00,00,
473476182,00000086,false,Rx,0,8,03,0B,2C,20,00,00,00,00,
473477558,000000B2,false,Rx,0,8,00,00,00,00,00,00,00,00,
473477820,00000101,false,Rx,0,8,C3,0D,80,00,A2,03,40,00,
473478082,00000106,false,Rx,0,8,A2,0D,63,00,02,00,00,00,
473478310,0000011E,false,Rx,0,8,5E,0D,00,00,00,00,00,00,
473478569,000001AB,false,Rx,0,8,23,0D,04,02,18,00,04,00,
473481343,000000AD,false,Rx,0,8,84,EE,BF,FF,00,14,00,00,
473481602,000000AE,false,Rx,0,8,8A,0E,00,00,FF,3C,01,02,
473481856,000003DD,false,Rx,0,8,48,04,10,18,FE,4F,0A,00,
473482090,00000394,false,Rx,0,8,2D,10,00,1A,00,00,00,00,
473483329,0000030B,false,Rx,0,8,10,21,00,00,08,00,00,10,
473483584,000000A7,false,Rx,0,8,A0,0C,20,80,FD,01,98,3D,
473483809,000000A8,false,Rx,0,8,3E,9C,1D,A1,82,64,0C,0E,
473484053,00000107,false,Rx,0,8,00,00,F8,2C,01,00,5A,A7,
473484286,00000120,false,Rx,0,8,39,0E,00,02,01,08,FF,01,
473484520,00000121,false,Rx,0,8,18,0E,00,40,37,5A,7E,FE,
473484769,00000147,false,Rx,0,8,00,00,00,00,F0,A7,60,1D,
473485209,000000AF,false,Rx,0,4,83,78,00,00,00,00,00,00,
473486192,00000086,false,Rx,0,8,10,0C,2C,20,00,00,00,00,
473494335,000000B2,false,Rx,0,8,00,00,00,00,00,00,00,00,
473494341,000000FD,false,Rx,0,8,19,DD,1F,80,00,00,00,00,
473494346,00000116,false,Rx,0,8,01,0D,01,00,20,00,00,FF,
473494351,000001A2,false,Rx,0,8,B0,0A,00,00,00,00,00,00,
473494357,000000AD,false,Rx,0,8,D5,EF,BF,FF,00,14,00,00,
473494362,000000AE,false,Rx,0,8,68,0F,00,00,FF,3C,01,02,
473494367,00000365,false,Rx,0,8,AD,06,14,00,8D,0F,88,7A,
473494373,00000128,false,Rx,0,3,84,FF,0C,00,00,00,00,00,
473494378,0000012D,false,Rx,0,8,57,88,7F,00,00,00,FE,3F,
473494383,000000A7,false,Rx,0,8,50,0D,20,80,FD,01,98,3D,
473494388,000000A8,false,Rx,0,8,85,9D,1D,A1,82,64,10,0E,
473495211,000000AF,false,Rx,0,4,83,79,00,00,00,00,00,00,
473496192,00000086,false,Rx,0,8,74,0D,2C,20,00,00,00,00,
473496465,0000012B,false,Rx,0,8,5F,4A,40,28,00,00,00,00,
473497487,000000B2,false,Rx,0,8,00,00,00,00,00,00,00,00,
473497767,00000101,false,Rx,0,8,2A,0E,80,00,A2,01,40,00,
473498008,00000106,false,Rx,0,8,0E,0E,63,00,02,00,00,00,
473498304,1B000076,true,Rx,0,8,76,00,04,01,01,00,00,00,
473498532,0000011E,false,Rx,0,8,F2,0E,00,00,00,00,00,00,
473501358,000000AD,false,Rx,0,8,48,E0,BF,FF,00,14,00,00,
473501612,000000AE,false,Rx,0,8,DF,00,00,00,FF,3C,01,02,
473501859,000003DE,false,Rx,0,8,FE,00,00,00,00,00,00,00,
473503292,000000A7,false,Rx,0,8,DB,0E,20,80,FD,01,98,3D,
473503526,000000A8,false,Rx,0,8,0F,9E,1D,A1,82,64,14,0E,
473503781,00000107,false,Rx,0,8,00,00,F8,2C,01,00,66,A7,
473504024,00000120,false,Rx,0,8,EC,0F,00,02,01,08,FF,01,
473504258,00000121,false,Rx,0,8,AE,0F,00,40,37,5A,7E,FE,
473504501,00000147,false,Rx,0,8,00,00,00,00,F0,A7,60,1D,
473505190,000000AF,false,Rx,0,4,83,7A,20,01,00,00,00,00,
473506191,00000086,false,Rx,0,8,D8,0E,2C,20,00,00,00,00,
473511962,000000B2,false,Rx,0,8,00,00,00,00,00,00,00,00,
473511967,000000FD,false,Rx,0,8,E6,DE,1F,80,00,00,00,00,
473511972,00000116,false,Rx,0,8,AD,0E,01,00,20,00,00,FF,
473511978,000000AD,false,Rx,0,8,86,E1,BF,FF,00,14,00,00,
473511983,000000AE,false,Rx,0,8,30,01,00,00,FF,3C,01,02,
473512034,00000128,false,Rx,0,3,80,00,00,00,00,00,00,00,
473512039,0000012D,false,Rx,0,8,F2,89,7F,00,00,00,FE,3F,
473513321,000000A7,false,Rx,0,8,05,0F,20,80,FD,01,98,3D,
473513556,000000A8,false,Rx,0,8,80,9F,1D,A1,82,64,14,0E,
473515208,000000AF,false,Rx,0,4,83,7B,20,01,00,00,00,00,
473516191,00000086,false,Rx,0,8,BC,0F,2C,20,00,00,00,00,
473517476,000000B2,false,Rx,0,8,00,00,00,00,00,00,00,00,
473517760,00000101,false,Rx,0,8,FB,0F,80,00,A2,00,40,00,
473518001,00000106,false,Rx,0,8,6A,0F,63,00,02,00,00,00,
473518256,0000011E,false,Rx,0,8,96,0F,00,00,00,00,00,00,
473518926,0000031E,false,Rx,0,8,F4,FD,3F,00,00,00,00,40,
473519182,0000032C,false,Rx,0,8,00,0F,00,00,98,24,00,00,
473519410,0000032F,false,Rx,0,8,00,FF,00,00,00,00,12,01,
473519669,00000040,false,Rx,0,8,DF,02,00,44,C1,00,00,00,
473520474,000003D8,false,Rx,0,8,00,00,08,00,00,00,00,00,
473521362,000000AD,false,Rx,0,8,62,E2,BF,FF,00,14,00,00,
473521594,000000AE,false,Rx,0,8,31,02,00,00,FF,3C,01,02,
473521862,00000463,false,Rx,0,8,00,E0,03,00,00,00,00,00,
473523321,000000A7,false,Rx,0,8,CC,00,20,80,FD,01,98,3D,
473523556,000000A8,false,Rx,0,8,A0,90,1D,A1,82,64,18,0E,
473523801,00000107,false,Rx,0,8,00,00,F8,2C,01,00,66,A7,
473524043,00000120,false,Rx,0,8,26,00,00,02,01,08,FF,01,
473524277,00000121,false,Rx,0,8,60,00,00,40,37,5A,7E,FE,
473524506,00000147,false,Rx,0,8,00,00,00,00,F0,A7,60,1D,
473525064,000000AF,false,Rx,0,4,83,7C,00,00,00,00,00,00,
473526203,00000086,false,Rx,0,8,FE,00,2C,20,00,00,00,00,
473526458,0000012B,false,Rx,0,8,FA,4B,40,28,00,00,00,00,
473533157,000000B2,false,Rx,0,8,00,00,00,00,00,00,00,00,
473533162,000000FD,false,Rx,0,8,71,DF,1F,80,00,00,00,00,
473533168,00000116,false,Rx,0,8,C9,0F,01,00,20,00,00,FF,
473533173,000003E5,false,Rx,0,8,2B,25,00,00,00,00,00,00,
473533178,000000AD,false,Rx,0,8,E3,E3,BF,FF,00,14,00,00,
473533184,000000AE,false,Rx,0,8,14,03,00,00,FF,3C,01,02,
473533189,00000128,false,Rx,0,3,80,00,00,00,00,00,00,00,
473533194,0000012D,false,Rx,0,8,7B,8A,7F,00,00,00,FE,3F,
473533310,000000A7,false,Rx,0,8,44,01,20,80,FD,01,98,3D,
473533544,000000A8,false,Rx,0,8,E2,91,1D,A1,82,64,1C,0E,
473533763,0000030B,false,Rx,0,8,10,22,00,00,08,00,00,10,
473534385,000003B5,false,Rx,0,8,87,FE,12,3E,0C,99,20,00,
473535212,000000AF,false,Rx,0,4,83,7D,00,00,00,00,00,00,
473536055,00000086,false,Rx,0,8,9A,01,2C,20,00,00,00,00,
473537494,000000B2,false,Rx,0,8,00,00,00,00,00,00,00,00,
473537781,00000101,false,Rx,0,8,0D,00,80,00,A2,02,00,00,
473538022,00000106,false,Rx,0,8,28,00,63,00,02,00,00,00,
473538277,0000011E,false,Rx,0,8,D4,00,00,00,00,00,00,00,
473541357,000000AD,false,Rx,0,8,41,E4,BF,FF,00,14,00,00,
473541585,000000AE,false,Rx,0,8,1A,04,00,00,FF,3C,01,02,
473541849,00000365,false,Rx,0,8,AD,06,14,00,8D,0F,88,7A,
473543316,000000A7,false,Rx,0,8,77,02,20,80,FD,FD,97,3D,
473543555,000000A8,false,Rx,0,8,0E,92,1D,A1,82,64,1C,0E,
473543801,00000107,false,Rx,0,8,00,00,F8,2C,01,00,73,A7,
473544043,00000120,false,Rx,0,8,D3,01,00,02,01,08,FF,01,
473544278,00000121,false,Rx,0,8,0C,01,00,40,37,5A,7E,FE,
473544511,00000147,false,Rx,0,8,00,00,00,00,F0,A7,60,1D,
473544760,000002C2,false,Rx,0,8,00,00,00,00,00,00,00,00,
473545004,00000391,false,Rx,0,8,12,8C,22,49,00,27,00,22,
473545239,000003BE,false,Rx,0,8,A1,05,E6,00,C8,80,00,80,
473545393,000000AF,false,Rx,0,4,83,7E,00,00,00,00,00,00,
473545568,000003C0,false,Rx,0,4,FA,09,03,00,00,00,00,00,
473545817,000003C7,false,Rx,0,8,01,10,24,00,00,40,80,00,
473546060,000003D6,false,Rx,0,8,08,00,00,00,00,00,30,00,
473546354,17F00076,true,Rx,0,8,20,76,00,00,00,00,00,80,
473546587,00000086,false,Rx,0,8,36,02,2C,20,00,00,00,00,
473546845,00000640,false,Rx,0,8,E0,92,81,C7,7D,20,0F,00,
473547079,00000647,false,Rx,0,8,B8,FD,FF,7F,00,00,00,C1,
473554359,0000065F,false,Rx,0,8,2E,20,00,00,00,00,2C,7F,
473554365,00000670,false,Rx,0,8,19,10,00,00,00,01,00,88,
473554370,000000B2,false,Rx,0,8,00,00,00,00,00,00,00,00,
473554375,000005F0,false,Rx,0,8,FD,00,64,00,00,64,00,00,
473554381,000000FD,false,Rx,0,8,0B,D0,1F,80,00,00,00,00,
473554386,00000116,false,Rx,0,8,8B,00,01,00,20,00,00,FF,
473554391,000000AD,false,Rx,0,8,74,E5,BF,FF,00,14,00,00,
473554397,000000AE,false,Rx,0,8,E1,05,00,00,FF,3C,01,02,
473554402,000005AC,false,Rx,0,8,00,00,FF,FE,FE,F7,07,00,
473554407,00000128,false,Rx,0,3,84,FD,28,00,00,00,00,00,
473554412,0000012D,false,Rx,0,8,60,8B,7F,00,00,00,FE,3F,
473554418,000000A7,false,Rx,0,8,F6,03,20,80,FD,FD,97,3D,
473554423,000000A8,false,Rx,0,8,A9,93,1D,A1,82,64,10,0E,
473555211,000000AF,false,Rx,0,4,83,7F,00,00,00,00,00,00,
473556201,00000086,false,Rx,0,8,52,03,2C,20,00,00,00,00,
473556434,0000012B,false,Rx,0,8,BF,4C,40,28,00,00,00,00,
473557459,000000B2,false,Rx,0,8,00,00,00,00,00,00,00,00,
473557742,00000101,false,Rx,0,8,69,01,80,00,A2,02,00,00,
473557982,00000106,false,Rx,0,8,4C,01,63,00,02,00,00,00,
473558237,0000011E,false,Rx,0,8,B0,01,00,00,00,00,00,00,
473559098,1B000010,true,Rx,0,8,10,00,04,05,11,00,00,00,
473561347,000000AD,false,Rx,0,8,6A,E6,BF,FF,00,14,00,00,
473561603,000000AE,false,Rx,0,8,BA,06,00,00,FF,3C,01,02,
473561895,16A95414,true,Rx,0,8,00,30,7E,C3,0F,00,00,00,
473562128,000000B1,false,Rx,0,8,13,20,00,00,00,00,00,00,
473563348,000000A7,false,Rx,0,8,8B,04,20,80,FD,01,98,3D,
473563583,000000A8,false,Rx,0,8,DD,94,1D,A1,82,64,04,0E,
473563837,00000107,false,Rx,0,8,00,00,F8,2C,01,00,80,A7,
473564072,00000120,false,Rx,0,8,2B,02,00,02,01,08,FF,01,
473564306,00000121,false,Rx,0,8,83,02,00,40,37,5A,7E,FE,
473564534,00000147,false,Rx,0,8,00,00,00,00,F0,A3,60,1D,
473565190,000000AF,false,Rx,0,4,83,70,D5,01,00,00,00,00,
473566211,00000086,false,Rx,0,8,41,04,2C,20,00,00,00,00,
473573186,000000B2,false,Rx,0,8,00,00,00,00,00,00,00,00,
473573192,000000FD,false,Rx,0,8,01,D1,1F,80,00,00,00,00,
473573197,00000116,false,Rx,0,8,EF,01,01,00,20,00,00,FF,
473573202,00000392,false,Rx,0,8,8A,26,00,00,00,00,00,04,
473573208,0000031E,false,Rx,0,8,81,FE,3F,00,00,00,00,40,
473573213,0000032C,false,Rx,0,8,00,0F,00,00,98,24,00,00,
473573218,0000032F,false,Rx,0,8,00,FF,00,00,00,00,12,01,
473573224,00000040,false,Rx,0,8,BB,03,00,44,C1,00,00,00,
473573229,000000AD,false,Rx,0,8,35,E7,BF,FF,00,14,00,00,
473573234,00000464,false,Rx,0,8,00,00,00,00,00,00,00,00,
473573240,000000AE,false,Rx,0,8,28,07,00,00,FF,3C,01,02,
473573245,000003DB,false,Rx,0,8,50,00,01,04,07,24,01,A2,
473573250,00000128,false,Rx,0,3,80,00,00,00,00,00,00,00,
473573255,0000012D,false,Rx,0,8,52,8C,7F,00,00,00,FE,3F,
473573261,000003C8,false,Rx,0,8,00,00,54,24,00,60,01,82,
473573266,17F00077,true,Rx,0,8,20,77,00,00,00,00,00,00,
473573382,000000A7,false,Rx,0,8,F0,05,20,80,FD,01,98,3D,
473573616,000000A8,false,Rx,0,8,8F,95,1D,A1,82,64,00,0E,
473575210,000000AF,false,Rx,0,4,83,71,D5,01,00,00,00,00,
473576184,00000086,false,Rx,0,8,25,05,2C,20,00,00,00,00,
473577508,000000B2,false,Rx,0,8,00,00,00,00,00,00,00,00,
473577777,00000101,false,Rx,0,8,35,02,80,00,A2,01,00,00,
473578014,00000106,false,Rx,0,8,E0,02,63,00,02,00,00,00,
473578273,0000011E,false,Rx,0,8,1C,02,00,00,00,00,00,00,
473581349,000000AD,false,Rx,0,8,A2,E8,BF,FF,00,14,00,00,
473581603,000000AE,false,Rx,0,8,5F,08,00,00,FF,3C,01,02,
473581856,000003DD,false,Rx,0,8,48,04,10,18,FE,4F,0A,00,
473583290,0000030B,false,Rx,0,8,10,23,00,00,08,00,00,10,
473583524,000000A7,false,Rx,0,8,63,06,20,80,FD,01,98,3D,
473583769,000000A8,false,Rx,0,8,87,96,1D,A1,82,64,04,0E,
473584011,00000107,false,Rx,0,8,00,00,F8,2C,01,00,80,A7,
473584246,00000120,false,Rx,0,8,F9,03,00,02,01,08,FF,01,
473584480,00000121,false,Rx,0,8,71,03,00,40,37,5A,7E,FE,
473584719,00000147,false,Rx,0,8,00,00,00,00,F0,A7,60,1D,
473584962,0000065E,false,Rx,0,8,00,00,FE,80,23,00,00,00,
473585116,000000AF,false,Rx,0,4,83,72,00,00,00,00,00,00,
473586200,00000086,false,Rx,0,8,89,06,2C,20,00,00,00,00,
473586434,0000012B,false,Rx,0,8,EB,4D,40,28,00,00,00,00,
473594389,000000B2,false,Rx,0,8,00,00,00,00,00,00,00,00,
473594395,000000FD,false,Rx,0,8,CE,D2,1F,80,00,00,00,00,
473594400,00000116,false,Rx,0,8,43,02,01,00,20,00,00,FF,
473594405,000000AD,false,Rx,0,8,A6,E9,BF,FF,00,14,00,00,
473594411,000000AE,false,Rx,0,8,B7,09,00,00,FF,3C,01,02,
473594416,00000365,false,Rx,0,8,AD,06,14,00,8D,0F,88,7A,
473594421,00000128,false,Rx,0,3,84,FD,D7,00,00,00,00,00,
473594426,0000012D,false,Rx,0,8,3E,8D,7F,00,00,00,FE,3F,
473594432,000000A7,false,Rx,0,8,EA,07,20,80,FD,01,98,3D,
473594437,000000A8,false,Rx,0,8,4A,97,1D,A1,82,64,10,0E,
473595201,000000AF,false,Rx,0,4,83,73,00,00,00,00,00,00,
473596203,00000086,false,Rx,0,8,ED,07,2C,20,00,00,00,00,
473596821,000006B2,false,Rx,0,8,75,D1,9D,A3,29,FD,B4,36,
473597433,000000B2,false,Rx,0,8,00,00,00,00,00,00,00,00,
473597714,00000101,false,Rx,0,8,9F,03,80,00,A2,04,40,00,
473597977,00000106,false,Rx,0,8,84,03,63,00,02,00,00,00,
473598210,0000011E,false,Rx,0,8,78,03,00,00,00,00,00,00,
473601335,000000AD,false,Rx,0,8,F7,EA,BF,FF,00,14,00,00,
473601594,000000AE,false,Rx,0,8,CB,0A,00,00,FF,3C,01,02,
473601861,000003DE,false,Rx,0,8,FE,00,00,00,00,00,00,00,
473603281,000000A7,false,Rx,0,8,A7,08,20,80,FD,01,98,3D,
473603515,000000A8,false,Rx,0,8,18,98,1D,A1,82,64,18,0E,
473603760,00000107,false,Rx,0,8,00,00,F8,2C,01,00,8C,A7,
473604004,00000120,false,Rx,0,8,AF,04,00,02,01,08,FF,01,
473604238,00000121,false,Rx,0,8,CC,04,00,40,37,5A,7E,FE,
473604472,00000147,false,Rx,0,8,00,00,00,00,F0,A7,60,1D,
473605204,000000AF,false,Rx,0,4,83,74,2A,01,00,00,00,00,
473605537,1B000015,true,Rx,0,8,15,00,04,02,01,00,00,00,
473605821,1B000053,true,Rx,0,8,53,00,04,01,01,00,00,00,
473606180,00000086,false,Rx,0,8,AF,08,2C,20,00,00,00,00,
473612074,000000B2,false,Rx,0,8,00,00,00,00,00,00,00,00,
473612080,000000FD,false,Rx,0,8,BB,D3,1F,80,00,00,00,00,
473612085,00000116,false,Rx,0,8,27,03,01,00,20,00,00,FF,
473612090,000000AD,false,Rx,0,8,42,EB,BF,FF,00,14,00,00,
473612096,000000AE,false,Rx,0,8,69,0B,00,00,FF,3C,01,02,
473612101,00000128,false,Rx,0,3,80,00,00,00,00,00,00,00,
473612106,0000012D,false,Rx,0,8,0E,8E,7F,00,00,00,FE,3F,
473613289,000000A7,false,Rx,0,8,77,09,20,80,FD,01,98,3D,
473613523,000000A8,false,Rx,0,8,52,99,1D,A1,82,64,1C,0E,
473615198,000000AF,false,Rx,0,4,83,75,2A,01,00,00,00,00,
473616202,00000086,false,Rx,0,8,CB,09,2C,20,00,00,00,00,
473616457,0000012B,false,Rx,0,8,A4,4E,40,28,00,00,00,00,
473617499,000000B2,false,Rx,0,8,00,00,00,00,00,00,00,00,
473617757,00000101,false,Rx,0,8,B3,04,80,00,A2,01,40,00,
473618020,00000106,false,Rx,0,8,97,04,63,00,02,00,00,00,
473618274,0000011E,false,Rx,0,8,6B,04,00,00,00,00,00,00,
473618922,0000031E,false,Rx,0,8,68,FF,3F,00,00,00,00,40,
473619177,0000032C,false,Rx,0,8,00,0F,00,00,98,24,00,00,
473619431,0000032F,false,Rx,0,8,00,FF,00,00,00,00,12,01,
473619665,00000040,false,Rx,0,8,A8,04,00,44,C1,00,00,00,
473620448,000003D8,false,Rx,0,8,00,00,08,00,00,00,00,00,
473621389,000000AD,false,Rx,0,8,2F,EC,BF,FF,00,14,00,00,
473621622,00000520,false,Rx,0,8,7E,0B,00,08,00,0A,00,0A,
473621877,000000AE,false,Rx,0,8,D1,0C,00,00,FF,3C,01,02,
473622111,00000462,false,Rx,0,8,01,00,38,00,00,01,00,00,
473623309,000000A7,false,Rx,0,8,71,0A,20,80,FD,01,98,3D,
473623544,000000A8,false,Rx,0,8,0D,9A,1D,A1,82,64,1C,0E,
473623789,00000107,false,Rx,0,8,00,00,F8,2C,01,00,8C,A7,
473624011,00000120,false,Rx,0,8,AD,05,00,02,01,08,FF,01,
473624245,00000121,false,Rx,0,8,FB,05,00,40,37,5A,7E,FE,
473624501,00000147,false,Rx,0,8,00,00,00,00,F0,A7,60,1D,
473625191,000000AF,false,Rx,0,4,83,76,00,00,00,00,00,00,
473626200,00000086,false,Rx,0,8,67,0A,2C,20,00,00,00,00,
473633307,000000B2,false,Rx,0,8,00,00,00,00,00,00,00,00,
473633313,000000FD,false,Rx,0,8,2D,D4,1F,80,00,00,00,00,
473633318,00000116,false,Rx,0,8,34,04,01,00,20,00,00,FF,
473633323,000003E5,false,Rx,0,8,22,26,00,00,00,00,00,00,
473633329,000000AD,false,Rx,0,8,5E,ED,BF,FF,00,14,00,00,
473633334,000000AE,false,Rx,0,8,B2,0D,00,00,FF,3C,01,02,
473633339,00000128,false,Rx,0,3,84,FF,0D,00,00,00,00,00,
473633344,0000012D,false,Rx,0,8,F9,8F,7F,00,00,00,FE,3F,
473633350,000000A7,false,Rx,0,8,58,0B,20,80,FD,FD,97,3D,
473633525,000000A8,false,Rx,0,8,C0,9B,1D,A1,82,64,1C,0E,
473633768,0000030B,false,Rx,0,8,10,24,00,00,08,00,00,10,
473634347,000003B5,false,Rx,0,8,87,FE,12,3E,0C,99,20,00,
473635212,000000AF,false,Rx,0,4,83,77,00,00,00,00,00,00,
473636174,00000086,false,Rx,0,8,03,0B,2C,20,00,00,00,00,
473637498,000000B2,false,Rx,0,8,00,00,00,00,00,00,00,00,
473637782,00000101,false,Rx,0,8,62,05,80,00,A2,00,40,00,
473638025,00000106,false,Rx,0,8,F3,05,63,00,02,00,00,00,
473638278,0000011E,false,Rx,0,8,0F,05,00,00,00,00,00,00,
473641377,000000AD,false,Rx,0,8,84,EE,BF,FF,00,14,00,00,
473641611,000000AE,false,Rx,0,8,8A,0E,00,00,FF,3C,01,02,
473641842,00000365,false,Rx,0,8,AD,06,14,00,8D,0F,88,7A,
473642076,00000394,false,Rx,0,8,93,11,00,1A,00,00,00,00,
473643283,000000A7,false,Rx,0,8,E7,0C,20,80,FD,FD,97,3D,
473643517,000000A8,false,Rx,0,8,AE,9C,1D,A1,82,64,14,0E,
473643757,00000107,false,Rx,0,8,00,00,F8,2C,01,00,99,A7,
473644000,00000120,false,Rx,0,8,42,06,00,02,01,08,FF,01,
473644234,00000121,false,Rx,0,8,FC,06,00,40,37,5A,7E,FE,
473644468,00000147,false,Rx,0,8,00,00,00,00,F0,A3,60,1D,
473644711,00000391,false,Rx,0,8,12,8C,22,49,00,27,00,22,
473644954,000003BE,false,Rx,0,8,BC,06,E6,00,C8,80,00,80,
473645110,000000AF,false,Rx,0,4,83,78,56,01,00,00,00,00,
473645284,000003C0,false,Rx,0,4,0A,0A,03,00,00,00,00,00,
473645517,000003C7,false,Rx,0,8,76,10,24,00,00,40,80,00,
473645761,000003D6,false,Rx,0,8,09,00,00,00,00,00,30,00,
473646201,00000086,false,Rx,0,8,10,0C,2C,20,00,00,00,00,
473646435,0000012B,false,Rx,0,8,8E,4F,40,28,00,00,00,00,
473646849,00000569,false,Rx,0,8,00,00,00,3E,F8,10,00,00,
473653303,000000B2,false,Rx,0,8,00,00,00,00,00,00,00,00,
473653308,000000FD,false,Rx,0,8,B7,D5,1F,80,00,00,00,00,
473653314,00000116,false,Rx,0,8,50,05,01,00,20,00,00,FF,
473653319,000000AD,false,Rx,0,8,D5,EF,BF,FF,00,14,00,00,
473653324,000000AE,false,Rx,0,8,68,0F,00,00,FF,3C,01,02,
473653330,000005AC,false,Rx,0,8,00,00,FF,FE,FE,F7,07,00,
473653335,00000128,false,Rx,0,3,80,00,00,00,00,00,00,00,
473653340,0000012D,false,Rx,0,8,5D,80,7F,00,00,00,FE,3F,
473653345,000000A7,false,Rx,0,8,5C,0D,E0,7F,FD,FD,97,3D,
473653520,000000A8,false,Rx,0,8,BD,9D,1D,A1,82,64,14,0E,
473655199,000000AF,false,Rx,0,4,83,79,56,01,00,00,00,00,
473656182,00000086,false,Rx,0,8,74,0D,2C,20,00,00,00,00,
473657479,000000B2,false,Rx,0,8,00,00,00,00,00,00,00,00,
473657742,00000101,false,Rx,0,8,7A,06,80,00,A2,02,00,00,
473658004,00000106,false,Rx,0,8,5F,06,63,00,02,00,00,00,
473658259,0000011E,false,Rx,0,8,A3,06,00,00,00,00,00,00,
473661357,000000AD,false,Rx,0,8,48,E0,BF,FF,00,14,00,00,
473661612,000000AE,false,Rx,0,8,DF,00,00,00,FF,3C,01,02,
473661881,16A95414,true,Rx,0,8,00,30,7E,C3,0F,00,00,00,
473662142,000000B1,false,Rx,0,8,D6,21,00,00,00,00,00,00,
473663296,000000A7,false,Rx,0,8,90,0E,E0,7F,FD,01,98,3D,
473663530,000000A8,false,Rx,0,8,37,9E,1D,A1,82,64,10,0E,
473663780,00000107,false,Rx,0,8,00,00,F8,2C,01,00,A6,A7,
473664024,00000120,false,Rx,0,8,40,07,00,02,01,08,FF,01,
473664258,00000121,false,Rx,0,8,AF,07,00,40,37,5A,7E,FE,
473664492,00000147,false,Rx,0,8,00,00,00,00,F0,A3,60,1D,
473664781,16A95415,true,Rx,0,8,00,00,00,00,14,00,98,00,
473665202,000000AF,false,Rx,0,4,83,7A,00,00,00,00,00,00,
473666182,00000086,false,Rx,0,8,D8,0E,2C,20,00,00,00,00,
473672075,000000B2,false,Rx,0,8,00,00,00,00,00,00,00,00,
473672080,000000FD,false,Rx,0,8,A5,D6,1F,80,00,00,00,00,
473672085,00000116,false,Rx,0,8,FC,06,01,00,20,00,00,FF,
473672091,00000392,false,Rx,0,8,EE,27,00,00,00,00,00,04,
473672096,000006B4,false,Rx,0,8,01,48,31,37,41,55,30,48,
473672101,0000031E,false,Rx,0,8,FB,F0,3F,00,00,00,00,40,
473672107,0000032C,false,Rx,0,8,00,0F,00,00,98,24,00,00,
473672112,0000032F,false,Rx,0,8,00,FF,00,00,00,00,12,01,
473672117,00000040,false,Rx,0,8,CC,05,00,44,C1,00,00,00,
473672123,000000AD,false,Rx,0,8,86,E1,BF,FF,00,14,00,00,
473672128,000000AE,false,Rx,0,8,30,01,00,00,FF,3C,01,02,
473672133,000003DB,false,Rx,0,8,50,00,01,04,07,24,01,A2,
473672139,00000128,false,Rx,0,3,80,00,00,00,00,00,00,00,
473672268,0000012D,false,Rx,0,8,0A,81,7F,00,00,00,FE,3F,
473672566,000003C8,false,Rx,0,8,00,00,54,24,00,60,01,82,
473672864,1B000077,true,Rx,0,8,77,00,04,02,01,00,00,00,
473673336,000000A7,false,Rx,0,8,4E,0F,E0,7F,FD,01,98,3D,
473673571,000000A8,false,Rx,0,8,80,9F,1D,A1,82,64,14,0E,
473673817,00000463,false,Rx,0,8,00,E0,03,00,00,00,00,00,
473675201,000000AF,false,Rx,0,4,83,7B,00,00,00,00,00,00,
473676203,00000086,false,Rx,0,8,BC,0F,2C,20,00,00,00,00,
473676437,0000012B,false,Rx,0,8,05,40,40,28,00,00,00,00,
473677538,000000B2,false,Rx,0,8,00,00,00,00,00,00,00,00,
473677833,00000101,false,Rx,0,8,64,07,80,00,A2,05,00,00,
473678061,00000106,false,Rx,0,8,3B,07,63,00,02,00,00,00,
473678320,0000011E,false,Rx,0,8,C7,07,00,00,00,00,00,00,
473678575,000001AB,false,Rx,0,8,AF,0E,04,02,18,00,04,00,
473681397,000000AD,false,Rx,0,8,62,E2,BF,FF,00,14,00,00,
473681625,000000AE,false,Rx,0,8,31,02,00,00,FF,3C,01,02,
473681888,000003DD,false,Rx,0,8,48,04,10,18,FE,4F,0A,00,
473683283,0000030B,false,Rx,0,8,10,25,00,00,08,00,00,10,
473683518,000000A7,false,Rx,0,8,87,00,E0,7F,FD,01,98,3D,
473683760,000000A8,false,Rx,0,8,A0,90,1D,A1,82,64,18,0E,
473683981,00000107,false,Rx,0,8,00,00,F8,2C,01,00,A6,A7,
473684210,00000120,false,Rx,0,8,19,08,00,02,01,08,FF,01,
473684470,00000121,false,Rx,0,8,6C,08,00,40,37,5A,7E,FE,
473684716,00000147,false,Rx,0,8,00,00,00,00,F0,A3,60,1D,
473685193,000000AF,false,Rx,0,4,83,7C,00,00,00,00,00,00,
473686199,00000086,false,Rx,0,8,FE,00,2C,20,00,00,00,00,
473694467,000000B2,false,Rx,0,8,00,00,00,00,00,00,00,00,
473694472,000000FD,false,Rx,0,8,9F,D7,1F,80,00,00,00,00,
473694478,00000116,false,Rx,0,8,98,07,01,00,20,00,00,FF,
473694483,000001A2,false,Rx,0,8,54,0B,00,00,00,00,00,00,
473694488,000000AD,false,Rx,0,8,E3,E3,BF,FF,00,14,00,00,
473694494,000000AE,false,Rx,0,8,14,03,00,00,FF,3C,01,02,
473694499,00000365,false,Rx,0,8,AD,06,14,00,8D,0F,88,7A,
473694504,00000128,false,Rx,0,3,84,24,29,00,00,00,00,00,
473694509,0000012D,false,Rx,0,8,18,82,7F,00,00,00,FE,3F,
473694515,000000A7,false,Rx,0,8,0F,01,E0,7F,FD,01,98,3D,
473694520,000000A8,false,Rx,0,8,DA,91,1D,A1,82,64,18,0E,
473695211,000000AF,false,Rx,0,4,83,7D,00,00,00,00,00,00,
473696211,00000086,false,Rx,0,8,9A,01,2C,20,00,00,00,00,
473697487,000000B2,false,Rx,0,8,00,00,00,00,00,00,00,00,
473697747,00000101,false,Rx,0,8,5C,08,80,00,A2,02,00,00,
473698011,00000106,false,Rx,0,8,79,08,63,00,02,00,00,00,
473698284,1B000076,true,Rx,0,8,76,00,04,01,01,00,00,00,
473698539,0000011E,false,Rx,0,8,85,08,00,00,00,00,00,00,
473701376,000000AD,false,Rx,0,8,41,E4,BF,FF,00,14,00,00,
473701632,000000AE,false,Rx,0,8,1A,04,00,00,FF,3C,01,02,
473701882,000003DE,false,Rx,0,8,FE,00,00,00,00,00,00,00,
473703320,000000A7,false,Rx,0,8,7B,02,E0,7F,FD,01,98,3D,
473703554,000000A8,false,Rx,0,8,36,92,1D,A1,82,64,18,0E,
473703800,00000107,false,Rx,0,8,00,00,F8,2C,01,00,B2,A7,
473704044,00000120,false,Rx,0,8,4F,09,00,02,01,08,FF,01,
473704278,00000121,false,Rx,0,8,93,09,00,40,37,5A,7E,FE,
473704512,00000147,false,Rx,0,8,00,00,00,00,F0,A3,60,1D,
473705064,000000AF,false,Rx,0,4,83,7E,0D,01,00,00,00,00,
473706204,00000086,false,Rx,0,8,36,02,2C,20,00,00,00,00,
473706432,0000012B,false,Rx,0,8,77,41,40,28,00,00,00,00,
473712122,000000B2,false,Rx,0,8,00,00,00,00,00,00,00,00,
473712127,000000FD,false,Rx,0,8,58,D8,1F,80,00,00,00,00,
473712133,00000116,false,Rx,0,8,DA,08,01,00,20,00,00,FF,
473712138,000000AD,false,Rx,0,8,74,E5,BF,FF,00,14,00,00,
473712143,000000AE,false,Rx,0,8,E1,05,00,00,FF,3C,01,02,
473712149,00000128,false,Rx,0,3,80,00,00,00,00,00,00,00,
473712154,0000012D,false,Rx,0,8,89,83,7F,00,00,00,FE,3F,
473713317,000000A7,false,Rx,0,8,F6,03,20,80,FD,FD,97,3D,
473713552,000000A8,false,Rx,0,8,E1,93,1D,A1,82,64,1C,0E,
473715212,000000AF,false,Rx,0,4,83,7F,0D,01,00,00,00,00,
473716173,00000086,false,Rx,0,8,52,03,2C,20,00,00,00,00,
473717479,000000B2,false,Rx,0,8,00,00,00,00,00,00,00,00,
473717763,00000101,false,Rx,0,8,F7,09,80,00,A2,04,00,00,
473718004,00000106,false,Rx,0,8,1D,09,63,00,02,00,00,00,
473718260,0000011E,false,Rx,0,8,E1,09,00,00,00,00,00,00,
473719005,0000031E,false,Rx,0,8,31,F1,3F,00,00,00,00,40,
473719260,0000032C,false,Rx,0,8,00,0F,00,00,98,24,00,00,
473719514,00000040,false,Rx,0,8,60,06,00,44,C1,00,00,00,
473719752,0000032F,false,Rx,0,8,00,FF,00,00,00,00,12,01,
473720431,000003D8,false,Rx,0,8,00,00,08,00,00,00,00,00,
473721417,000000AD,false,Rx,0,8,6A,E6,BF,FF,00,14,00,00,
473721671,00000464,false,Rx,0,8,00,00,00,00,00,00,00,00,
473721908,000000AE,false,Rx,0,8,BA,06,00,00,FF,3C,01,02,
473723345,000000A7,false,Rx,0,8,CC,04,20,80,FD,FD,97,3D,
473723579,000000A8,false,Rx,0,8,32,94,1D,A1,82,64,24,0E,
473723836,00000107,false,Rx,0,8,00,00,F8,2C,01,00,B2,A7,
473724070,00000120,false,Rx,0,8,94,0A,00,02,01,08,FF,01,
473724304,00000121,false,Rx,0,8,F6,0A,00,40,37,5A,7E,FE,
473724538,00000147,false,Rx,0,8,00,00,00,00,F0,A3,60,1D,
473725203,000000AF,false,Rx,0,4,83,70,00,00,00,00,00,00,
473726207,00000086,false,Rx,0,8,41,04,2C,20,00,00,00,00,
473733317,000000B2,false,Rx,0,8,00,00,00,00,00,00,00,00,
473733322,000000FD,false,Rx,0,8,6A,D9,1F,80,00,00,00,00,
473733328,00000116,false,Rx,0,8,BE,09,01,00,20,00,00,FF,
473733333,000003E5,false,Rx,0,8,3E,27,00,00,00,00,00,00,
473733338,000000AD,false,Rx,0,8,35,E7,BF,FF,00,14,00,00,
