Time Stamp,ID,Extended,Dir,Bus,LEN,D1,D2,D3,D4,D5,D6,D7,D8
564401055,000000A7,false,Rx,0,8,8F,EF,5F,7F,FD,F5,A7,3D,
564401060,000000A8,false,Rx,0,8,D9,AF,1D,61,82,64,30,0E,
564401065,17331110,true,Rx,0,5,44,51,0F,1C,11,00,00,00,
564401070,000000AD,false,Rx,0,8,86,E1,BF,FF,00,14,00,00,
564401076,000000AE,false,Rx,0,8,30,01,00,00,FF,3C,01,02,
564401081,00000128,false,Rx,0,3,80,00,00,00,00,00,00,00,
564401086,0000012D,false,Rx,0,8,F2,89,7F,00,00,00,FE,3F,
564401091,00000086,false,Rx,0,8,3A,0F,1E,20,00,00,00,00,
564401097,000000B2,false,Rx,0,8,00,00,00,00,00,00,00,00,
564401102,00000101,false,Rx,0,8,FB,0F,80,00,A2,00,40,00,
564401107,00000106,false,Rx,0,8,6A,0F,63,00,02,00,00,00,
564401113,00000040,false,Rx,0,8,F9,0C,00,44,C1,00,00,00,
564401118,0000011E,false,Rx,0,8,96,0F,00,00,00,00,00,00,
564401123,000003DE,false,Rx,0,8,FE,00,00,00,00,00,00,00,
564401129,000003D8,false,Rx,0,8,00,00,08,00,00,00,00,00,
564401134,00000520,false,Rx,0,8,E7,01,00,08,00,0A,00,0A,
564402613,000003B5,false,Rx,0,8,87,FE,12,3C,0C,92,20,00,
564403203,000005EA,false,Rx,0,8,00,00,00,36,F8,FE,FB,FF,
564403352,000000AF,false,Rx,0,4,83,7C,00,00,00,00,00,00,
564403651,1B000053,true,Rx,0,8,53,00,04,01,01,00,00,00,
564404223,1A55552B,true,Rx,0,8,00,00,00,00,00,FE,F8,03,
564405171,000000A7,false,Rx,0,8,46,E0,5F,7F,FD,F5,A7,3D,
564405406,000000A8,false,Rx,0,8,B4,A0,1D,21,82,64,34,0E,
564405639,00000107,false,Rx,0,8,00,00,F8,2C,01,00,C2,B5,
564405889,00000120,false,Rx,0,8,26,00,00,02,01,08,FF,01,
564406123,00000121,false,Rx,0,8,27,00,00,80,37,5A,7E,FE,
564406358,000000AD,false,Rx,0,8,62,E2,BF,FF,00,14,00,00,
564406591,00000147,false,Rx,0,8,00,00,00,00,F0,93,60,1D,
564406848,000000AE,false,Rx,0,8,31,02,00,00,FF,3C,01,02,
564407437,00000086,false,Rx,0,8,78,00,1E,20,00,00,00,00,
564407820,000000B2,false,Rx,0,8,00,00,00,00,00,00,00,00,
564408102,000000FD,false,Rx,0,8,71,DF,1F,80,00,00,00,00,
564408357,00000116,false,Rx,0,8,41,0F,01,00,40,00,00,FF,
564413345,000000AF,false,Rx,0,4,83,7D,00,00,00,00,00,00,
564421038,000000A7,false,Rx,0,8,CE,E1,5F,7F,FD,F5,A7,3D,
564421044,000000A8,false,Rx,0,8,86,A1,1D,21,82,64,38,0E,
564421095,000000AD,false,Rx,0,8,E3,E3,BF,FF,00,14,00,00,
564421100,000000AE,false,Rx,0,8,14,03,00,00,FF,3C,01,02,
564421105,00000128,false,Rx,0,3,84,FF,0D,00,00,00,00,00,
564421110,0000012D,false,Rx,0,8,7B,8A,7F,00,00,00,FE,3F,
564421116,00000086,false,Rx,0,8,1C,01,1E,20,00,00,00,00,
564421121,000000B2,false,Rx,0,8,00,00,00,00,00,00,00,00,
564421126,00000101,false,Rx,0,8,48,00,80,00,A2,00,00,00,
564421132,00000106,false,Rx,0,8,BA,00,64,00,02,00,00,00,
564421137,0000011E,false,Rx,0,8,D4,00,00,00,00,00,00,00,
564421142,0000031E,false,Rx,0,8,9A,F7,3F,00,00,00,00,40,
564421148,0000032C,false,Rx,0,8,00,0F,00,00,98,24,00,00,
564421368,0000032F,false,Rx,0,8,00,FF,00,00,00,00,F8,00,
564423223,000000AF,false,Rx,0,4,83,7E,56,01,00,00,00,00,
564423800,0000012B,false,Rx,0,8,77,41,40,28,00,00,00,00,
564424070,00000463,false,Rx,0,8,00,E0,03,00,00,00,00,00,
564425112,000000A7,false,Rx,0,8,BA,E2,5F,7F,FD,F5,A7,3D,
564425349,000000A8,false,Rx,0,8,6A,A2,1D,21,82,64,38,0E,
564425583,00000107,false,Rx,0,8,00,00,F8,2C,01,00,C2,B5,
564425836,00000120,false,Rx,0,8,D3,01,00,02,01,08,FF,01,
564426050,00000121,false,Rx,0,8,4B,01,00,80,37,5A,7E,FE,
564426305,00000147,false,Rx,0,8,00,00,00,00,F0,93,60,1D,
564426540,000000AD,false,Rx,0,8,41,E4,BF,FF,00,14,00,00,
564426789,000000AE,false,Rx,0,8,1A,04,00,00,FF,3C,01,02,
564427425,00000086,false,Rx,0,8,B0,02,1E,20,00,00,00,00,
564427768,000000B2,false,Rx,0,8,00,00,00,00,00,00,00,00,
564428045,000000FD,false,Rx,0,8,0B,D0,1F,80,00,00,00,00,
564428304,00000116,false,Rx,0,8,03,00,01,00,40,00,00,FF,
564433357,000000AF,false,Rx,0,4,83,7F,56,01,00,00,00,00,
564434954,0000030B,false,Rx,0,8,10,2C,00,00,08,00,00,10,
564441003,000000A7,false,Rx,0,8,3B,E3,5F,7F,FD,F5,A7,3D,
564441008,000000A8,false,Rx,0,8,5D,A3,1D,21,82,64,2C,0E,
564441013,000000AD,false,Rx,0,8,74,E5,BF,FF,00,14,00,00,
564441019,000000AE,false,Rx,0,8,E1,05,00,00,FF,3C,01,02,
564441024,00000128,false,Rx,0,3,80,00,00,00,00,00,00,00,
564441029,0000012D,false,Rx,0,8,60,8B,7F,00,00,00,FE,3F,
564441034,00000086,false,Rx,0,8,D4,03,1E,20,00,00,00,00,
564441040,000000B2,false,Rx,0,8,00,00,00,00,00,00,00,00,
564441045,00000101,false,Rx,0,8,2C,01,80,00,A2,00,00,00,
564441050,00000106,false,Rx,0,8,4C,01,63,00,02,00,00,00,
564441056,0000011E,false,Rx,0,8,B0,01,00,00,00,00,00,00,
564441061,00000365,false,Rx,0,8,AC,06,12,00,8C,0F,84,7A,
564443343,000000AF,false,Rx,0,4,83,70,00,00,00,00,00,00,
564445476,000000A7,false,Rx,0,8,01,E4,5F,7F,FD,F5,A7,3D,
564445725,000000A8,false,Rx,0,8,C9,A4,1D,21,82,64,28,0E,
564445946,00000107,false,Rx,0,8,00,00,F8,2C,01,00,CE,B5,
564446181,00000120,false,Rx,0,8,2B,02,00,02,01,08,FF,01,
564446436,000000AD,false,Rx,0,8,6A,E6,BF,FF,00,14,00,00,
564446644,00000121,false,Rx,0,8,C4,02,00,80,37,5A,7E,FE,
564446881,000000AE,false,Rx,0,8,BA,06,00,00,FF,3C,01,02,
564447142,00000147,false,Rx,0,8,00,00,00,00,F0,93,60,1D,
564447376,00000391,false,Rx,0,8,11,89,21,46,00,27,00,22,
564447611,000003BE,false,Rx,0,8,DA,02,E6,00,C8,80,00,80,
564447841,000003C7,false,Rx,0,8,70,10,24,00,00,40,80,00,
564448082,17331110,true,Rx,0,5,C0,00,00,00,00,00,00,00,
564448336,00000086,false,Rx,0,8,C7,04,1E,20,00,00,00,00,
564448589,000000B2,false,Rx,0,8,00,00,00,00,00,00,00,00,
564448846,000000FD,false,Rx,0,8,01,D1,1F,80,00,00,00,00,
564449081,00000040,false,Rx,0,8,9D,0D,00,44,C1,00,00,00,
564449336,00000116,false,Rx,0,8,67,01,01,00,40,00,00,FF,
564449486,000003C0,false,Rx,0,4,BB,06,03,00,00,00,00,00,
564449755,000003D6,false,Rx,0,8,05,00,00,00,00,00,30,00,
564450007,000005AC,false,Rx,0,8,00,00,FF,FE,FE,F7,07,00,
564453356,000000AF,false,Rx,0,4,83,71,00,00,00,00,00,00,
564453821,0000012B,false,Rx,0,8,D3,42,40,28,00,00,00,00,
564455084,000000A7,false,Rx,0,8,7A,E5,5F,7F,FD,F5,A7,3D,
564461102,000000A8,false,Rx,0,8,A3,A5,1D,21,82,64,28,0E,
564461107,000000AD,false,Rx,0,8,35,E7,BF,FF,00,14,00,00,
564461112,000000AE,false,Rx,0,8,28,07,00,00,FF,3C,01,02,
564461118,00000128,false,Rx,0,3,84,02,2B,00,00,00,00,00,
564461123,0000012D,false,Rx,0,8,52,8C,7F,00,00,00,FE,3F,
564461128,00000086,false,Rx,0,8,A3,05,1E,20,00,00,00,00,
564461133,000000B2,false,Rx,0,8,00,00,00,00,00,00,00,00,
564461139,00000101,false,Rx,0,8,80,02,80,00,A2,00,00,00,
564461144,00000106,false,Rx,0,8,72,02,64,00,02,00,00,00,
564461149,0000011E,false,Rx,0,8,1C,02,00,00,00,00,00,00,
564461155,16A95414,true,Rx,0,8,00,30,7E,C3,0F,00,00,00,
564463339,000000AF,false,Rx,0,4,83,72,29,01,00,00,00,00,
564465170,000000A7,false,Rx,0,8,E9,E6,5F,7F,FD,F5,A7,3D,
564465406,000000A8,false,Rx,0,8,93,A6,1D,21,82,64,28,0E,
564465639,00000107,false,Rx,0,8,00,00,F8,2C,01,00,D9,B5,
564465889,00000120,false,Rx,0,8,F9,03,00,02,01,08,FF,01,
564466124,00000121,false,Rx,0,8,0B,03,00,C0,37,5A,7E,FE,
564466357,00000147,false,Rx,0,8,00,00,00,00,F0,93,60,1D,
564466592,000000AD,false,Rx,0,8,A2,E8,BF,FF,00,14,00,00,
564466847,000000AE,false,Rx,0,8,5F,08,00,00,FF,3C,01,02,
564467102,000000B1,false,Rx,0,8,6E,2D,00,00,00,00,00,00,
564467416,00000086,false,Rx,0,8,0F,06,1E,20,00,00,00,00,
564467906,000000B2,false,Rx,0,8,00,00,00,00,00,00,00,00,
564468200,000000FD,false,Rx,0,8,CE,D2,1F,80,00,00,00,00,
564468428,00000116,false,Rx,0,8,CB,02,01,00,40,00,00,FF,
564468690,00000392,false,Rx,0,8,51,23,00,00,00,00,00,04,
564469251,000003DB,false,Rx,0,8,50,00,01,04,07,24,01,A3,
564470449,000006B4,false,Rx,0,8,02,4D,35,33,31,32,37,37,
564470844,0000031E,false,Rx,0,8,D3,F8,3F,00,00,00,00,40,
564471073,0000032C,false,Rx,0,8,00,0F,00,00,98,24,00,00,
564471332,0000032F,false,Rx,0,8,00,FF,00,00,00,00,F8,00,
564473335,000000AF,false,Rx,0,4,83,73,29,01,00,00,00,00,
564473985,00000464,false,Rx,0,8,00,00,00,00,00,00,00,00,
564475104,000000A7,false,Rx,0,8,D1,E7,5F,7F,FD,F9,A7,3D,
564481118,000000A8,false,Rx,0,8,86,A7,1D,21,82,64,28,0E,
564481123,000000AD,false,Rx,0,8,A6,E9,BF,FF,00,14,00,00,
564481129,000000AE,false,Rx,0,8,B7,09,00,00,FF,3C,01,02,
564481134,00000128,false,Rx,0,3,80,00,00,00,00,00,00,00,
564481139,0000012D,false,Rx,0,8,3E,8D,7F,00,00,00,FE,3F,
564481144,000003C8,false,Rx,0,8,00,00,54,24,00,60,01,88,
564481150,00000086,false,Rx,0,8,6B,07,1E,20,00,00,00,00,
564481155,1B000077,true,Rx,0,8,77,00,04,02,01,00,00,00,
564481160,000000B2,false,Rx,0,8,00,00,00,00,00,00,00,00,
564481166,00000101,false,Rx,0,8,E4,03,80,00,A2,00,00,00,
564481171,00000106,false,Rx,0,8,84,03,63,00,02,00,00,00,
564481176,0000011E,false,Rx,0,8,78,03,00,00,00,00,00,00,
564481182,000003DD,false,Rx,0,8,48,04,10,18,FE,4F,0A,00,
564481187,000001AB,false,Rx,0,8,C9,04,04,02,18,00,04,00,
564482328,000003E5,false,Rx,0,8,6F,22,00,00,00,00,00,00,
564483231,000000AF,false,Rx,0,4,83,74,00,00,00,00,00,00,
564483808,0000012B,false,Rx,0,8,8B,43,40,28,00,00,00,00,
564484982,0000030B,false,Rx,0,8,10,2D,00,00,08,00,00,10,
564485216,000000A7,false,Rx,0,8,B7,E8,9F,7F,FD,F9,A7,3D,
564485452,000000A8,false,Rx,0,8,EC,A8,1D,21,82,64,24,0E,
564485688,00000107,false,Rx,0,8,00,00,F8,2C,01,00,D9,B5,
564485934,00000120,false,Rx,0,8,AF,04,00,02,01,08,FF,01,
564486169,00000121,false,Rx,0,8,B6,04,00,C0,37,5A,7E,FE,
564486402,000000AD,false,Rx,0,8,F7,EA,BF,FF,00,14,00,00,
564486657,00000147,false,Rx,0,8,00,00,00,00,F0,93,60,1D,
564486884,000000AE,false,Rx,0,8,CB,0A,00,00,FF,3C,01,02,
564487416,00000086,false,Rx,0,8,29,08,1E,20,00,00,00,00,
564487926,000000B2,false,Rx,0,8,00,00,00,00,00,00,00,00,
564488195,000000FD,false,Rx,0,8,BB,D3,1F,80,00,00,00,00,
564488455,00000116,false,Rx,0,8,AF,03,01,00,40,00,00,FF,
564488738,000001A2,false,Rx,0,8,6E,01,00,00,00,00,00,00,
564489276,00000365,false,Rx,0,8,AC,06,11,00,8C,0F,84,7A,
564493361,000000AF,false,Rx,0,4,83,75,00,00,00,00,00,00,
564501137,000000A7,false,Rx,0,8,67,E9,9F,7F,FD,F9,A7,3D,
564501142,000000A8,false,Rx,0,8,D6,A9,1D,21,82,64,28,0E,
564501148,000000AD,false,Rx,0,8,42,EB,BF,FF,00,14,00,00,
564501153,000000AE,false,Rx,0,8,69,0B,00,00,FF,3C,01,02,
564501158,00000128,false,Rx,0,3,84,02,D4,00,00,00,00,00,
564501163,0000012D,false,Rx,0,8,0E,8E,7F,00,00,00,FE,3F,
564501169,00000086,false,Rx,0,8,4D,09,1E,20,00,00,00,00,
564501174,000000B2,false,Rx,0,8,00,00,00,00,00,00,00,00,
564501179,00000101,false,Rx,0,8,F7,04,80,00,A2,00,00,00,
564501185,00000106,false,Rx,0,8,05,04,64,00,02,00,00,00,
564501190,00000040,false,Rx,0,8,31,0E,00,44,C1,00,00,00,
564501195,0000011E,false,Rx,0,8,6B,04,00,00,00,00,00,00,
564501201,000003DE,false,Rx,0,8,FE,00,00,00,00,00,00,00,
564501206,000003D8,false,Rx,0,8,00,00,08,00,00,00,00,00,
564501211,1B000076,true,Rx,0,8,76,00,04,01,01,00,00,00,
564502624,000003B5,false,Rx,0,8,87,FE,12,3C,0C,92,20,00,
564503349,000000AF,false,Rx,0,4,83,76,D6,01,00,00,00,00,
564505080,000000A7,false,Rx,0,8,61,EA,9F,7F,FD,F9,A7,3D,
564505316,000000A8,false,Rx,0,8,89,AA,1D,21,82,64,28,0E,
564505550,00000107,false,Rx,0,8,00,00,F8,2C,01,00,E4,B5,
564505771,00000120,false,Rx,0,8,AD,05,00,02,01,08,FF,01,
564506018,00000121,false,Rx,0,8,BC,05,00,80,37,5A,7E,FE,
564506247,00000147,false,Rx,0,8,00,00,00,00,F0,93,60,1D,
564506507,000000AD,false,Rx,0,8,2F,EC,BF,FF,00,14,00,00,
564506747,000000AE,false,Rx,0,8,D1,0C,00,00,FF,3C,01,02,
564507426,00000086,false,Rx,0,8,E1,0A,1E,20,00,00,00,00,
564507837,000000B2,false,Rx,0,8,00,00,00,00,00,00,00,00,
564508111,000000FD,false,Rx,0,8,2D,D4,1F,80,00,00,00,00,
564508365,00000116,false,Rx,0,8,BC,04,01,00,40,00,00,FF,
564513357,000000AF,false,Rx,0,4,83,77,D6,01,00,00,00,00,
564513798,0000012B,false,Rx,0,8,0B,44,40,28,00,00,00,00,
564515084,000000A7,false,Rx,0,8,EF,EB,9F,7F,FD,F9,B7,3D,
564521135,000000A8,false,Rx,0,8,96,BB,1D,21,82,64,20,0E,
564521140,000000AD,false,Rx,0,8,5E,ED,BF,FF,00,14,00,00,
564521146,000000AE,false,Rx,0,8,B2,0D,00,00,FF,3C,01,02,
564521151,00000128,false,Rx,0,3,80,00,00,00,00,00,00,00,
564521156,0000012D,false,Rx,0,8,F9,8F,7F,00,00,00,FE,3F,
564521161,00000086,false,Rx,0,8,85,0B,1E,20,00,00,00,00,
564521167,000000B2,false,Rx,0,8,00,00,00,00,00,00,00,00,
564521172,00000101,false,Rx,0,8,93,05,80,00,A2,00,00,00,
564521177,00000106,false,Rx,0,8,F3,05,63,00,02,00,00,00,
564521183,0000011E,false,Rx,0,8,0F,05,00,00,00,00,00,00,
564521188,0000031E,false,Rx,0,8,EC,F9,3F,00,00,00,00,40,
564521193,0000032C,false,Rx,0,8,00,0F,00,00,98,24,00,00,
564521369,0000032F,false,Rx,0,8,00,FF,00,00,00,00,F8,00,
564523358,000000AF,false,Rx,0,4,83,78,00,00,00,00,00,00,
564523947,00000462,false,Rx,0,8,01,00,38,00,00,01,00,00,
564525098,000000A7,false,Rx,0,8,50,EC,9F,7F,FD,F9,B7,3D,
564525346,000000A8,false,Rx,0,8,6C,BC,3D,21,82,64,18,0E,
564525582,00000107,false,Rx,0,8,00,00,F8,2C,01,00,E4,B5,
564525836,00000120,false,Rx,0,8,42,06,00,02,01,08,FF,01,
564526044,00000121,false,Rx,0,8,BB,06,00,80,37,5A,7E,FE,
564526304,00000147,false,Rx,0,8,00,00,00,00,F0,93,60,1D,
564526537,000000AD,false,Rx,0,8,84,EE,BF,FF,00,14,00,00,
564526780,000000AE,false,Rx,0,8,8A,0E,00,00,FF,3C,01,02,
564527044,00000394,false,Rx,0,8,D9,19,00,1A,00,00,00,00,
564527436,00000086,false,Rx,0,8,96,0C,1E,20,00,00,00,00,
564527801,000000B2,false,Rx,0,8,00,00,00,00,00,00,00,00,
564528083,000000FD,false,Rx,0,8,B7,D5,1F,80,00,00,00,00,
564528316,00000116,false,Rx,0,8,D8,05,01,00,40,00,00,FF,
564533348,000000AF,false,Rx,0,4,83,79,00,00,00,00,00,00,
564534963,0000030B,false,Rx,0,8,10,2E,00,00,08,00,00,10,
564535197,000000A7,false,Rx,0,8,A0,ED,9F,7F,FD,F9,B7,3D,
564541186,000000A8,false,Rx,0,8,3C,BD,1D,21,82,64,0C,0E,
564541192,000000AD,false,Rx,0,8,D5,EF,BF,FF,00,14,00,00,
564541197,000000AE,false,Rx,0,8,68,0F,00,00,FF,3C,01,02,
564541202,00000128,false,Rx,0,3,84,FF,0E,00,00,00,00,00,
564541207,0000012D,false,Rx,0,8,5D,80,7F,00,00,00,FE,3F,
564541213,00000086,false,Rx,0,8,F2,0D,1E,20,00,00,00,00,
564541218,000000B2,false,Rx,0,8,00,00,00,00,00,00,00,00,
564541223,00000101,false,Rx,0,8,CF,06,80,00,A2,03,00,00,
564541229,00000106,false,Rx,0,8,5F,06,63,00,02,00,00,00,
564541234,0000011E,false,Rx,0,8,A3,06,00,00,00,00,00,00,
564541239,00000365,false,Rx,0,8,AC,06,11,00,8C,0F,84,7A,
564543231,000000AF,false,Rx,0,4,83,7A,4C,01,00,00,00,00,
564543807,0000012B,false,Rx,0,8,AE,45,40,28,00,00,00,00,
564545173,000000A7,false,Rx,0,8,2B,EE,9F,7F,FD,F9,B7,3D,
564545407,000000A8,false,Rx,0,8,8B,BE,1D,61,82,64,08,0E,
564545640,00000107,false,Rx,0,8,00,00,F8,2C,01,00,F0,B5,
564545889,00000120,false,Rx,0,8,40,07,00,02,01,08,FF,01,
564546124,00000121,false,Rx,0,8,E8,07,00,80,37,5A,7E,FE,
564546358,00000147,false,Rx,0,8,00,00,00,00,F0,93,60,1D,
564546592,000000AD,false,Rx,0,8,48,E0,BF,FF,00,14,00,00,
564546846,000002C2,false,Rx,0,8,00,00,00,00,00,00,00,00,
564547081,000000AE,false,Rx,0,8,DF,00,00,00,FF,3C,01,02,
564547315,00000391,false,Rx,0,8,11,8A,21,45,00,27,00,22,
564547570,000003BE,false,Rx,0,8,29,03,E6,00,C8,80,00,80,
564547731,000003C0,false,Rx,0,4,0E,07,03,00,00,00,00,00,
564547974,000003C7,false,Rx,0,8,01,10,24,00,00,40,80,00,
564548207,00000086,false,Rx,0,8,5E,0E,1E,20,00,00,00,00,
564548501,17F00076,true,Rx,0,8,20,76,00,00,00,00,00,80,
564548769,000000B2,false,Rx,0,8,00,00,00,00,00,00,00,00,
564548992,00000040,false,Rx,0,8,55,0F,00,44,C1,00,00,00,
564549226,000000FD,false,Rx,0,8,A5,D6,1F,80,00,00,00,00,
564549460,00000640,false,Rx,0,8,E0,92,88,C4,7D,20,0F,14,
564549702,00000116,false,Rx,0,8,74,06,01,00,40,00,00,FF,
564549946,00000647,false,Rx,0,8,B8,FD,FF,7F,00,00,00,13,
564550179,000003D6,false,Rx,0,8,06,00,00,00,00,00,30,00,
564550434,0000065F,false,Rx,0,8,2E,20,00,00,00,00,2C,7F,
564550669,000005AC,false,Rx,0,8,00,00,FF,FE,FE,F7,07,00,
564550923,00000670,false,Rx,0,8,19,10,00,00,00,01,00,88,
564551157,000005F0,false,Rx,0,8,FD,00,64,00,00,64,00,00,
564553349,000000AF,false,Rx,0,4,83,7B,4C,01,00,00,00,00,
564555121,000000A7,false,Rx,0,8,F5,EF,9F,7F,FD,F9,B7,3D,
564562385,000000A8,false,Rx,0,8,4C,BF,1D,61,82,64,04,0E,
564562391,000000AD,false,Rx,0,8,86,E1,BF,FF,00,14,00,00,
564562396,1B000010,true,Rx,0,8,10,00,04,05,11,00,00,00,
564562401,000000AE,false,Rx,0,8,30,01,00,00,FF,3C,01,02,
564562407,00000128,false,Rx,0,3,80,00,00,00,00,00,00,00,
564562412,0000012D,false,Rx,0,8,0A,81,7F,00,00,00,FE,3F,
564562417,00000086,false,Rx,0,8,3A,0F,1E,20,00,00,00,00,
564562422,000000B2,false,Rx,0,8,00,00,00,00,00,00,00,00,
564562428,00000101,false,Rx,0,8,AB,07,80,00,A2,03,00,00,
564562433,00000106,false,Rx,0,8,A9,07,64,00,02,00,00,00,
564562438,0000011E,false,Rx,0,8,C7,07,00,00,00,00,00,00,
564562444,16A95414,true,Rx,0,8,00,30,7E,C3,0F,00,00,00,
564563348,000000AF,false,Rx,0,4,83,7C,00,00,00,00,00,00,
564565121,000000A7,false,Rx,0,8,3C,E0,9F,7F,FD,F9,B7,3D,
564565355,000000A8,false,Rx,0,8,54,B0,1D,61,82,64,0C,0E,
564565589,00000107,false,Rx,0,8,00,00,F8,2C,01,00,FB,B5,
564565845,00000120,false,Rx,0,8,19,08,00,02,01,08,FF,01,
564566053,00000121,false,Rx,0,8,16,08,00,C0,37,5A,7E,FE,
564566313,00000147,false,Rx,0,8,00,00,00,00,F0,93,60,1D,
564566548,000000AD,false,Rx,0,8,62,E2,BF,FF,00,14,00,00,
564566798,000000AE,false,Rx,0,8,31,02,00,00,FF,3C,01,02,
564567034,000000B1,false,Rx,0,8,71,2E,00,00,00,00,00,00,
564567433,00000086,false,Rx,0,8,78,00,1E,20,00,00,00,00,
564567928,000000B2,false,Rx,0,8,00,00,00,00,00,00,00,00,
564568201,000000FD,false,Rx,0,8,9F,D7,1F,80,00,00,00,00,
564568455,00000116,false,Rx,0,8,10,07,01,00,40,00,00,FF,
564568691,00000392,false,Rx,0,8,42,24,00,00,00,00,00,04,
564569235,000003DB,false,Rx,0,8,50,00,01,04,07,24,01,A3,
564570855,0000031E,false,Rx,0,8,D8,FA,3F,00,00,00,00,40,
564571089,0000032C,false,Rx,0,8,00,0F,00,00,98,24,00,00,
564571344,0000032F,false,Rx,0,8,00,FF,00,00,00,00,F8,00,
564573357,000000AF,false,Rx,0,4,83,7D,00,00,00,00,00,00,
564573801,0000012B,false,Rx,0,8,B7,46,40,28,00,00,00,00,
564574042,00000463,false,Rx,0,8,00,E0,03,00,00,00,00,00,
564575105,000000A7,false,Rx,0,8,B4,E1,9F,7F,FD,F9,B7,3D,
564581200,000000A8,false,Rx,0,8,BE,B1,1D,61,82,64,14,0E,
564581205,000000AD,false,Rx,0,8,E3,E3,BF,FF,00,14,00,00,
564581210,000000AE,false,Rx,0,8,14,03,00,00,FF,3C,01,02,
564581216,00000128,false,Rx,0,3,84,13,2D,00,00,00,00,00,
564581221,0000012D,false,Rx,0,8,18,82,7F,00,00,00,FE,3F,
564581226,000003C8,false,Rx,0,8,00,00,54,24,00,60,01,88,
564581231,00000086,false,Rx,0,8,1C,01,1E,20,00,00,00,00,
564581237,17F00077,true,Rx,0,8,20,77,00,00,00,00,00,00,
564581242,000000B2,false,Rx,0,8,00,00,00,00,00,00,00,00,
564581247,00000101,false,Rx,0,8,26,08,80,00,A2,05,00,00,
564581253,00000106,false,Rx,0,8,EB,08,64,00,02,00,00,00,
564581258,0000011E,false,Rx,0,8,85,08,00,00,00,00,00,00,
564581263,000003DD,false,Rx,0,8,48,04,10,18,FE,4F,0A,00,
564582388,000003E5,false,Rx,0,8,3B,23,00,00,00,00,00,00,
564583348,000000AF,false,Rx,0,4,83,7E,3E,01,00,00,00,00,
564584884,1B000015,true,Rx,0,8,15,00,04,02,01,00,00,00,
564585118,0000030B,false,Rx,0,8,10,2F,00,00,08,00,00,10,
564585352,000000A7,false,Rx,0,8,C0,E2,9F,7F,FD,F9,B7,3D,
564585587,000000A8,false,Rx,0,8,1A,B2,1D,61,82,64,18,0E,
564585845,00000107,false,Rx,0,8,00,00,F8,2C,01,00,FB,B5,
564586059,00000120,false,Rx,0,8,4F,09,00,02,01,08,FF,01,
564586293,00000121,false,Rx,0,8,E9,09,00,C0,37,5A,7E,FE,
564586528,000000AD,false,Rx,0,8,41,E4,BF,FF,00,14,00,00,
564586777,00000147,false,Rx,0,8,00,00,00,00,F0,93,60,1D,
564587020,000000AE,false,Rx,0,8,1A,04,00,00,FF,3C,01,02,
564587254,0000065E,false,Rx,0,8,00,00,02,A1,23,00,00,00,
564587509,00000086,false,Rx,0,8,B0,02,1E,20,00,00,00,00,
564587905,000000B2,false,Rx,0,8,00,00,00,00,00,00,00,00,
564588177,000000FD,false,Rx,0,8,58,D8,1F,80,00,00,00,00,
564588452,00000116,false,Rx,0,8,52,08,01,00,40,00,00,FF,
564589239,00000365,false,Rx,0,8,AC,06,11,00,8C,0F,84,7A,
564593361,000000AF,false,Rx,0,4,83,7F,3E,01,00,00,00,00,
564594222,000006B2,false,Rx,0,8,75,D1,9D,A3,29,FD,38,28,
564601215,000000A7,false,Rx,0,8,41,E3,9F,7F,FD,F9,B7,3D,
564601220,000000A8,false,Rx,0,8,F5,B3,1D,61,82,64,18,0E,
564601226,000000AD,false,Rx,0,8,74,E5,BF,FF,00,14,00,00,
564601231,000000AE,false,Rx,0,8,E1,05,00,00,FF,3C,01,02,
564601236,00000128,false,Rx,0,3,80,00,00,00,00,00,00,00,
564601241,0000012D,false,Rx,0,8,89,83,7F,00,00,00,FE,3F,
564601247,00000086,false,Rx,0,8,D4,03,1E,20,00,00,00,00,
564601252,000000B2,false,Rx,0,8,00,00,00,00,00,00,00,00,
564601257,00000101,false,Rx,0,8,42,09,80,00,A2,05,00,00,
564601263,00000106,false,Rx,0,8,1D,09,63,00,02,00,00,00,
564601268,00000040,false,Rx,0,8,17,00,00,44,C1,00,00,00,
564601273,0000011E,false,Rx,0,8,E1,09,00,00,00,00,00,00,
564601279,000003DE,false,Rx,0,8,FE,00,00,00,00,00,00,00,
564601284,000003D8,false,Rx,0,8,00,00,08,00,00,00,00,00,
564601289,00000520,false,Rx,0,8,4B,02,00,08,00,0A,00,0A,
564602646,000003B5,false,Rx,0,8,87,FE,12,3C,0C,92,20,00,
564603232,000000AF,false,Rx,0,4,83,70,00,00,00,00,00,00,
564603504,1B000053,true,Rx,0,8,53,00,04,01,01,00,00,00,
564603856,0000012B,false,Rx,0,8,92,47,40,28,00,00,00,00,
564605131,000000A7,false,Rx,0,8,7B,E4,9F,7F,FD,F9,B7,3D,
564605366,000000A8,false,Rx,0,8,11,B4,1D,61,82,64,14,0E,
564605600,00000107,false,Rx,0,8,00,00,F8,2C,01,00,06,B6,
564605822,00000120,false,Rx,0,8,94,0A,00,02,01,08,FF,01,
564606070,00000121,false,Rx,0,8,B1,0A,00,80,37,5A,7E,FE,
564606304,00000147,false,Rx,0,8,00,00,00,00,F0,93,60,1D,
564606558,000000AD,false,Rx,0,8,6A,E6,BF,FF,00,14,00,00,
564606801,000000AE,false,Rx,0,8,BA,06,00,00,FF,3C,01,02,
564607438,00000086,false,Rx,0,8,C7,04,1E,20,00,00,00,00,
564607819,000000B2,false,Rx,0,8,00,00,00,00,00,00,00,00,
564608103,000000FD,false,Rx,0,8,6A,D9,1F,80,00,00,00,00,
564608331,00000116,false,Rx,0,8,36,09,01,00,40,00,00,FF,
564613348,000000AF,false,Rx,0,4,83,71,00,00,00,00,00,00,
564615159,000000A7,false,Rx,0,8,00,E5,9F,7F,FD,F9,B7,3D,
564621232,000000A8,false,Rx,0,8,43,B5,1D,61,82,64,10,0E,
564621237,000000AD,false,Rx,0,8,35,E7,BF,FF,00,14,00,00,
564621242,000000AE,false,Rx,0,8,28,07,00,00,FF,3C,01,02,
564621248,00000128,false,Rx,0,3,84,13,D2,00,00,00,00,00,
564621253,0000012D,false,Rx,0,8,06,84,7F,00,00,00,FE,3F,
564621258,00000086,false,Rx,0,8,A3,05,1E,20,00,00,00,00,
564621263,000000B2,false,Rx,0,8,00,00,00,00,00,00,00,00,
564621269,00000101,false,Rx,0,8,EE,0A,80,00,A2,05,00,00,
564621274,00000106,false,Rx,0,8,23,0A,64,00,02,00,00,00,
564621279,0000011E,false,Rx,0,8,4D,0A,00,00,00,00,00,00,
564621285,0000031E,false,Rx,0,8,FE,FB,3F,00,00,00,00,40,
564621290,0000032C,false,Rx,0,8,00,0F,00,00,98,24,00,00,
564621367,0000032F,false,Rx,0,8,00,FF,00,00,00,00,F8,00,
564623358,000000AF,false,Rx,0,4,83,72,C1,01,00,00,00,00,
564623966,00000464,false,Rx,0,8,00,00,00,00,00,00,00,00,
564625145,000000A7,false,Rx,0,8,93,E6,9F,7F,FD,F9,B7,3D,
564625379,000000A8,false,Rx,0,8,DB,B6,1D,61,82,64,0C,0E,
564625613,00000107,false,Rx,0,8,00,00,F8,2C,01,00,06,B6,
564625859,00000120,false,Rx,0,8,38,0B,00,02,01,08,FF,01,
564626093,00000121,false,Rx,0,8,1A,0B,00,80,37,5A,7E,FE,
564626327,00000147,false,Rx,0,8,00,00,00,00,F0,93,60,1D,
564626561,000000AD,false,Rx,0,8,A2,E8,BF,FF,00,14,00,00,
564626802,000000AE,false,Rx,0,8,5F,08,00,00,FF,3C,01,02,
564627425,00000086,false,Rx,0,8,0F,06,1E,20,00,00,00,00,
564627817,000000B2,false,Rx,0,8,00,00,00,00,00,00,00,00,
564628074,000000FD,false,Rx,0,8,26,DA,1F,80,00,00,00,00,
564628334,00000116,false,Rx,0,8,9A,0A,01,00,40,00,00,FF,
564633348,000000AF,false,Rx,0,4,83,73,C1,01,00,00,00,00,
564633808,0000012B,false,Rx,0,8,47,48,40,28,00,00,00,00,
564634974,0000030B,false,Rx,0,8,10,20,00,00,08,00,00,10,
564635183,000000A7,false,Rx,0,8,1A,E7,9F,7F,FD,F9,B7,3D,
564641237,000000A8,false,Rx,0,8,F6,B7,1D,61,82,64,08,0E,
564641242,000000AD,false,Rx,0,8,A6,E9,BF,FF,00,14,00,00,
564641247,000000AE,false,Rx,0,8,B7,09,00,00,FF,3C,01,02,
564641253,00000128,false,Rx,0,3,80,00,00,00,00,00,00,00,
564641258,0000012D,false,Rx,0,8,79,85,7F,00,00,00,FE,3F,
564641263,00000086,false,Rx,0,8,6B,07,1E,20,00,00,00,00,
564641268,000000B2,false,Rx,0,8,00,00,00,00,00,00,00,00,
564641274,00000101,false,Rx,0,8,8A,0B,80,00,A2,05,00,00,
564641279,00000106,false,Rx,0,8,D5,0B,63,00,02,00,00,00,
564641284,0000011E,false,Rx,0,8,29,0B,00,00,00,00,00,00,
564641290,00000365,false,Rx,0,8,AC,06,11,00,8C,0F,84,7A,
564643358,000000AF,false,Rx,0,4,83,74,00,00,00,00,00,00,
564644242,00000569,false,Rx,0,8,00,00,00,3E,F8,10,00,00,
564645276,000000A7,false,Rx,0,8,57,E8,9F,7F,FD,F9,B7,3D,
564645516,000000A8,false,Rx,0,8,9C,B8,1D,61,82,64,04,0E,
564645761,00000107,false,Rx,0,8,00,00,F8,2C,01,00,12,B6,
564646004,00000120,false,Rx,0,8,E2,0C,00,02,01,08,FF,01,
564646238,00000121,false,Rx,0,8,DF,0C,00,80,37,5A,7E,FE,
564646492,000000AD,false,Rx,0,8,F7,EA,BF,FF,00,14,00,00,
564646739,00000147,false,Rx,0,8,00,00,00,00,F0,93,60,1D,
564646962,000000AE,false,Rx,0,8,CB,0A,00,00,FF,3C,01,02,
564647196,00000391,false,Rx,0,8,11,8A,21,46,00,27,00,22,
564647430,000003BE,false,Rx,0,8,DE,04,E6,00,C8,80,00,80,
564647606,000003C0,false,Rx,0,4,4F,08,03,00,00,00,00,00,
564647854,000003C7,false,Rx,0,8,70,10,24,00,00,40,80,00,
564648088,00000086,false,Rx,0,8,29,08,1E,20,00,00,00,00,
564648342,000000B2,false,Rx,0,8,00,00,00,00,00,00,00,00,
564648575,000000FD,false,Rx,0,8,09,DB,1F,80,00,00,00,00,
564648848,000003D6,false,Rx,0,8,07,00,00,00,00,00,30,00,
564649083,00000040,false,Rx,0,8,73,01,00,44,C1,00,00,00,
564649318,00000116,false,Rx,0,8,FE,0B,01,00,40,00,00,FF,
564649572,000005AC,false,Rx,0,8,00,00,FF,FE,FE,F7,07,00,
564653360,000000AF,false,Rx,0,4,83,75,00,00,00,00,00,00,
564655125,000000A7,false,Rx,0,8,0D,E9,9F,7F,FD,FD,B7,3D,
564661244,000000A8,false,Rx,0,8,A6,B9,1D,61,82,64,08,0E,
564661249,000000AD,false,Rx,0,8,42,EB,BF,FF,00,14,00,00,
564661254,000000AE,false,Rx,0,8,69,0B,00,00,FF,3C,01,02,
564661260,00000128,false,Rx,0,3,84,FF,0F,00,00,00,00,00,
564661265,0000012D,false,Rx,0,8,C9,86,7F,00,00,00,FE,3F,
564661270,00000086,false,Rx,0,8,4D,09,1E,20,00,00,00,00,
564661275,000000B2,false,Rx,0,8,00,00,00,00,00,00,00,00,
564661281,00000101,false,Rx,0,8,E3,0C,80,00,A2,02,00,00,
564661286,00000106,false,Rx,0,8,C6,0C,63,00,02,00,00,00,
564661291,0000011E,false,Rx,0,8,3A,0C,00,00,00,00,00,00,
564661297,16A95414,true,Rx,0,8,00,30,7E,C3,0F,00,00,00,
564661302,16A95415,true,Rx,0,8,00,00,00,00,14,00,98,00,
564663210,000000AF,false,Rx,0,4,83,76,34,01,00,00,00,00,
564663808,0000012B,false,Rx,0,8,4F,49,40,28,00,00,00,00,
564665122,000000A7,false,Rx,0,8,0B,EA,9F,7F,FD,FD,B7,3D,
564665356,000000A8,false,Rx,0,8,B1,BA,1D,61,82,64,04,0E,
564665591,00000107,false,Rx,0,8,00,00,F8,2C,01,00,1D,B6,
564665820,00000120,false,Rx,0,8,52,0D,00,02,01,08,FF,01,
564666063,00000121,false,Rx,0,8,F1,0D,00,C0,37,5A,7E,FE,
564666297,00000147,false,Rx,0,8,00,00,00,00,F0,93,60,1D,
564666526,000000AD,false,Rx,0,8,2F,EC,BF,FF,00,14,00,00,
564666780,000000AE,false,Rx,0,8,D1,0C,00,00,FF,3C,01,02,
564667018,000000B1,false,Rx,0,8,4D,2F,00,00,00,00,00,00,
564667415,00000086,false,Rx,0,8,E1,0A,1E,20,00,00,00,00,
564667906,000000B2,false,Rx,0,8,00,00,00,00,00,00,00,00,
564668201,000000FD,false,Rx,0,8,90,DC,1F,80,00,00,00,00,
564668434,00000116,false,Rx,0,8,ED,0C,01,00,40,00,00,FF,
564668691,00000392,false,Rx,0,8,26,25,00,00,00,00,00,04,
564669235,000003DB,false,Rx,0,8,50,00,01,04,07,24,01,A3,
564670184,000006B4,false,Rx,0,8,00,91,97,71,29,33,56,57,
564670860,0000031E,false,Rx,0,8,5D,FC,3F,00,00,00,00,40,
564671115,0000032C,false,Rx,0,8,00,0F,00,00,98,24,00,00,
564671348,0000032F,false,Rx,0,8,00,FF,00,00,00,00,F8,00,
564673331,000000AF,false,Rx,0,4,83,77,34,01,00,00,00,00,
564673927,00000462,false,Rx,0,8,01,00,38,00,00,01,00,00,
564674200,00000465,false,Rx,0,8,00,00,00,00,00,00,00,80,
564675213,000000A7,false,Rx,0,8,7C,EB,DF,7F,FD,FD,B7,3D,
564682465,000000A8,false,Rx,0,8,44,BB,1D,61,82,64,00,0E,
564682470,000000AD,false,Rx,0,8,5E,ED,BF,FF,00,14,00,00,
564682476,000000AE,false,Rx,0,8,B2,0D,00,00,FF,3C,01,02,
564682481,00000128,false,Rx,0,3,80,00,00,00,00,00,00,00,
564682486,0000012D,false,Rx,0,8,98,87,7F,00,00,00,FE,3F,
564682491,000003C8,false,Rx,0,8,00,00,54,24,00,60,01,88,
564682497,00000086,false,Rx,0,8,85,0B,1E,20,00,00,00,00,
564682502,1B000077,true,Rx,0,8,77,00,04,02,01,00,00,00,
564682507,000000B2,false,Rx,0,8,00,00,00,00,00,00,00,00,
564682513,00000101,false,Rx,0,8,33,0D,80,00,A2,00,40,00,
564682518,00000106,false,Rx,0,8,30,0D,64,00,02,00,00,00,
564682523,0000011E,false,Rx,0,8,5E,0D,00,00,00,00,00,00,
564682529,000003DD,false,Rx,0,8,48,04,10,18,FE,4F,0A,00,
564682534,000001AB,false,Rx,0,8,22,05,04,02,18,00,04,00,
564682539,000003E5,false,Rx,0,8,6A,24,00,00,00,00,00,00,
564683345,000000AF,false,Rx,0,4,83,78,00,00,00,00,00,00,
564684981,0000030B,false,Rx,0,8,10,21,00,00,08,00,00,10,
564685216,000000A7,false,Rx,0,8,C3,EC,DF,7F,FD,FD,B7,3D,
564685450,000000A8,false,Rx,0,8,62,BC,1D,61,82,64,04,0E,
564685687,00000107,false,Rx,0,8,00,00,F8,2C,01,00,1D,B6,
564685935,00000120,false,Rx,0,8,39,0E,00,02,01,08,FF,01,
564686170,00000121,false,Rx,0,8,62,0E,00,C0,37,5A,7E,FE,
564686403,000000AD,false,Rx,0,8,84,EE,BF,FF,00,14,00,00,
564686658,00000147,false,Rx,0,8,00,00,00,00,F0,93,60,1D,
564686889,000000AE,false,Rx,0,8,8A,0E,00,00,FF,3C,01,02,
564687144,00000394,false,Rx,0,8,13,1A,00,1A,00,00,00,00,
564687457,00000086,false,Rx,0,8,96,0C,1E,20,00,00,00,00,
564687947,000000B2,false,Rx,0,8,00,00,00,00,00,00,00,00,
564688241,000000FD,false,Rx,0,8,19,DD,1F,80,00,00,00,00,
564688474,00000116,false,Rx,0,8,89,0D,01,00,40,00,00,FF,
564688733,000001A2,false,Rx,0,8,8F,02,00,00,00,00,00,00,
564689254,00000365,false,Rx,0,8,AC,06,11,00,8D,0F,84,7A,
564693358,000000AF,false,Rx,0,4,83,79,00,00,00,00,00,00,
564693799,0000012B,false,Rx,0,8,5F,4A,40,28,00,00,00,00,
564701260,000000A7,false,Rx,0,8,33,ED,DF,7F,FD,FD,B7,3D,
564701265,000000A8,false,Rx,0,8,A9,BD,1D,61,82,64,10,0E,
564701270,000000AD,false,Rx,0,8,D5,EF,BF,FF,00,14,00,00,
564701276,000000AE,false,Rx,0,8,68,0F,00,00,FF,3C,01,02,
564701281,00000128,false,Rx,0,3,84,1B,2D,00,00,00,00,00,
564701286,0000012D,false,Rx,0,8,57,88,7F,00,00,00,FE,3F,
564701291,00000086,false,Rx,0,8,F2,0D,1E,20,00,00,00,00,
564701297,000000B2,false,Rx,0,8,00,00,00,00,00,00,00,00,
564701302,00000101,false,Rx,0,8,9E,0E,80,00,A2,03,00,00,
564701307,00000106,false,Rx,0,8,0E,0E,63,00,02,00,00,00,
564701313,00000040,false,Rx,0,8,DF,02,00,44,C1,00,00,00,
564701318,0000011E,false,Rx,0,8,F2,0E,00,00,00,00,00,00,
564701323,000003DE,false,Rx,0,8,FE,00,00,00,00,00,00,00,
564701329,000003D8,false,Rx,0,8,00,00,08,00,00,00,00,00,
564701334,1B000076,true,Rx,0,8,76,00,04,01,01,00,00,00,
564702613,000003B5,false,Rx,0,8,87,FE,12,3C,0C,92,20,00,
564703340,000000AF,false,Rx,0,4,83,7A,36,01,00,00,00,00,
564705112,000000A7,false,Rx,0,8,32,EE,DF,7F,FD,F9,B7,3D,
564705345,000000A8,false,Rx,0,8,23,BE,1D,61,82,64,14,0E,
564705574,00000107,false,Rx,0,8,00,00,F8,2C,01,00,28,B6,
564705836,00000120,false,Rx,0,8,EC,0F,00,02,01,08,FF,01,
564706050,00000121,false,Rx,0,8,E9,0F,00,80,37,5A,7E,FE,
564706305,00000147,false,Rx,0,8,00,00,00,00,F0,93,60,1D,
564706540,000000AD,false,Rx,0,8,48,E0,BF,FF,00,14,00,00,
564706789,000000AE,false,Rx,0,8,DF,00,00,00,FF,3C,01,02,
564707401,00000086,false,Rx,0,8,5E,0E,1E,20,00,00,00,00,
564707809,000000B2,false,Rx,0,8,00,00,00,00,00,00,00,00,
564708070,000000FD,false,Rx,0,8,E6,DE,1F,80,00,00,00,00,
564708345,00000116,false,Rx,0,8,25,0E,01,00,40,00,00,FF,
564713332,000000AF,false,Rx,0,4,83,7B,36,01,00,00,00,00,
564715145,000000A7,false,Rx,0,8,EC,EF,DF,7F,FD,F9,B7,3D,
564721272,000000A8,false,Rx,0,8,3C,BF,1D,61,82,64,0C,0E,
564721277,000000AD,false,Rx,0,8,86,E1,BF,FF,00,14,00,00,
564721283,000000AE,false,Rx,0,8,30,01,00,00,FF,3C,01,02,
564721288,00000128,false,Rx,0,3,80,00,00,00,00,00,00,00,
564721293,0000012D,false,Rx,0,8,F2,89,7F,00,00,00,FE,3F,
564721298,00000086,false,Rx,0,8,3A,0F,1E,20,00,00,00,00,
564721304,000000B2,false,Rx,0,8,00,00,00,00,00,00,00,00,
564721309,00000101,false,Rx,0,8,80,0F,80,00,A2,04,00,00,
564721314,00000106,false,Rx,0,8,6A,0F,63,00,02,00,00,00,
564721320,0000011E,false,Rx,0,8,96,0F,00,00,00,00,00,00,
564721325,0000031E,false,Rx,0,8,F4,FD,3F,00,00,00,00,40,
564721330,0000032C,false,Rx,0,8,00,0F,00,00,98,24,00,00,
564721425,0000032F,false,Rx,0,8,00,FF,00,00,00,00,F8,00,
564723219,000000AF,false,Rx,0,4,83,7C,00,00,00,00,00,00,
564723800,0000012B,false,Rx,0,8,FA,4B,40,28,00,00,00,00,
564724063,00000463,false,Rx,0,8,00,E0,03,00,00,00,00,00,
564725164,000000A7,false,Rx,0,8,3C,E0,9F,7F,FD,F9,B7,3D,
564725399,000000A8,false,Rx,0,8,1C,B0,1D,61,82,64,00,0E,
564725632,00000107,false,Rx,0,8,00,00,F8,2C,01,00,28,B6,
564725887,00000120,false,Rx,0,8,26,00,00,02,01,08,FF,01,
564726096,00000121,false,Rx,0,8,27,00,00,80,37,5A,7E,FE,
564726356,00000147,false,Rx,0,8,00,00,00,00,F0,93,60,1D,
564726591,000000AD,false,Rx,0,8,62,E2,BF,FF,00,14,00,00,
564726849,000000AE,false,Rx,0,8,31,02,00,00,FF,3C,01,02,
564727439,00000086,false,Rx,0,8,78,00,1E,20,00,00,00,00,
564727779,000000B2,false,Rx,0,8,00,00,00,00,00,00,00,00,
564728061,000000FD,false,Rx,0,8,71,DF,1F,80,00,00,00,00,
564728316,00000116,false,Rx,0,8,41,0F,01,00,40,00,00,FF,
564733348,000000AF,false,Rx,0,4,83,7D,00,00,00,00,00,00,
564735022,0000030B,false,Rx,0,8,10,22,00,00,08,00,00,10,
564735256,000000A7,false,Rx,0,8,3E,E1,9F,7F,FD,FD,B7,3D,
564741285,000000A8,false,Rx,0,8,41,B1,1D,61,82,64,F0,0D,
564741291,000000AD,false,Rx,0,8,E3,E3,BF,FF,00,14,00,00,
564741296,000000AE,false,Rx,0,8,14,03,00,00,FF,3C,01,02,
564741301,00000128,false,Rx,0,3,84,1B,D2,00,00,00,00,00,
564741306,0000012D,false,Rx,0,8,7B,8A,7F,00,00,00,FE,3F,
564741312,00000086,false,Rx,0,8,1C,01,1E,20,00,00,00,00,
564741317,000000B2,false,Rx,0,8,00,00,00,00,00,00,00,00,
564741322,00000101,false,Rx,0,8,77,00,80,00,A2,05,00,00,
564741328,00000106,false,Rx,0,8,28,00,63,00,02,00,00,00,
564741333,0000011E,false,Rx,0,8,D4,00,00,00,00,00,00,00,
564741338,00000365,false,Rx,0,8,AC,06,11,00,8C,0F,84,7A,
564743349,000000AF,false,Rx,0,4,83,7E,C9,01,00,00,00,00,
564744251,00000570,false,Rx,0,8,FF,00,00,00,00,00,00,00,
564745133,000000A7,false,Rx,0,8,53,E2,DF,7F,FD,FD,B7,3D,
564745368,000000A8,false,Rx,0,8,AD,B2,1D,61,82,64,F0,0D,
564745601,00000107,false,Rx,0,8,00,00,F8,2C,01,00,34,B6,
564745856,00000120,false,Rx,0,8,D3,01,00,02,01,08,FF,01,
564746070,00000121,false,Rx,0,8,4B,01,00,80,37,5A,7E,FE,
564746325,00000147,false,Rx,0,8,00,00,00,00,F0,93,60,1D,
564746560,000000AD,false,Rx,0,8,41,E4,BF,FF,00,14,00,00,
564746788,00000391,false,Rx,0,8,11,89,20,46,00,27,00,22,
564747032,000000AE,false,Rx,0,8,1A,04,00,00,FF,3C,01,02,
564747265,000003BE,false,Rx,0,8,A1,05,E6,00,C8,80,00,80,
564747442,000003C0,false,Rx,0,4,FA,09,03,00,00,00,00,00,
564747676,000003C7,false,Rx,0,8,01,10,24,00,00,40,80,00,
564747927,00000086,false,Rx,0,8,B0,02,1E,20,00,00,00,00,
564748182,000000B2,false,Rx,0,8,00,00,00,00,00,00,00,00,
564748436,000000FD,false,Rx,0,8,0B,D0,1F,80,00,00,00,00,
564748694,000003D6,false,Rx,0,8,08,00,00,00,00,00,30,00,
564748937,00000040,false,Rx,0,8,BB,03,00,44,C1,00,00,00,
564749170,00000116,false,Rx,0,8,03,00,01,00,40,00,00,FF,
564749425,000005AC,false,Rx,0,8,00,00,FF,FE,FE,F7,07,00,
564750526,000005F0,false,Rx,0,8,FD,00,64,00,00,64,00,00,
564753340,000000AF,false,Rx,0,4,83,7F,C9,01,00,00,00,00,
564753800,0000012B,false,Rx,0,8,BF,4C,40,28,00,00,00,00,
564755132,000000A7,false,Rx,0,8,D2,E3,DF,7F,FD,FD,B7,3D,
564755340,000000A8,false,Rx,0,8,7A,B3,1D,61,82,64,F4,0D,
564761342,000000AD,false,Rx,0,8,74,E5,BF,FF,00,14,00,00,
564761347,1B000010,true,Rx,0,8,10,00,04,05,11,00,00,00,
564761353,000000AE,false,Rx,0,8,E1,05,00,00,FF,3C,01,02,
564761358,00000128,false,Rx,0,3,80,00,00,00,00,00,00,00,
564761363,0000012D,false,Rx,0,8,60,8B,7F,00,00,00,FE,3F,
564761368,00000086,false,Rx,0,8,D4,03,1E,20,00,00,00,00,
564761374,000000B2,false,Rx,0,8,00,00,00,00,00,00,00,00,
564761379,00000101,false,Rx,0,8,99,01,80,00,A2,01,00,00,
564761384,00000106,false,Rx,0,8,4C,01,63,00,02,00,00,00,
564761390,0000011E,false,Rx,0,8,B0,01,00,00,00,00,00,00,
564761395,16A95414,true,Rx,0,8,00,30,7E,C3,0F,00,00,00,
564763348,000000AF,false,Rx,0,4,83,70,00,00,00,00,00,00,
564765160,000000A7,false,Rx,0,8,E8,E4,DF,7F,FD,FD,B7,3D,
564765394,000000A8,false,Rx,0,8,A6,B4,1D,61,82,64,FC,0D,
564765628,00000107,false,Rx,0,8,00,00,F8,2C,01,00,3F,B6,
564765883,00000120,false,Rx,0,8,2B,02,00,02,01,08,FF,01,
564766091,00000121,false,Rx,0,8,F9,02,00,C0,37,5A,7E,FE,
564766352,00000147,false,Rx,0,8,00,00,00,00,F0,97,60,1D,
564766586,000000AD,false,Rx,0,8,6A,E6,BF,FF,00,14,00,00,
564766835,000000AE,false,Rx,0,8,BA,06,00,00,FF,3C,01,02,
564767091,000000B1,false,Rx,0,8,13,20,00,00,00,00,00,00,
564767417,00000086,false,Rx,0,8,C7,04,1E,20,00,00,00,00,
564767914,000000B2,false,Rx,0,8,00,00,00,00,00,00,00,00,
564768209,000000FD,false,Rx,0,8,01,D1,1F,80,00,00,00,00,
564768462,00000116,false,Rx,0,8,67,01,01,00,40,00,00,FF,
564768702,00000392,false,Rx,0,8,8A,26,00,00,00,00,00,04,
564769242,000003DB,false,Rx,0,8,50,00,01,04,07,24,01,A3,
564770889,0000031E,false,Rx,0,8,81,FE,3F,00,00,00,00,40,
564771148,0000032C,false,Rx,0,8,00,0F,00,00,98,24,00,00,
564771404,0000032F,false,Rx,0,8,00,FF,00,00,00,00,F8,00,
564773357,000000AF,false,Rx,0,4,83,71,00,00,00,00,00,00,
564773926,00000464,false,Rx,0,8,00,00,00,00,00,00,00,00,
564775138,000000A7,false,Rx,0,8,93,E5,DF,7F,FD,FD,B7,3D,
564775377,000000A8,false,Rx,0,8,9B,B5,1D,61,82,64,04,0E,
564781372,000000AD,false,Rx,0,8,35,E7,BF,FF,00,14,00,00,
564781377,000000AE,false,Rx,0,8,28,07,00,00,FF,3C,01,02,
564781382,00000128,false,Rx,0,3,84,FF,10,00,00,00,00,00,
564781387,0000012D,false,Rx,0,8,52,8C,7F,00,00,00,FE,3F,
564781393,000003C8,false,Rx,0,8,00,00,54,24,00,60,01,88,
564781398,00000086,false,Rx,0,8,A3,05,1E,20,00,00,00,00,
564781403,000000B2,false,Rx,0,8,00,00,00,00,00,00,00,00,
564781409,00000101,false,Rx,0,8,35,02,80,00,A2,01,00,00,
564781414,00000106,false,Rx,0,8,E0,02,63,00,02,00,00,00,
564781419,0000011E,false,Rx,0,8,1C,02,00,00,00,00,00,00,
564781425,000003DD,false,Rx,0,8,48,04,10,18,FE,4F,0A,00,
564782481,000003E5,false,Rx,0,8,2B,25,00,00,00,00,00,00,
564783231,000000AF,false,Rx,0,4,83,72,00,01,00,00,00,00,
564783809,0000012B,false,Rx,0,8,EB,4D,40,28,00,00,00,00,
564784845,1B000015,true,Rx,0,8,15,00,04,02,01,00,00,00,
564785079,0000030B,false,Rx,0,8,10,23,00,00,08,00,00,10,
564785314,000000A7,false,Rx,0,8,00,E6,DF,7F,FD,FD,B7,3D,
564785548,000000A8,false,Rx,0,8,E3,B6,1D,61,82,64,08,0E,
564785772,00000107,false,Rx,0,8,00,00,F8,2C,01,00,3F,B6,
564786019,00000120,false,Rx,0,8,F9,03,00,02,01,08,FF,01,
564786254,00000121,false,Rx,0,8,0B,03,00,C0,37,5A,7E,FE,
564786483,000000AD,false,Rx,0,8,A2,E8,BF,FF,00,14,00,00,
564786754,00000147,false,Rx,0,8,00,00,00,00,F0,97,60,1D,
564786976,000000AE,false,Rx,0,8,5F,08,00,00,FF,3C,01,02,
564787172,17331F10,true,Rx,0,3,37,CF,00,00,00,00,00,00,
564787425,00000086,false,Rx,0,8,0F,06,1E,20,00,00,00,00,
564787915,000000B2,false,Rx,0,8,00,00,00,00,00,00,00,00,
564788182,000000FD,false,Rx,0,8,CE,D2,1F,80,00,00,00,00,
564788442,00000116,false,Rx,0,8,CB,02,01,00,40,00,00,FF,
564789230,00000365,false,Rx,0,8,AC,06,11,00,8C,0F,84,7A,
564793349,000000AF,false,Rx,0,4,83,73,00,01,00,00,00,00,
564795140,000000A7,false,Rx,0,8,89,E7,DF,7F,FD,FD,B7,3D,
564795375,000000A8,false,Rx,0,8,CE,B7,1D,61,82,64,0C,0E,
564801387,00000641,false,Rx,0,8,37,1E,42,13,14,12,7D,14,
564801392,00000676,false,Rx,0,8,00,00,00,80,00,C0,20,01,
564801397,000000AD,false,Rx,0,8,A6,E9,BF,FF,00,14,00,00,
564801403,000000AE,false,Rx,0,8,B7,09,00,00,FF,3C,01,02,
564801408,00000128,false,Rx,0,3,80,00,00,00,00,00,00,00,
564801413,0000012D,false,Rx,0,8,3E,8D,7F,00,00,00,FE,3F,
564801418,00000086,false,Rx,0,8,6B,07,1E,20,00,00,00,00,
564801424,000000B2,false,Rx,0,8,00,00,00,00,00,00,00,00,
564801429,00000101,false,Rx,0,8,15,03,80,00,A2,00,40,00,
564801434,00000106,false,Rx,0,8,84,03,63,00,02,00,00,00,
564801440,00000040,false,Rx,0,8,A8,04,00,44,C1,00,00,00,
564801445,0000011E,false,Rx,0,8,78,03,00,00,00,00,00,00,
564801450,000003DE,false,Rx,0,8,FE,00,00,00,00,00,00,00,
564801456,00000041,false,Rx,0,8,F4,0D,00,00,00,00,00,00,
564801461,000003D8,false,Rx,0,8,00,00,08,00,00,00,00,00,
564801807,00000520,false,Rx,0,8,2F,03,00,08,00,0A,00,0A,
564802643,17F00015,true,Rx,0,8,00,15,00,00,00,00,00,80,
564802863,000003B5,false,Rx,0,8,87,FE,12,3E,0C,92,20,00,
564803334,000000AF,false,Rx,0,4,83,74,00,00,00,00,00,00,
564803633,1B000053,true,Rx,0,8,53,00,04,01,01,00,00,00,
564805086,000000A7,false,Rx,0,8,C4,E8,DF,7F,FD,FD,B7,3D,
564805321,000000A8,false,Rx,0,8,EC,B8,1D,61,82,64,0C,0E,
564805581,00000107,false,Rx,0,8,00,00,F8,2C,01,00,4A,B6,
564805807,00000120,false,Rx,0,8,AF,04,00,02,01,08,FF,01,
564806051,00000121,false,Rx,0,8,8B,04,00,80,37,5A,7E,FE,
564806284,00000147,false,Rx,0,8,00,00,00,00,F0,97,60,1D,
564806539,000000AD,false,Rx,0,8,F7,EA,BF,FF,00,14,00,00,
564806785,000000AE,false,Rx,0,8,CB,0A,00,00,FF,3C,01,02,
564807422,00000086,false,Rx,0,8,29,08,1E,20,00,00,00,00,
564807874,000000B2,false,Rx,0,8,00,00,00,00,00,00,00,00,
564808149,000000FD,false,Rx,0,8,BB,D3,1F,80,00,00,00,00,
564808402,00000116,false,Rx,0,8,AF,03,01,00,40,00,00,FF,
564813357,000000AF,false,Rx,0,4,83,75,00,00,00,00,00,00,
564813780,0000012B,false,Rx,0,8,A4,4E,40,28,00,00,00,00,
564815105,000000A7,false,Rx,0,8,14,E9,DF,7F,FD,FD,B7,3D,
564815313,000000A8,false,Rx,0,8,A6,B9,1D,61,82,64,08,0E,
564821435,000000AD,false,Rx,0,8,42,EB,BF,FF,00,14,00,00,
564821441,000000AE,false,Rx,0,8,69,0B,00,00,FF,3C,01,02,
564821446,00000128,false,Rx,0,3,84,13,2C,00,00,00,00,00,
564821451,0000012D,false,Rx,0,8,0E,8E,7F,00,00,00,FE,3F,
564821456,00000086,false,Rx,0,8,4D,09,1E,20,00,00,00,00,
564821462,000000B2,false,Rx,0,8,00,00,00,00,00,00,00,00,
564821467,00000101,false,Rx,0,8,07,04,80,00,A2,03,00,00,
564821472,00000106,false,Rx,0,8,97,04,63,00,02,00,00,00,
564821478,0000011E,false,Rx,0,8,6B,04,00,00,00,00,00,00,
564821483,0000031E,false,Rx,0,8,68,FF,3F,00,00,00,00,40,
564821488,0000032C,false,Rx,0,8,00,0F,00,00,98,24,00,00,
564821494,0000032F,false,Rx,0,8,00,FF,00,00,00,00,F8,00,
564823349,000000AF,false,Rx,0,4,83,76,3F,01,00,00,00,00,
564823887,00000462,false,Rx,0,8,82,80,93,5A,C1,81,B4,00,
564825111,000000A7,false,Rx,0,8,0B,EA,9F,7F,FD,FD,B7,3D,
564825346,000000A8,false,Rx,0,8,DE,BA,1D,61,82,64,F8,0D,
564825581,00000107,false,Rx,0,8,00,00,F8,2C,01,00,4A,B6,
564825836,00000120,false,Rx,0,8,AD,05,00,02,01,08,FF,01,
564826049,00000121,false,Rx,0,8,BC,05,00,80,37,5A,7E,FE,
564826304,00000147,false,Rx,0,8,00,00,00,00,F0,97,60,1D,
564826538,000000AD,false,Rx,0,8,2F,EC,BF,FF,00,14,00,00,
564826785,000000AE,false,Rx,0,8,D1,0C,00,00,FF,3C,01,02,
564827397,00000086,false,Rx,0,8,E1,0A,1E,20,00,00,00,00,
564827836,000000B2,false,Rx,0,8,00,00,00,00,00,00,00,00,
564828110,000000FD,false,Rx,0,8,2D,D4,1F,80,00,00,00,00,
564828344,00000116,false,Rx,0,8,BC,04,01,00,40,00,00,FF,
564833356,000000AF,false,Rx,0,4,83,77,3F,01,00,00,00,00,
564834974,0000030B,false,Rx,0,8,10,24,00,00,08,00,00,10,
564835183,000000A7,false,Rx,0,8,65,EB,9F,7F,FD,FD,B7,3D,
564835422,000000A8,false,Rx,0,8,CB,BB,1D,61,82,64,EC,0D,
564840250,000000AD,false,Rx,0,8,5E,ED,BF,FF,00,14,00,00,
564840255,000000AE,false,Rx,0,8,B2,0D,00,00,FF,3C,01,02,
564840261,00000128,false,Rx,0,3,80,00,00,00,00,00,00,00,
564840266,0000012D,false,Rx,0,8,F9,8F,7F,00,00,00,FE,3F,
564840271,00000086,false,Rx,0,8,85,0B,1E,20,00,00,00,00,
564840276,000000B2,false,Rx,0,8,00,00,00,00,00,00,00,00,
564840282,00000101,false,Rx,0,8,63,05,80,00,A2,03,00,00,
564840287,00000106,false,Rx,0,8,61,05,64,00,02,00,00,00,
564840292,0000011E,false,Rx,0,8,0F,05,00,00,00,00,00,00,
564840298,00000365,false,Rx,0,8,AC,06,11,00,8C,0F,84,7A,
564843218,000000AF,false,Rx,0,4,83,78,00,00,00,00,00,00,
564843780,0000012B,false,Rx,0,8,8E,4F,40,28,00,00,00,00,
564845079,000000A7,false,Rx,0,8,C3,EC,DF,7F,FD,FD,B7,3D,
564845319,000000A8,false,Rx,0,8,98,BC,1D,21,82,64,E4,0D,
564845574,00000107,false,Rx,0,8,00,00,F8,2C,01,00,55,B6,
564845800,00000120,false,Rx,0,8,42,06,00,02,01,08,FF,01,
564846044,00000121,false,Rx,0,8,86,06,00,C0,37,5A,7E,FE,
564846277,00000147,false,Rx,0,8,00,00,00,00,F0,97,60,1D,
564846506,000000AD,false,Rx,0,8,84,EE,BF,FF,00,14,00,00,
564846761,00000391,false,Rx,0,8,11,8A,21,45,00,27,00,22,
564846983,000000AE,false,Rx,0,8,8A,0E,00,00,FF,3C,01,02,
564847238,000003BE,false,Rx,0,8,BC,06,E6,00,C8,80,00,80,
564847471,00000394,false,Rx,0,8,79,1B,00,1A,00,00,00,00,
564847647,000003C0,false,Rx,0,4,0A,0A,03,00,00,00,00,00,
564847876,000003C7,false,Rx,0,8,70,10,24,00,00,40,80,00,
564848131,00000086,false,Rx,0,8,96,0C,1E,20,00,00,00,00,
564848455,000000B2,false,Rx,0,8,00,00,00,00,00,00,00,00,
564848650,000000FD,false,Rx,0,8,B7,D5,1F,80,00,00,00,00,
564848880,00000040,false,Rx,0,8,CC,05,00,44,C1,00,00,00,
564849135,00000116,false,Rx,0,8,D8,05,01,00,40,00,00,FF,
564849363,000003D6,false,Rx,0,8,09,00,00,00,00,00,30,00,
564849622,000005AC,false,Rx,0,8,00,00,FF,FE,FE,F7,07,00,
564853349,000000AF,false,Rx,0,4,83,79,00,00,00,00,00,00,
564855121,000000A7,false,Rx,0,8,74,ED,DF,7F,FD,01,B8,3D,
564855356,000000A8,false,Rx,0,8,8B,BD,1D,21,82,64,E4,0D,
564861453,000000AD,false,Rx,0,8,D5,EF,BF,FF,00,14,00,00,
564861458,000000AE,false,Rx,0,8,68,0F,00,00,FF,3C,01,02,
564861464,00000128,false,Rx,0,3,84,13,D3,00,00,00,00,00,
564861469,0000012D,false,Rx,0,8,5D,80,7F,00,00,00,FE,3F,
564861474,00000086,false,Rx,0,8,F2,0D,1E,20,00,00,00,00,
564861479,000000B2,false,Rx,0,8,00,00,00,00,00,00,00,00,
564861485,00000101,false,Rx,0,8,7A,06,80,00,A2,02,00,00,
564861490,00000106,false,Rx,0,8,5F,06,63,00,02,00,00,00,
564861495,0000011E,false,Rx,0,8,A3,06,00,00,00,00,00,00,
564861501,16A95414,true,Rx,0,8,00,30,7E,C3,0F,00,00,00,
564863331,000000AF,false,Rx,0,4,83,7A,C0,01,00,00,00,00,
564865113,000000A7,false,Rx,0,8,1F,EE,DF,7F,FD,01,A8,3D,
564865321,000000A8,false,Rx,0,8,EB,AE,1D,21,82,64,EC,0D,
564865582,00000107,false,Rx,0,8,00,00,F8,2C,01,00,60,B6,
564865808,00000120,false,Rx,0,8,40,07,00,02,01,08,FF,01,
564866051,00000121,false,Rx,0,8,D5,07,00,C0,37,5A,7E,FE,
564866284,00000147,false,Rx,0,8,00,00,00,00,F0,97,60,1D,
564866519,000000AD,false,Rx,0,8,48,E0,BF,FF,00,14,00,00,
564866769,000000AE,false,Rx,0,8,DF,00,00,00,FF,3C,01,02,
564867033,000000B1,false,Rx,0,8,D6,21,00,00,00,00,00,00,
564867425,00000086,false,Rx,0,8,5E,0E,1E,20,00,00,00,00,
564867914,000000B2,false,Rx,0,8,00,00,00,00,00,00,00,00,
564868188,000000FD,false,Rx,0,8,A5,D6,1F,80,00,00,00,00,
564868442,00000116,false,Rx,0,8,74,06,01,00,40,00,00,FF,
564868702,00000392,false,Rx,0,8,EE,27,00,00,00,00,00,04,
564869242,000003DB,false,Rx,0,8,50,00,01,04,07,24,01,A3,
564870223,000006B4,false,Rx,0,8,01,48,31,37,41,55,30,48,
564870852,0000031E,false,Rx,0,8,FB,F0,3F,00,00,00,00,40,
564871085,0000032C,false,Rx,0,8,00,0F,00,00,98,24,00,00,
564871341,0000032F,false,Rx,0,8,00,FF,00,00,00,00,F8,00,
564873349,000000AF,false,Rx,0,4,83,7B,C0,01,00,00,00,00,
564873809,0000012B,false,Rx,0,8,05,40,40,28,00,00,00,00,
564874052,00000463,false,Rx,0,8,02,69,1E,00,00,00,00,00,
564875112,000000A7,false,Rx,0,8,8A,EF,1F,80,FD,01,A8,3D,
564875321,000000A8,false,Rx,0,8,F4,AF,1D,21,82,64,F4,0D,
564881491,000000AD,false,Rx,0,8,86,E1,BF,FF,00,14,00,00,
564881496,000000AE,false,Rx,0,8,30,01,00,00,FF,3C,01,02,
564881501,00000128,false,Rx,0,3,80,00,00,00,00,00,00,00,
564881506,0000012D,false,Rx,0,8,0A,81,7F,00,00,00,FE,3F,
564881512,000003C8,false,Rx,0,8,00,00,54,24,00,60,01,88,
564881517,00000086,false,Rx,0,8,3A,0F,1E,20,00,00,00,00,
564881522,1B000077,true,Rx,0,8,77,00,04,02,01,00,00,00,
564881528,000000B2,false,Rx,0,8,00,00,00,00,00,00,00,00,
564881533,00000101,false,Rx,0,8,AB,07,80,00,A2,03,00,00,
564881538,00000106,false,Rx,0,8,3B,07,63,00,02,00,00,00,
564881544,0000011E,false,Rx,0,8,C7,07,00,00,00,00,00,00,
564881549,000003DD,false,Rx,0,8,48,04,10,18,FE,4F,0A,00,
564881554,000001AB,false,Rx,0,8,52,06,04,02,18,00,04,00,
564882557,000003E5,false,Rx,0,8,22,26,00,00,00,00,00,00,
564883335,000000AF,false,Rx,0,4,83,7C,00,00,00,00,00,00,
564884994,0000030B,false,Rx,0,8,10,25,00,00,08,00,00,10,
564885229,000000A7,false,Rx,0,8,43,E0,1F,80,FD,01,A8,3D,
564885463,000000A8,false,Rx,0,8,D4,A0,1D,21,82,64,F8,0D,
564885704,00000107,false,Rx,0,8,00,00,F8,2C,01,00,60,B6,
564885925,00000120,false,Rx,0,8,19,08,00,02,01,08,FF,01,
564886181,00000121,false,Rx,0,8,16,08,00,C0,37,5A,7E,FE,
564886416,000000AD,false,Rx,0,8,62,E2,BF,FF,00,14,00,00,
564886649,00000147,false,Rx,0,8,00,00,00,00,F0,97,60,1D,
564886881,000000AE,false,Rx,0,8,31,02,00,00,FF,3C,01,02,
564887437,00000086,false,Rx,0,8,78,00,1E,20,00,00,00,00,
564887947,000000B2,false,Rx,0,8,00,00,00,00,00,00,00,00,
564888240,000000FD,false,Rx,0,8,9F,D7,1F,80,00,00,00,00,
564888474,00000116,false,Rx,0,8,10,07,01,00,40,00,00,FF,
564888736,000001A2,false,Rx,0,8,78,03,00,00,00,00,00,00,
564889234,00000365,false,Rx,0,8,AC,06,11,00,8D,0F,84,7A,
564893335,000000AF,false,Rx,0,4,83,7D,00,00,00,00,00,00,
564895113,000000A7,false,Rx,0,8,CB,E1,1F,80,FD,01,A8,3D,
564895347,000000A8,false,Rx,0,8,F9,A1,1D,21,82,64,00,0E,
564901458,000000AD,false,Rx,0,8,E3,E3,BF,FF,00,14,00,00,
564901464,000000AE,false,Rx,0,8,14,03,00,00,FF,3C,01,02,
564901469,00000128,false,Rx,0,3,84,FF,11,00,00,00,00,00,
564901474,0000012D,false,Rx,0,8,18,82,7F,00,00,00,FE,3F,
564901479,00000086,false,Rx,0,8,1C,01,1E,20,00,00,00,00,
564901485,000000B2,false,Rx,0,8,00,00,00,00,00,00,00,00,
564901490,00000101,false,Rx,0,8,93,08,80,00,A2,04,00,00,
564901495,00000106,false,Rx,0,8,79,08,63,00,02,00,00,00,
564901501,00000040,false,Rx,0,8,60,06,00,44,C1,00,00,00,
564901506,0000011E,false,Rx,0,8,85,08,00,00,00,00,00,00,
564901511,000003DE,false,Rx,0,8,FE,00,00,00,00,00,00,00,
564901517,000003D8,false,Rx,0,8,00,00,08,00,00,00,00,00,
564901522,1B000076,true,Rx,0,8,76,00,04,01,01,00,00,00,
564902567,000003B5,false,Rx,0,8,87,FE,12,3E,0C,92,20,00,
564903231,000000AF,false,Rx,0,4,83,7E,00,01,00,00,00,00,
564903809,0000012B,false,Rx,0,8,77,41,40,28,00,00,00,00,
564904623,000005EA,false,Rx,0,8,00,00,00,36,F8,FE,FB,FF,
564905151,000000A7,false,Rx,0,8,F8,E2,1F,80,FD,FD,A7,3D,
564905385,000000A8,false,Rx,0,8,65,A2,1D,21,82,64,08,0E,
564905619,00000107,false,Rx,0,8,00,00,F8,2C,01,00,6B,B6,
564905876,00000120,false,Rx,0,8,4F,09,00,02,01,08,FF,01,
564906090,00000121,false,Rx,0,8,E9,09,00,C0,37,5A,7E,FE,
564906345,00000147,false,Rx,0,8,00,00,00,00,F0,9B,60,1D,
564906580,000000AD,false,Rx,0,8,41,E4,BF,FF,00,14,00,00,
564906875,1A55552B,true,Rx,0,8,00,00,00,00,00,FE,F8,03,
564907110,000000AE,false,Rx,0,8,1A,04,00,00,FF,3C,01,02,
564907443,00000086,false,Rx,0,8,B0,02,1E,20,00,00,00,00,
564907846,000000B2,false,Rx,0,8,00,00,00,00,00,00,00,00,
564908120,000000FD,false,Rx,0,8,58,D8,1F,80,00,00,00,00,
564908374,00000116,false,Rx,0,8,52,08,01,00,40,00,00,FF,
564913348,000000AF,false,Rx,0,4,83,7F,00,01,00,00,00,00,
564915162,000000A7,false,Rx,0,8,90,F3,DF,7F,FD,FD,A7,3D,
564915396,000000A8,false,Rx,0,8,FA,A3,1D,21,82,64,00,0E,
564921507,000000AD,false,Rx,0,8,74,E5,BF,FF,00,14,00,00,
564921513,000000AE,false,Rx,0,8,E1,05,00,00,FF,3C,01,02,
564921518,00000128,false,Rx,0,3,80,00,00,00,00,00,00,00,
564921523,0000012D,false,Rx,0,8,89,83,7F,00,00,00,FE,3F,
564921528,00000086,false,Rx,0,8,D4,03,1E,20,00,00,00,00,
564921534,000000B2,false,Rx,0,8,00,00,00,00,00,00,00,00,
564921539,00000101,false,Rx,0,8,38,09,80,00,A2,02,00,00,
564921544,00000106,false,Rx,0,8,1D,09,63,00,02,00,00,00,
564921550,0000011E,false,Rx,0,8,E1,09,00,00,00,00,00,00,
564921555,0000031E,false,Rx,0,8,31,F1,3F,00,00,00,00,40,
564921560,0000032C,false,Rx,0,8,00,0F,00,00,98,24,00,00,
564921566,0000032F,false,Rx,0,8,00,FF,00,00,00,00,F8,00,
564923358,000000AF,false,Rx,0,4,83,70,00,00,00,00,00,00,
564923946,00000464,false,Rx,0,8,10,4C,00,00,00,00,00,00,
564925163,000000A7,false,Rx,0,8,AA,F4,DF,7F,FD,FD,A7,3D,
564925397,000000A8,false,Rx,0,8,01,A4,1D,21,82,64,F8,0D,
564925652,00000107,false,Rx,0,8,00,00,F8,2C,01,00,6B,B6,
564925880,00000120,false,Rx,0,8,94,0A,00,02,01,08,FF,01,
564926115,00000121,false,Rx,0,8,B1,0A,00,80,37,5A,7E,FE,
564926343,00000147,false,Rx,0,8,00,00,00,00,F0,9B,60,1D,
564926603,000000AD,false,Rx,0,8,6A,E6,BF,FF,00,14,00,00,
564926856,000000AE,false,Rx,0,8,BA,06,00,00,FF,3C,01,02,
564927446,00000086,false,Rx,0,8,C7,04,1E,20,00,00,00,00,
564927836,000000B2,false,Rx,0,8,00,00,00,00,00,00,00,00,
564928089,000000FD,false,Rx,0,8,6A,D9,1F,80,00,00,00,00,
564928344,00000116,false,Rx,0,8,36,09,01,00,40,00,00,FF,
564933357,000000AF,false,Rx,0,4,83,71,00,00,00,00,00,00,
564933801,0000012B,false,Rx,0,8,D3,42,40,28,00,00,00,00,
564935007,0000030B,false,Rx,0,8,10,26,00,00,08,00,00,10,
564935240,000000A7,false,Rx,0,8,96,F5,DF,7F,FD,01,A8,3D,
564935475,000000A8,false,Rx,0,8,8B,A5,1D,21,82,64,E8,0D,
564941504,000000AD,false,Rx,0,8,35,E7,BF,FF,00,14,00,00,
564941509,000000AE,false,Rx,0,8,28,07,00,00,FF,3C,01,02,
564941514,00000128,false,Rx,0,3,84,0B,2B,00,00,00,00,00,
564941519,0000012D,false,Rx,0,8,06,84,7F,00,00,00,FE,3F,
564941525,00000086,false,Rx,0,8,A3,05,1E,20,00,00,00,00,
564941530,000000B2,false,Rx,0,8,00,00,00,00,00,00,00,00,
564941535,00000101,false,Rx,0,8,94,0A,80,00,A2,02,00,00,
564941541,00000106,false,Rx,0,8,B1,0A,63,00,02,00,00,00,
564941546,0000011E,false,Rx,0,8,4D,0A,00,00,00,00,00,00,
564941551,00000365,false,Rx,0,8,AC,06,11,00,8C,0F,84,7A,
564943348,000000AF,false,Rx,0,4,83,72,20,01,00,00,00,00,
564945178,000000A7,false,Rx,0,8,05,F6,DF,7F,FD,01,A8,3D,
564945414,000000A8,false,Rx,0,8,F3,A6,1D,21,82,64,E4,0D,
564945648,00000107,false,Rx,0,8,00,00,F8,2C,01,00,76,B6,
564945897,00000120,false,Rx,0,8,38,0B,00,02,01,08,FF,01,
564946131,00000121,false,Rx,0,8,27,0B,00,C0,37,5A,7E,FE,
564946366,00000147,false,Rx,0,8,00,00,00,00,F0,9B,60,1D,
564946600,000000AD,false,Rx,0,8,A2,E8,BF,FF,00,14,00,00,
564946855,00000366,false,Rx,0,8,00,00,00,20,80,03,00,00,
564947090,000000AE,false,Rx,0,8,5F,08,00,00,FF,3C,01,02,
564947325,00000391,false,Rx,0,8,11,8A,21,44,00,27,00,22,
564947557,000003BE,false,Rx,0,8,30,07,E6,00,C8,80,00,80,
564947742,000003C0,false,Rx,0,4,BF,0B,03,00,00,00,00,00,
564947958,000003C7,false,Rx,0,8,01,10,24,00,00,40,80,00,
564948218,00000086,false,Rx,0,8,0F,06,1E,20,00,00,00,00,
564948473,000000B2,false,Rx,0,8,00,00,00,00,00,00,00,00,
564948731,000000FD,false,Rx,0,8,26,DA,1F,80,00,00,00,00,
564948974,00000040,false,Rx,0,8,04,07,00,44,C1,00,00,00,
564949208,00000116,false,Rx,0,8,9A,0A,01,00,40,00,00,FF,
564949462,000003D6,false,Rx,0,8,0A,00,00,00,00,00,30,00,
564949726,000005AC,false,Rx,0,8,00,00,FF,FE,FE,F7,07,00,
564951797,000005F0,false,Rx,0,8,FD,00,64,00,00,64,00,00,
564952800,0000065A,false,Rx,0,8,00,00,02,10,00,00,3C,00,
564953333,000000AF,false,Rx,0,4,83,73,20,01,00,00,00,00,
564955112,000000A7,false,Rx,0,8,C7,F7,1F,80,FD,01,A8,3D,
564955320,000000A8,false,Rx,0,8,E6,A7,1D,21,82,64,E4,0D,
564961541,000000AD,false,Rx,0,8,A6,E9,BF,FF,00,14,00,00,
564961546,1B000010,true,Rx,0,8,10,00,04,05,11,00,00,00,
564961552,000000AE,false,Rx,0,8,B7,09,00,00,FF,3C,01,02,
564961557,00000128,false,Rx,0,3,80,00,00,00,00,00,00,00,
564961562,0000012D,false,Rx,0,8,79,85,7F,00,00,00,FE,3F,
564961567,00000086,false,Rx,0,8,6B,07,1E,20,00,00,00,00,
564961573,000000B2,false,Rx,0,8,00,00,00,00,00,00,00,00,
564961578,00000101,false,Rx,0,8,00,0B,80,00,A2,01,00,00,
564961583,00000106,false,Rx,0,8,D5,0B,63,00,02,00,00,00,
564961589,0000011E,false,Rx,0,8,29,0B,00,00,00,00,00,00,
564961594,16A95414,true,Rx,0,8,00,30,7E,C3,0F,00,00,00,
564961599,00000585,false,Rx,0,8,0F,3C,00,7F,11,00,00,00,
564963193,000000AF,false,Rx,0,4,83,74,00,00,00,00,00,00,
564963780,0000012B,false,Rx,0,8,8B,43,40,28,00,00,00,00,
564965131,000000A7,false,Rx,0,8,8A,F8,1F,80,FD,01,A8,3D,
564965365,000000A8,false,Rx,0,8,B4,A8,1D,21,82,64,EC,0D,
564965599,00000107,false,Rx,0,8,00,00,F8,2C,01,00,81,B6,
564965855,00000120,false,Rx,0,8,E2,0C,00,02,01,08,FF,01,
564966090,00000121,false,Rx,0,8,E2,0C,00,C0,37,5A,7E,FE,
564966324,00000147,false,Rx,0,8,00,00,00,00,F0,9B,60,1D,
564966552,000000AD,false,Rx,0,8,F7,EA,BF,FF,00,14,00,00,
564966821,000000AE,false,Rx,0,8,CB,0A,00,00,FF,3C,01,02,
564967057,000000B1,false,Rx,0,8,D9,22,00,00,00,00,00,00,
564967435,00000086,false,Rx,0,8,29,08,1E,20,00,00,00,00,
564967927,000000B2,false,Rx,0,8,00,00,00,00,00,00,00,00,
564968202,000000FD,false,Rx,0,8,09,DB,1F,80,00,00,00,00,
564968456,00000116,false,Rx,0,8,FE,0B,01,00,40,00,00,FF,
564968723,00000392,false,Rx,0,8,AC,28,00,00,00,00,00,04,
564969216,000003DB,false,Rx,0,8,50,00,01,04,07,24,01,A3,
564970841,0000031E,false,Rx,0,8,8B,F2,3F,00,00,00,00,40,
564971100,0000032C,false,Rx,0,8,00,0F,00,00,98,24,00,00,
564971355,0000032F,false,Rx,0,8,00,FF,00,00,00,00,F8,00,
564973349,000000AF,false,Rx,0,4,83,75,00,00,00,00,00,00,
564973914,00000462,false,Rx,0,8,01,00,38,00,00,01,00,00,
564975131,000000A7,false,Rx,0,8,5A,F9,1F,80,FD,01,A8,3D,
564975374,000000A8,false,Rx,0,8,56,A9,1D,21,82,64,F4,0D,
564981511,000000AD,false,Rx,0,8,42,EB,BF,FF,00,14,00,00,
564981516,000000AE,false,Rx,0,8,69,0B,00,00,FF,3C,01,02,
564981521,00000128,false,Rx,0,3,84,0B,D4,00,00,00,00,00,
564981526,0000012D,false,Rx,0,8,C9,86,7F,00,00,00,FE,3F,
564981532,000003C8,false,Rx,0,8,00,00,54,24,00,60,01,88,
564981537,00000086,false,Rx,0,8,4D,09,1E,20,00,00,00,00,
564981542,000000B2,false,Rx,0,8,00,00,00,00,00,00,00,00,
564981548,00000101,false,Rx,0,8,13,0C,80,00,A2,01,00,00,
564981553,00000106,false,Rx,0,8,C6,0C,63,00,02,00,00,00,
564981558,0000011E,false,Rx,0,8,3A,0C,00,00,00,00,00,00,
564981564,000003DD,false,Rx,0,8,48,04,10,18,FE,4F,0A,00,
564982626,000003E5,false,Rx,0,8,3E,27,00,00,00,00,00,00,
564983349,000000AF,false,Rx,0,4,83,76,DF,01,00,00,00,00,
564984600,1B000015,true,Rx,0,8,15,00,04,02,01,00,00,00,
564984995,0000030B,false,Rx,0,8,10,27,00,00,08,00,00,10,
564985230,000000A7,false,Rx,0,8,5C,FA,1F,80,FD,01,A8,3D,
564985464,000000A8,false,Rx,0,8,34,AA,1D,61,82,64,F4,0D,
564985705,00000107,false,Rx,0,8,00,00,F8,2C,01,00,81,B6,
564985926,00000120,false,Rx,0,8,52,0D,00,02,01,08,FF,01,
564986161,00000121,false,Rx,0,8,F1,0D,00,C0,37,5A,7E,FE,
564986416,00000147,false,Rx,0,8,00,00,00,00,F0,9B,60,1D,
564986650,000000AD,false,Rx,0,8,2F,EC,BF,FF,00,14,00,00,
564986881,000000AE,false,Rx,0,8,D1,0C,00,00,FF,3C,01,02,
564987418,00000086,false,Rx,0,8,E1,0A,1E,20,00,00,00,00,
564987901,000000B2,false,Rx,0,8,00,00,00,00,00,00,00,00,
564988201,000000FD,false,Rx,0,8,90,DC,1F,80,00,00,00,00,
564988434,00000116,false,Rx,0,8,ED,0C,01,00,40,00,00,FF,
564989221,00000365,false,Rx,0,8,AC,06,11,00,8C,0F,84,7A,
564993340,000000AF,false,Rx,0,4,83,77,DF,01,00,00,00,00,
564993780,0000012B,false,Rx,0,8,0B,44,40,28,00,00,00,00,
564995168,000000A7,false,Rx,0,8,32,FB,1F,80,FD,01,A8,3D,
564995403,000000A8,false,Rx,0,8,B1,AB,1D,61,82,64,F8,0D,
565001512,000000AD,false,Rx,0,8,5E,ED,BF,FF,00,14,00,00,
565001518,000000AE,false,Rx,0,8,B2,0D,00,00,FF,3C,01,02,
565001523,00000128,false,Rx,0,3,80,00,00,00,00,00,00,00,
565001528,0000012D,false,Rx,0,8,98,87,7F,00,00,00,FE,3F,
565001533,00000086,false,Rx,0,8,85,0B,1E,20,00,00,00,00,
565001539,000000B2,false,Rx,0,8,00,00,00,00,00,00,00,00,
565001544,00000101,false,Rx,0,8,33,0D,80,00,A2,00,40,00,
565001549,00000106,false,Rx,0,8,30,0D,64,00,02,00,00,00,
565001555,00000040,false,Rx,0,8,46,08,00,44,C1,00,00,00,
565001560,0000011E,false,Rx,0,8,5E,0D,00,00,00,00,00,00,
565001565,000003DE,false,Rx,0,8,FE,00,00,00,00,00,00,00,
565001571,000003D8,false,Rx,0,8,00,00,08,00,00,00,00,00,
565001576,00000520,false,Rx,0,8,3C,04,00,08,00,0A,00,0A,
565002517,000003B5,false,Rx,0,8,87,FE,12,3E,0C,92,20,00,
565003340,000000AF,false,Rx,0,4,83,78,00,00,00,00,00,00,
565003635,1B000053,true,Rx,0,8,53,00,04,01,01,00,00,00,
565005171,000000A7,false,Rx,0,8,8D,FC,1F,80,FD,01,A8,3D,
565005406,000000A8,false,Rx,0,8,97,AC,1D,61,82,64,FC,0D,
565005640,00000107,false,Rx,0,8,00,00,F8,2C,01,00,8C,B6,
565005889,00000120,false,Rx,0,8,39,0E,00,02,01,08,FF,01,
565006098,00000121,false,Rx,0,8,5F,0E,00,80,37,5A,7E,FE,
565006358,00000147,false,Rx,0,8,00,00,00,00,F0,9B,60,1D,
565006591,000000AD,false,Rx,0,8,84,EE,BF,FF,00,14,00,00,
565006849,000000AE,false,Rx,0,8,8A,0E,00,00,FF,3C,01,02,
565007103,00000394,false,Rx,0,8,1C,1C,00,1A,00,00,00,00,
565007435,00000086,false,Rx,0,8,96,0C,1E,20,00,00,00,00,
565007814,000000B2,false,Rx,0,8,00,00,00,00,00,00,00,00,
565008101,000000FD,false,Rx,0,8,19,DD,1F,80,00,00,00,00,
565008356,00000116,false,Rx,0,8,89,0D,01,00,40,00,00,FF,
565013349,000000AF,false,Rx,0,4,83,79,00,00,00,00,00,00,
565015159,000000A7,false,Rx,0,8,71,FD,DF,7F,FD,FD,A7,3D,
565015393,000000A8,false,Rx,0,8,EB,AD,1D,61,82,64,00,0E,
565021533,000000AD,false,Rx,0,8,D5,EF,BF,FF,00,14,00,00,
565021539,000000AE,false,Rx,0,8,68,0F,00,00,FF,3C,01,02,
565021544,00000128,false,Rx,0,3,84,FF,12,00,00,00,00,00,
565021549,0000012D,false,Rx,0,8,57,88,7F,00,00,00,FE,3F,
565021554,00000086,false,Rx,0,8,F2,0D,1E,20,00,00,00,00,
565021560,000000B2,false,Rx,0,8,00,00,00,00,00,00,00,00,
565021565,00000101,false,Rx,0,8,6E,0E,80,00,A2,00,00,00,
565021570,00000106,false,Rx,0,8,9C,0E,64,00,02,00,00,00,
565021576,0000011E,false,Rx,0,8,F2,0E,00,00,00,00,00,00,
565021581,0000031E,false,Rx,0,8,C9,F3,3F,00,00,00,00,40,
565021586,0000032C,false,Rx,0,8,00,0F,00,00,98,24,00,00,
565021592,0000032F,false,Rx,0,8,00,FF,00,00,00,00,F8,00,
565023210,000000AF,false,Rx,0,4,83,7A,00,01,00,00,00,00,
565023788,0000012B,false,Rx,0,8,AE,45,40,28,00,00,00,00,
565024052,00000463,false,Rx,0,8,00,E0,03,00,00,00,00,00,
565025132,000000A7,false,Rx,0,8,FA,FE,DF,7F,FD,FD,A7,3D,
565025367,000000A8,false,Rx,0,8,36,AE,1D,61,82,64,FC,0D,
565025601,00000107,false,Rx,0,8,00,00,F8,2C,01,00,8C,B6,
565025835,00000120,false,Rx,0,8,EC,0F,00,02,01,08,FF,01,
565026070,00000121,false,Rx,0,8,E9,0F,00,80,37,5A,7E,FE,
565026305,00000147,false,Rx,0,8,00,00,00,00,F0,9B,60,1D,
565026538,000000AD,false,Rx,0,8,48,E0,BF,FF,00,14,00,00,
565026788,000000AE,false,Rx,0,8,DF,00,00,00,FF,3C,01,02,
565027427,00000086,false,Rx,0,8,5E,0E,1E,20,00,00,00,00,
565027763,000000B2,false,Rx,0,8,00,00,00,00,00,00,00,00,
565028049,000000FD,false,Rx,0,8,E6,DE,1F,80,00,00,00,00,
565028304,00000116,false,Rx,0,8,25,0E,01,00,40,00,00,FF,
565033337,000000AF,false,Rx,0,4,83,7B,00,01,00,00,00,00,
565034974,0000030B,false,Rx,0,8,10,28,00,00,08,00,00,10,
565035209,000000A7,false,Rx,0,8,63,FF,DF,7F,FD,01,A8,3D,
565035443,000000A8,false,Rx,0,8,C9,AF,1D,61,82,64,F4,0D,
565041541,00000643,false,Rx,0,8,85,02,13,00,00,00,00,00,
565041546,000000AD,false,Rx,0,8,86,E1,BF,FF,00,14,00,00,
565041552,000000AE,false,Rx,0,8,30,01,00,00,FF,3C,01,02,
565041557,00000128,false,Rx,0,3,80,00,00,00,00,00,00,00,
565041562,0000012D,false,Rx,0,8,F2,89,7F,00,00,00,FE,3F,
565041567,00000086,false,Rx,0,8,3A,0F,1E,20,00,00,00,00,
565041573,000000B2,false,Rx,0,8,00,00,00,00,00,00,00,00,
565041578,00000101,false,Rx,0,8,0A,0F,80,00,A2,00,00,00,
565041583,00000106,false,Rx,0,8,F8,0F,64,00,02,00,00,00,
565041589,0000011E,false,Rx,0,8,96,0F,00,00,00,00,00,00,
565041594,00000365,false,Rx,0,8,AC,06,11,00,8C,0F,84,7A,
565043349,000000AF,false,Rx,0,4,83,7C,00,00,00,00,00,00,
565045160,000000A7,false,Rx,0,8,E1,F0,1F,80,FD,01,A8,3D,
565045368,000000A8,false,Rx,0,8,A1,A0,1D,61,82,64,F4,0D,
565045629,00000107,false,Rx,0,8,00,00,F8,2C,01,00,98,B6,
565045863,00000120,false,Rx,0,8,26,00,00,02,01,08,FF,01,
565046099,00000121,false,Rx,0,8,27,00,00,80,37,5A,7E,FE,
565046331,00000147,false,Rx,0,8,00,00,00,00,F0,9B,60,1D,
565046587,000000AD,false,Rx,0,8,62,E2,BF,FF,00,14,00,00,
565046811,000002C2,false,Rx,0,8,00,00,00,00,00,00,00,00,
565047059,000000AE,false,Rx,0,8,31,02,00,00,FF,3C,01,02,
565047293,00000391,false,Rx,0,8,12,89,21,47,00,27,00,22,
565047522,000003BE,false,Rx,0,8,CA,08,E6,00,C8,80,00,80,
565047708,000003C0,false,Rx,0,4,C5,0C,03,00,00,00,00,00,
565047952,000003C7,false,Rx,0,8,70,10,24,00,00,40,80,00,
565048185,00000086,false,Rx,0,8,78,00,1E,20,00,00,00,00,
565048480,17F00076,true,Rx,0,8,20,76,00,00,00,00,00,80,
565048742,000000B2,false,Rx,0,8,00,00,00,00,00,00,00,00,
565048959,00000040,false,Rx,0,8,22,09,00,44,C1,00,00,00,
565049219,000000FD,false,Rx,0,8,71,DF,1F,80,00,00,00,00,
565049454,00000640,false,Rx,0,8,E0,92,88,C4,7D,20,0F,14,
565049695,00000116,false,Rx,0,8,41,0F,01,00,40,00,00,FF,
565049913,00000647,false,Rx,0,8,B8,FD,FF,7F,00,00,00,18,
565050173,000003D6,false,Rx,0,8,0B,00,00,00,00,00,30,00,
565050406,0000065F,false,Rx,0,8,2E,20,00,00,00,00,2C,7F,
565050662,000005AC,false,Rx,0,8,00,00,FF,FE,FE,F7,07,00,
565050894,00000670,false,Rx,0,8,19,10,00,00,00,01,00,88,
565053337,000000AF,false,Rx,0,4,83,7D,00,00,00,00,00,00,
565053800,0000012B,false,Rx,0,8,B7,46,40,28,00,00,00,00,
565055098,000000A7,false,Rx,0,8,69,F1,1F,80,FD,01,A8,3D,
565055337,000000A8,false,Rx,0,8,93,A1,1D,61,82,64,F8,0D,
565062749,000000AD,false,Rx,0,8,E3,E3,BF,FF,00,14,00,00,
565062755,000000AE,false,Rx,0,8,14,03,00,00,FF,3C,01,02,
565062760,00000128,false,Rx,0,3,84,06,2B,00,00,00,00,00,
565062765,0000012D,false,Rx,0,8,7B,8A,7F,00,00,00,FE,3F,
565062770,00000086,false,Rx,0,8,1C,01,1E,20,00,00,00,00,
565062776,000000B2,false,Rx,0,8,00,00,00,00,00,00,00,00,
565062781,00000101,false,Rx,0,8,FC,00,80,00,A2,02,40,00,
565062786,00000106,false,Rx,0,8,28,00,63,00,02,00,00,00,
565062792,0000011E,false,Rx,0,8,D4,00,00,00,00,00,00,00,
565062797,16A95414,true,Rx,0,8,00,30,7E,C3,0F,00,00,00,
565063335,000000AF,false,Rx,0,4,83,7E,2D,01,00,00,00,00,
565065211,000000A7,false,Rx,0,8,56,F2,DF,7F,FD,01,A8,3D,
565065446,000000A8,false,Rx,0,8,28,A2,1D,61,82,64,00,0E,
565065681,00000107,false,Rx,0,8,00,00,F8,2C,01,00,A3,B6,
565065910,00000120,false,Rx,0,8,D3,01,00,02,01,08,FF,01,
565066144,00000121,false,Rx,0,8,4B,01,00,80,37,5A,7E,FE,
565066377,00000147,false,Rx,0,8,00,00,00,00,F0,9B,60,1D,
565066633,000000AD,false,Rx,0,8,41,E4,BF,FF,00,14,00,00,
565066881,000000AE,false,Rx,0,8,1A,04,00,00,FF,3C,01,02,
565067136,000000B1,false,Rx,0,8,E8,23,00,00,00,00,00,00,
565067449,00000086,false,Rx,0,8,B0,02,1E,20,00,00,00,00,
565067943,000000B2,false,Rx,0,8,00,00,00,00,00,00,00,00,
565068230,000000FD,false,Rx,0,8,0B,D0,1F,80,00,00,00,00,
565068489,00000116,false,Rx,0,8,03,00,01,00,40,00,00,FF,
565068752,00000392,false,Rx,0,8,C8,29,00,00,00,00,00,04,
565069230,000003DB,false,Rx,0,8,50,00,01,04,07,24,01,A3,
565070210,000006B4,false,Rx,0,8,00,91,97,71,29,33,56,57,
565070848,0000031E,false,Rx,0,8,64,F4,3F,00,00,00,00,40,
565071104,0000032C,false,Rx,0,8,00,0F,00,00,98,24,00,00,
565071336,0000032F,false,Rx,0,8,00,FF,00,00,00,00,F8,00,
565073349,000000AF,false,Rx,0,4,83,7F,2D,01,00,00,00,00,
565075153,000000A7,false,Rx,0,8,90,F3,DF,7F,FD,FD,A7,3D,
565075401,000000A8,false,Rx,0,8,FF,A3,1D,61,82,64,04,0E,
565081593,00000464,false,Rx,0,8,00,00,00,00,00,00,00,00,
565081598,000000AD,false,Rx,0,8,74,E5,BF,FF,00,14,00,00,
565081604,000000AE,false,Rx,0,8,E1,05,00,00,FF,3C,01,02,
565081609,00000128,false,Rx,0,3,80,00,00,00,00,00,00,00,
565081614,0000012D,false,Rx,0,8,60,8B,7F,00,00,00,FE,3F,
565081619,000003C8,false,Rx,0,8,00,00,54,24,00,60,01,88,
565081625,00000086,false,Rx,0,8,D4,03,1E,20,00,00,00,00,
565081630,17F00077,true,Rx,0,8,20,77,00,00,00,00,00,00,
565081635,000000B2,false,Rx,0,8,00,00,00,00,00,00,00,00,
565081641,1B000077,true,Rx,0,8,77,00,04,02,01,00,00,00,
565081646,00000101,false,Rx,0,8,98,01,80,00,A2,02,40,00,
565081651,00000106,false,Rx,0,8,DE,01,64,00,02,00,00,00,
565081657,0000011E,false,Rx,0,8,B0,01,00,00,00,00,00,00,
565081662,000001AB,false,Rx,0,8,27,07,04,02,18,00,04,00,
565081667,000003DD,false,Rx,0,8,48,04,10,18,FE,4F,0A,00,
565082755,000003E5,false,Rx,0,8,93,28,00,00,00,00,00,00,
565083220,000000AF,false,Rx,0,4,83,70,00,00,00,00,00,00,
565083800,0000012B,false,Rx,0,8,92,47,40,28,00,00,00,00,
565084985,0000030B,false,Rx,0,8,10,29,00,00,08,00,00,10,
565085260,0000065E,false,Rx,0,8,00,00,02,A1,23,00,00,00,
565085473,000000A7,false,Rx,0,8,AA,F4,DF,7F,FD,FD,A7,3D,
565085709,000000A8,false,Rx,0,8,1B,A4,1D,61,82,64,08,0E,
565085958,00000107,false,Rx,0,8,00,00,F8,2C,01,00,A3,B6,
565086191,00000120,false,Rx,0,8,2B,02,00,02,01,08,FF,01,
565086426,000000AD,false,Rx,0,8,6A,E6,BF,FF,00,14,00,00,
565086661,00000121,false,Rx,0,8,C4,02,00,80,37,5A,7E,FE,
565086893,000000AE,false,Rx,0,8,BA,06,00,00,FF,3C,01,02,
565087149,00000147,false,Rx,0,8,00,00,00,00,F0,9B,60,1D,
565087462,00000086,false,Rx,0,8,C7,04,1E,20,00,00,00,00,
565087915,000000B2,false,Rx,0,8,00,00,00,00,00,00,00,00,
565088229,000000FD,false,Rx,0,8,01,D1,1F,80,00,00,00,00,
565088463,00000116,false,Rx,0,8,67,01,01,00,40,00,00,FF,
565088720,000001A2,false,Rx,0,8,34,04,00,00,00,00,00,00,
565089219,00000365,false,Rx,0,8,AC,06,11,00,8C,0F,84,7A,
565093349,000000AF,false,Rx,0,4,83,71,00,00,00,00,00,00,
565095200,000000A7,false,Rx,0,8,D1,F5,DF,7F,FD,FD,A7,3D,
565095435,000000A8,false,Rx,0,8,39,A5,1D,61,82,64,04,0E,
565102752,000003D4,false,Rx,0,8,1D,0E,80,06,00,04,00,00,
565102757,000000AD,false,Rx,0,8,35,E7,BF,FF,00,14,00,00,
565102763,000000AE,false,Rx,0,8,28,07,00,00,FF,3C,01,02,
565102768,00000128,false,Rx,0,3,84,06,D4,00,00,00,00,00,
565102773,0000012D,false,Rx,0,8,52,8C,7F,00,00,00,FE,3F,
565102778,00000086,false,Rx,0,8,A3,05,1E,20,00,00,00,00,
565102784,000000B2,false,Rx,0,8,00,00,00,00,00,00,00,00,
565102789,00000101,false,Rx,0,8,71,02,80,00,A2,00,40,00,
565102795,00000106,false,Rx,0,8,E0,02,63,00,02,00,00,00,
565102800,00000040,false,Rx,0,8,8E,0A,00,44,C1,00,00,00,
565102805,0000011E,false,Rx,0,8,1C,02,00,00,00,00,00,00,
565102811,000003DE,false,Rx,0,8,FE,00,00,00,00,00,00,00,
565102816,000003D8,false,Rx,0,8,00,00,08,00,00,00,00,00,
565102821,1B000076,true,Rx,0,8,76,00,04,01,01,00,00,00,
565102835,000003B5,false,Rx,0,8,87,FE,12,3E,0C,92,20,00,
565103345,000000AF,false,Rx,0,4,83,72,D2,01,00,00,00,00,
565105093,000000A7,false,Rx,0,8,42,F6,DF,7F,FD,FD,A7,3D,
565105329,000000A8,false,Rx,0,8,31,A6,1D,61,82,64,00,0E,
565105557,00000107,false,Rx,0,8,00,00,F8,2C,01,00,AF,B6,
565105808,00000120,false,Rx,0,8,F9,03,00,02,01,08,FF,01,
565106052,00000121,false,Rx,0,8,36,03,00,80,37,5A,7E,FE,
565106285,00000147,false,Rx,0,8,00,00,00,00,F0,9B,60,1D,
565106520,000000AD,false,Rx,0,8,A2,E8,BF,FF,00,14,00,00,
565106768,000000AE,false,Rx,0,8,5F,08,00,00,FF,3C,01,02,
565107427,00000086,false,Rx,0,8,0F,06,1E,20,00,00,00,00,
565107822,000000B2,false,Rx,0,8,00,00,00,00,00,00,00,00,
565108129,000000FD,false,Rx,0,8,CE,D2,1F,80,00,00,00,00,
565108364,00000116,false,Rx,0,8,CB,02,01,00,40,00,00,FF,
565113338,000000AF,false,Rx,0,4,83,73,D2,01,00,00,00,00,
565113798,0000012B,false,Rx,0,8,47,48,40,28,00,00,00,00,
565115099,000000A7,false,Rx,0,8,CB,F7,DF,7F,FD,FD,A7,3D,
565115338,000000A8,false,Rx,0,8,4B,A7,1D,61,82,64,FC,0D,
565121569,000000AD,false,Rx,0,8,A6,E9,BF,FF,00,14,00,00,
565121575,000000AE,false,Rx,0,8,B7,09,00,00,FF,3C,01,02,
565121580,00000128,false,Rx,0,3,80,00,00,00,00,00,00,00,
565121585,0000012D,false,Rx,0,8,3E,8D,7F,00,00,00,FE,3F,
565121590,00000086,false,Rx,0,8,6B,07,1E,20,00,00,00,00,
565121596,000000B2,false,Rx,0,8,00,00,00,00,00,00,00,00,
565121601,00000101,false,Rx,0,8,A1,03,80,00,A2,02,00,00,
565121606,00000106,false,Rx,0,8,84,03,63,00,02,00,00,00,
565121612,0000011E,false,Rx,0,8,78,03,00,00,00,00,00,00,
565121617,0000031E,false,Rx,0,8,1B,F5,3F,00,00,00,00,40,
565121622,0000032C,false,Rx,0,8,00,0F,00,00,98,24,00,00,
565121628,0000032F,false,Rx,0,8,00,FF,00,00,00,00,F8,00,
565123341,000000AF,false,Rx,0,4,83,74,00,00,00,00,00,00,
565123941,00000462,false,Rx,0,8,01,00,38,00,00,01,00,00,
565124318,00000465,false,Rx,0,8,00,00,00,00,00,00,00,80,
565125124,000000A7,false,Rx,0,8,86,F8,DF,7F,FD,FD,A7,3D,
565125358,000000A8,false,Rx,0,8,3E,A8,1D,61,82,64,04,0E,
565125614,00000107,false,Rx,0,8,00,00,F8,2C,01,00,AF,B6,
565125846,00000120,false,Rx,0,8,AF,04,00,02,01,08,FF,01,
565126081,00000121,false,Rx,0,8,8B,04,00,80,37,5A,7E,FE,
565126309,00000147,false,Rx,0,8,00,00,00,00,F0,9B,60,1D,
565126570,000000AD,false,Rx,0,8,F7,EA,BF,FF,00,14,00,00,
565126817,000000AE,false,Rx,0,8,CB,0A,00,00,FF,3C,01,02,
565127413,00000086,false,Rx,0,8,29,08,1E,20,00,00,00,00,
565127821,000000B2,false,Rx,0,8,00,00,00,00,00,00,00,00,
565128082,000000FD,false,Rx,0,8,BB,D3,1F,80,00,00,00,00,
565128337,00000116,false,Rx,0,8,AF,03,01,00,40,00,00,FF,
565133349,000000AF,false,Rx,0,4,83,75,00,00,00,00,00,00,
565134996,0000030B,false,Rx,0,8,10,2A,00,00,08,00,00,10,
565135235,000000A7,false,Rx,0,8,56,F9,DF,7F,FD,FD,A7,3D,
565135465,000000A8,false,Rx,0,8,3C,A9,1D,61,82,64,0C,0E,
565141578,000006B7,false,Rx,0,8,D1,9D,A3,45,01,12,00,A1,
565141583,000006B8,false,Rx,0,8,B8,07,84,98,1C,6C,00,00,
565141589,000000AD,false,Rx,0,8,42,EB,BF,FF,00,14,00,00,
565141594,000000AE,false,Rx,0,8,69,0B,00,00,FF,3C,01,02,
565141599,00000128,false,Rx,0,3,84,FF,13,00,00,00,00,00,
565141604,0000012D,false,Rx,0,8,0E,8E,7F,00,00,00,FE,3F,
565141610,00000086,false,Rx,0,8,4D,09,1E,20,00,00,00,00,
565141615,000000B2,false,Rx,0,8,00,00,00,00,00,00,00,00,
565141620,00000101,false,Rx,0,8,C8,04,80,00,A2,05,00,00,
565141626,00000106,false,Rx,0,8,97,04,63,00,02,00,00,00,
565141631,0000011E,false,Rx,0,8,6B,04,00,00,00,00,00,00,
565141636,00000365,false,Rx,0,8,AC,06,11,00,8C,0F,84,7A,
565143211,000000AF,false,Rx,0,4,83,76,00,01,00,00,00,00,
565143782,0000012B,false,Rx,0,8,4F,49,40,28,00,00,00,00,
565144227,00000569,false,Rx,0,8,00,00,00,3E,F8,10,00,00,
565145114,000000A7,false,Rx,0,8,B0,FA,DF,7F,FD,FD,B7,3D,
565145322,000000A8,false,Rx,0,8,69,BA,1D,61,82,64,10,0E,
565145582,00000107,false,Rx,0,8,00,00,F8,2C,01,00,BB,B6,
565145808,00000120,false,Rx,0,8,AD,05,00,02,01,08,FF,01,
565146052,00000121,false,Rx,0,8,BC,05,00,80,37,5A,7E,FE,
565146286,00000147,false,Rx,0,8,00,00,00,00,F0,9B,60,1D,
565146520,000000AD,false,Rx,0,8,2F,EC,BF,FF,00,14,00,00,
565146769,00000391,false,Rx,0,8,11,8A,21,46,00,27,00,22,
565146991,000000AE,false,Rx,0,8,D1,0C,00,00,FF,3C,01,02,
565147220,000003BE,false,Rx,0,8,E9,09,E6,00,C8,80,00,80,
565147400,000003C0,false,Rx,0,4,70,0D,03,00,00,00,00,00,
565147655,000003C7,false,Rx,0,8,01,10,24,00,00,40,80,00,
565147880,00000086,false,Rx,0,8,E1,0A,1E,20,00,00,00,00,
565148134,000000B2,false,Rx,0,8,00,00,00,00,00,00,00,00,
565148388,000003D6,false,Rx,0,8,0C,00,00,00,00,00,30,00,
565148664,000000FD,false,Rx,0,8,2D,D4,1F,80,00,00,00,00,
565148915,00000040,false,Rx,0,8,EA,0B,00,44,C1,00,00,00,
565149150,00000116,false,Rx,0,8,BC,04,01,00,40,00,00,FF,
565149382,000005AC,false,Rx,0,8,00,00,FF,FE,FE,F7,07,00,
565150526,000005F0,false,Rx,0,8,FD,00,64,00,00,64,00,00,
565153340,000000AF,false,Rx,0,4,83,77,00,01,00,00,00,00,
565155132,000000A7,false,Rx,0,8,DE,FB,DF,7F,FD,FD,B7,3D,
565155345,000000A8,false,Rx,0,8,A4,BB,1D,61,82,64,10,0E,
565162784,000000AD,false,Rx,0,8,5E,ED,BF,FF,00,14,00,00,
565162789,1B000010,true,Rx,0,8,10,00,04,05,11,00,00,00,
565162794,000000AE,false,Rx,0,8,B2,0D,00,00,FF,3C,01,02,
565162800,00000128,false,Rx,0,3,80,00,00,00,00,00,00,00,
565162805,0000012D,false,Rx,0,8,F9,8F,7F,00,00,00,FE,3F,
565162810,00000086,false,Rx,0,8,85,0B,1E,20,00,00,00,00,
565162815,000000B2,false,Rx,0,8,00,00,00,00,00,00,00,00,
565162821,00000101,false,Rx,0,8,D6,05,80,00,A2,02,00,00,
565162834,00000106,false,Rx,0,8,F3,05,63,00,02,00,00,00,
565162839,0000011E,false,Rx,0,8,0F,05,00,00,00,00,00,00,
565162845,16A95414,true,Rx,0,8,00,30,7E,C3,0F,00,00,00,
565162850,16A95415,true,Rx,0,8,00,00,00,00,14,00,98,00,
565163340,000000AF,false,Rx,0,4,83,78,00,00,00,00,00,00,
565165171,000000A7,false,Rx,0,8,61,FC,DF,7F,FD,FD,B7,3D,
565165405,000000A8,false,Rx,0,8,BA,BC,1D,61,82,64,10,0E,
565165640,00000107,false,Rx,0,8,00,00,F8,2C,01,00,C6,B6,
565165890,00000120,false,Rx,0,8,42,06,00,02,01,08,FF,01,
565166104,00000121,false,Rx,0,8,86,06,00,C0,37,5A,7E,FE,
565166360,00000147,false,Rx,0,8,00,00,00,00,F0,9B,60,1D,
565166594,000000AD,false,Rx,0,8,84,EE,BF,FF,00,14,00,00,
565166848,000000AE,false,Rx,0,8,8A,0E,00,00,FF,3C,01,02,
565167076,000000B1,false,Rx,0,8,44,24,00,00,00,00,00,00,
565167356,00000394,false,Rx,0,8,3A,1D,00,1A,00,00,00,00,
565167589,00000086,false,Rx,0,8,96,0C,1E,20,00,00,00,00,
565167943,000000B2,false,Rx,0,8,00,00,00,00,00,00,00,00,
565168237,000000FD,false,Rx,0,8,B7,D5,1F,80,00,00,00,00,
565168470,00000116,false,Rx,0,8,D8,05,01,00,40,00,00,FF,
565168729,00000392,false,Rx,0,8,64,2A,00,00,00,00,00,04,
565169229,000003DB,false,Rx,0,8,50,00,01,04,07,24,01,A3,
565170665,00000385,false,Rx,0,8,20,00,22,00,00,00,02,00,
565170915,0000031E,false,Rx,0,8,9C,F6,3F,00,00,00,00,40,
565171143,0000032C,false,Rx,0,8,00,0F,00,00,98,24,00,00,
565171402,0000032F,false,Rx,0,8,00,FF,00,00,00,00,F8,00,
565171656,000003E8,false,Rx,0,8,00,02,00,00,00,20,00,00,
565171911,000003FE,false,Rx,0,8,00,00,00,00,00,00,00,00,
565173349,000000AF,false,Rx,0,4,83,79,00,00,00,00,00,00,
565173789,0000012B,false,Rx,0,8,5F,4A,40,28,00,00,00,00,
565175113,000000A7,false,Rx,0,8,91,FD,DF,7F,FD,FD,B7,3D,
565175348,000000A8,false,Rx,0,8,EE,BD,1D,A1,82,64,10,0E,
565182835,00000463,false,Rx,0,8,00,E0,03,00,00,00,00,00,
565182840,000000AD,false,Rx,0,8,D5,EF,BF,FF,00,14,00,00,
565182846,000000AE,false,Rx,0,8,68,0F,00,00,FF,3C,01,02,
565182851,00000128,false,Rx,0,3,84,19,2C,00,00,00,00,00,
565182856,0000012D,false,Rx,0,8,5D,80,7F,00,00,00,FE,3F,
565182861,000003C8,false,Rx,0,8,00,00,54,24,00,60,01,88,
565182867,00000086,false,Rx,0,8,F2,0D,1E,20,00,00,00,00,
565182872,000000B2,false,Rx,0,8,00,00,00,00,00,00,00,00,
565182877,00000101,false,Rx,0,8,8A,06,80,00,A2,01,00,00,
565182883,00000106,false,Rx,0,8,CD,06,64,00,02,00,00,00,
565182888,0000011E,false,Rx,0,8,A3,06,00,00,00,00,00,00,
565182893,000003DD,false,Rx,0,8,48,04,10,18,FE,4F,0A,00,
565182899,000003E5,false,Rx,0,8,7E,29,00,00,00,00,00,00,
565183324,000000AF,false,Rx,0,4,83,7A,35,01,00,00,00,00,
565184755,1B000015,true,Rx,0,8,15,00,04,02,01,00,00,00,
565184991,0000030B,false,Rx,0,8,10,2B,00,00,08,00,00,10,
565185311,000000A7,false,Rx,0,8,03,FE,9F,7F,FD,FD,B7,3D,
565185544,000000A8,false,Rx,0,8,23,BE,1D,61,82,64,14,0E,
565185789,00000107,false,Rx,0,8,00,00,F8,2C,01,00,C6,B6,
565186032,00000120,false,Rx,0,8,40,07,00,02,01,08,FF,01,
565186240,00000121,false,Rx,0,8,D5,07,00,C0,37,5A,7E,FE,
565186500,000000AD,false,Rx,0,8,48,E0,BF,FF,00,14,00,00,
565186741,00000147,false,Rx,0,8,00,00,00,00,F0,9B,60,1D,
565186983,000000AE,false,Rx,0,8,DF,00,00,00,FF,3C,01,02,
565187414,00000086,false,Rx,0,8,5E,0E,1E,20,00,00,00,00,
565187907,000000B2,false,Rx,0,8,00,00,00,00,00,00,00,00,
565188181,000000FD,false,Rx,0,8,A5,D6,1F,80,00,00,00,00,
565188435,00000116,false,Rx,0,8,74,06,01,00,40,00,00,FF,
565189223,00000365,false,Rx,0,8,AC,06,11,00,8D,0F,84,7A,
565193341,000000AF,false,Rx,0,4,83,7B,35,01,00,00,00,00,
565195112,000000A7,false,Rx,0,8,DD,FF,9F,7F,FD,FD,B7,3D,
565195321,000000A8,false,Rx,0,8,DC,BF,1D,61,82,64,1C,0E,
565201614,000000AD,false,Rx,0,8,86,E1,BF,FF,00,14,00,00,
565201619,000000AE,false,Rx,0,8,30,01,00,00,FF,3C,01,02,
565201625,00000128,false,Rx,0,3,80,00,00,00,00,00,00,00,
565201630,0000012D,false,Rx,0,8,0A,81,7F,00,00,00,FE,3F,
565201635,00000086,false,Rx,0,8,3A,0F,1E,20,00,00,00,00,
565201640,000000B2,false,Rx,0,8,00,00,00,00,00,00,00,00,
565201646,00000101,false,Rx,0,8,AA,07,80,00,A2,00,40,00,
565201651,00000106,false,Rx,0,8,3B,07,63,00,02,00,00,00,
565201656,00000040,false,Rx,0,8,F9,0C,00,44,C1,00,00,00,
565201662,0000011E,false,Rx,0,8,C7,07,00,00,00,00,00,00,
565201667,000003DE,false,Rx,0,8,FE,00,00,00,00,00,00,00,
565201673,000003D8,false,Rx,0,8,00,00,08,00,00,00,00,00,
565201679,00000520,false,Rx,0,8,58,05,00,08,00,0A,00,0A,
565202404,000003B5,false,Rx,0,8,87,FE,12,3E,0C,92,20,00,
565203211,000000AF,false,Rx,0,4,83,7C,00,00,00,00,00,00,
565203505,1B000053,true,Rx,0,8,53,00,04,01,01,00,00,00,
565203803,0000012B,false,Rx,0,8,FA,4B,40,28,00,00,00,00,
565205180,000000A7,false,Rx,0,8,9E,F0,9F,7F,FD,F9,B7,3D,
565205415,000000A8,false,Rx,0,8,F3,B0,1D,61,82,64,20,0E,
565205649,00000107,false,Rx,0,8,00,00,F8,2C,01,00,D2,B6,
565205877,00000120,false,Rx,0,8,19,08,00,02,01,08,FF,01,
565206111,00000121,false,Rx,0,8,2B,08,00,80,37,5A,7E,FE,
565206366,00000147,false,Rx,0,8,00,00,00,00,F0,9B,60,1D,
565206601,000000AD,false,Rx,0,8,62,E2,BF,FF,00,14,00,00,
565206856,000000AE,false,Rx,0,8,31,02,00,00,FF,3C,01,02,
565207445,00000086,false,Rx,0,8,78,00,1E,20,00,00,00,00,
565207876,000000B2,false,Rx,0,8,00,00,00,00,00,00,00,00,
565208150,000000FD,false,Rx,0,8,9F,D7,1F,80,00,00,00,00,
565208404,00000116,false,Rx,0,8,10,07,01,00,40,00,00,FF,
565213337,000000AF,false,Rx,0,4,83,7D,00,00,00,00,00,00,
565215152,000000A7,false,Rx,0,8,16,F1,9F,7F,FD,F9,B7,3D,
565215365,000000A8,false,Rx,0,8,B1,B1,1D,61,82,64,24,0E,
565221633,000000AD,false,Rx,0,8,E3,E3,BF,FF,00,14,00,00,
565221638,000000AE,false,Rx,0,8,14,03,00,00,FF,3C,01,02,
565221644,00000128,false,Rx,0,3,84,19,D3,00,00,00,00,00,
565221649,0000012D,false,Rx,0,8,18,82,7F,00,00,00,FE,3F,
565221654,00000086,false,Rx,0,8,1C,01,1E,20,00,00,00,00,
565221659,000000B2,false,Rx,0,8,00,00,00,00,00,00,00,00,
565221665,00000101,false,Rx,0,8,5C,08,80,00,A2,02,00,00,
565221670,00000106,false,Rx,0,8,79,08,63,00,02,00,00,00,
565221676,0000011E,false,Rx,0,8,85,08,00,00,00,00,00,00,
565221682,0000031E,false,Rx,0,8,9A,F7,3F,00,00,00,00,40,
565221688,0000032C,false,Rx,0,8,00,0F,00,00,98,24,00,00,
565221694,0000032F,false,Rx,0,8,00,FF,00,00,00,00,F8,00,
565223342,000000AF,false,Rx,0,4,83,7E,CA,01,00,00,00,00,
565223947,00000464,false,Rx,0,8,00,00,00,00,00,00,00,00,
565225167,000000A7,false,Rx,0,8,62,F2,9F,7F,FD,F9,B7,3D,
565225402,000000A8,false,Rx,0,8,22,B2,1D,61,82,64,1C,0E,
565225637,00000107,false,Rx,0,8,00,00,F8,2C,01,00,D2,B6,
565225885,00000120,false,Rx,0,8,4F,09,00,02,01,08,FF,01,
565226120,00000121,false,Rx,0,8,D4,09,00,80,37,5A,7E,FE,
565226353,00000147,false,Rx,0,8,00,00,00,00,F0,97,60,1D,
565226588,000000AD,false,Rx,0,8,41,E4,BF,FF,00,14,00,00,
565226843,000000AE,false,Rx,0,8,1A,04,00,00,FF,3C,01,02,
565227433,00000086,false,Rx,0,8,B0,02,1E,20,00,00,00,00,
565227800,000000B2,false,Rx,0,8,00,00,00,00,00,00,00,00,
565228062,000000FD,false,Rx,0,8,58,D8,1F,80,00,00,00,00,
565228317,00000116,false,Rx,0,8,52,08,01,00,40,00,00,FF,
565233328,000000AF,false,Rx,0,4,83,7F,CA,01,00,00,00,00,
565233789,0000012B,false,Rx,0,8,BF,4C,40,28,00,00,00,00,
565234974,0000030B,false,Rx,0,8,10,2C,00,00,08,00,00,10,
565235209,000000A7,false,Rx,0,8,E3,F3,9F,7F,FD,F9,B7,3D,
565235417,000000A8,false,Rx,0,8,85,B3,1D,61,82,64,10,0E,
565241650,000000AD,false,Rx,0,8,74,E5,BF,FF,00,14,00,00,
565241655,000000AE,false,Rx,0,8,E1,05,00,00,FF,3C,01,02,
565241660,00000128,false,Rx,0,3,80,00,00,00,00,00,00,00,
565241665,0000012D,false,Rx,0,8,89,83,7F,00,00,00,FE,3F,
565241671,00000086,false,Rx,0,8,D4,03,1E,20,00,00,00,00,
565241677,000000B2,false,Rx,0,8,00,00,00,00,00,00,00,00,
565241683,00000101,false,Rx,0,8,38,09,80,00,A2,02,00,00,
565241689,00000106,false,Rx,0,8,8F,09,64,00,02,00,00,00,
565241695,0000011E,false,Rx,0,8,E1,09,00,00,00,00,00,00,
565241701,00000365,false,Rx,0,8,AC,06,11,00,8C,0F,84,7A,
565243342,000000AF,false,Rx,0,4,83,70,00,00,00,00,00,00,
565245165,000000A7,false,Rx,0,8,D9,F4,9F,7F,FD,F9,B7,3D,
565245399,000000A8,false,Rx,0,8,81,B4,1D,61,82,64,0C,0E,
565245659,00000107,false,Rx,0,8,00,00,F8,2C,01,00,DE,B6,
565245895,00000120,false,Rx,0,8,94,0A,00,02,01,08,FF,01,
565246129,00000121,false,Rx,0,8,B1,0A,00,80,37,5A,7E,FE,
565246363,00000147,false,Rx,0,8,00,00,00,00,F0,97,60,1D,
565246597,000000AD,false,Rx,0,8,6A,E6,BF,FF,00,14,00,00,
565246853,00000391,false,Rx,0,8,11,89,21,45,00,27,00,22,
565247066,000000AE,false,Rx,0,8,BA,06,00,00,FF,3C,01,02,
565247322,000003BE,false,Rx,0,8,22,0A,E6,00,C8,80,00,80,
565247497,000003C0,false,Rx,0,4,80,0E,03,00,00,00,00,00,
565247740,000003C7,false,Rx,0,8,70,10,24,00,00,40,80,00,
565247957,00000086,false,Rx,0,8,C7,04,1E,20,00,00,00,00,
565248237,000000B2,false,Rx,0,8,00,00,00,00,00,00,00,00,
565248470,000000FD,false,Rx,0,8,6A,D9,1F,80,00,00,00,00,
565248708,00000040,false,Rx,0,8,9D,0D,00,44,C1,00,00,00,
565248956,000003D6,false,Rx,0,8,0D,00,00,00,00,00,30,00,
565249211,00000116,false,Rx,0,8,36,09,01,00,40,00,00,FF,
565249466,000005AC,false,Rx,0,8,00,00,FF,FE,FE,F7,07,00,
565253349,000000AF,false,Rx,0,4,83,71,00,00,00,00,00,00,
565255115,000000A7,false,Rx,0,8,A2,F5,9F,7F,FD,F9,B7,3D,
565255354,000000A8,false,Rx,0,8,43,B5,1D,61,82,64,10,0E,
565261679,000000AD,false,Rx,0,8,35,E7,BF,FF,00,14,00,00,
565261685,000000AE,false,Rx,0,8,28,07,00,00,FF,3C,01,02,
565261691,00000128,false,Rx,0,3,84,FF,00,00,00,00,00,00,
565261697,0000012D,false,Rx,0,8,06,84,7F,00,00,00,FE,3F,
565261702,00000086,false,Rx,0,8,A3,05,1E,20,00,00,00,00,
565261708,000000B2,false,Rx,0,8,00,00,00,00,00,00,00,00,
565261713,00000101,false,Rx,0,8,D1,0A,80,00,A2,00,00,00,
565261718,00000106,false,Rx,0,8,B1,0A,63,00,02,00,00,00,
565261724,0000011E,false,Rx,0,8,4D,0A,00,00,00,00,00,00,
565261729,16A95414,true,Rx,0,8,00,30,7E,C3,0F,00,00,00,
565263211,000000AF,false,Rx,0,4,83,72,35,01,00,00,00,00,
565263788,0000012B,false,Rx,0,8,EB,4D,40,28,00,00,00,00,
565265180,000000A7,false,Rx,0,8,31,F6,9F,7F,FD,F9,B7,3D,
565265389,000000A8,false,Rx,0,8,4B,B6,1D,61,82,64,14,0E,
565265649,00000107,false,Rx,0,8,00,00,F8,2C,01,00,E9,B6,
565265876,00000120,false,Rx,0,8,38,0B,00,02,01,08,FF,01,
565266111,00000121,false,Rx,0,8,27,0B,00,C0,37,5A,7E,FE,
565266366,00000147,false,Rx,0,8,00,00,00,00,F0,97,60,1D,
565266601,000000AD,false,Rx,0,8,A2,E8,BF,FF,00,14,00,00,
565266856,000000AE,false,Rx,0,8,5F,08,00,00,FF,3C,01,02,
565267084,000000B1,false,Rx,0,8,8B,25,00,00,00,00,00,00,
565267443,00000086,false,Rx,0,8,0F,06,1E,20,00,00,00,00,
565267934,000000B2,false,Rx,0,8,00,00,00,00,00,00,00,00,
565268228,000000FD,false,Rx,0,8,26,DA,1F,80,00,00,00,00,
565268461,00000116,false,Rx,0,8,9A,0A,01,00,40,00,00,FF,
565268724,00000392,false,Rx,0,8,00,2B,00,00,00,00,00,04,
565268945,0000065D,false,Rx,0,8,29,2F,2B,12,00,40,82,7B,
565269239,000003DB,false,Rx,0,8,50,00,01,04,07,24,01,A3,
565270342,000006B4,false,Rx,0,8,02,4D,35,33,31,32,37,37,
565270908,0000031E,false,Rx,0,8,D3,F8,3F,00,00,00,00,40,
565271142,0000032C,false,Rx,0,8,00,0F,00,00,98,24,00,00,
565271397,0000032F,false,Rx,0,8,00,FF,00,00,00,00,F8,00,
565273328,000000AF,false,Rx,0,4,83,73,35,01,00,00,00,00,
565273935,00000462,false,Rx,0,8,01,00,38,00,00,01,00,00,
565275152,000000A7,false,Rx,0,8,B8,F7,9F,7F,FD,F9,B7,3D,
565275386,000000A8,false,Rx,0,8,16,B7,1D,61,82,64,18,0E,
565281722,000000AD,false,Rx,0,8,A6,E9,BF,FF,00,14,00,00,
565281727,000000AE,false,Rx,0,8,B7,09,00,00,FF,3C,01,02,
565281733,00000128,false,Rx,0,3,80,00,00,00,00,00,00,00,
565281738,0000012D,false,Rx,0,8,79,85,7F,00,00,00,FE,3F,
565281743,000003C8,false,Rx,0,8,00,00,54,24,00,60,01,88,
565281748,00000086,false,Rx,0,8,6B,07,1E,20,00,00,00,00,
565281754,1B000077,true,Rx,0,8,77,00,04,02,01,00,00,00,
565281759,000000B2,false,Rx,0,8,00,00,00,00,00,00,00,00,
565281764,00000101,false,Rx,0,8,45,0B,80,00,A2,03,00,00,
565281770,00000106,false,Rx,0,8,D5,0B,63,00,02,00,00,00,
565281775,0000011E,false,Rx,0,8,29,0B,00,00,00,00,00,00,
565281780,000001AB,false,Rx,0,8,9A,08,04,02,18,00,04,00,
565281786,000003DD,false,Rx,0,8,48,04,10,18,FE,4F,0A,00,
565282768,000003E5,false,Rx,0,8,E6,2A,00,00,00,00,00,00,
565283348,000000AF,false,Rx,0,4,83,74,00,00,00,00,00,00,
565285020,0000030B,false,Rx,0,8,10,2D,00,00,08,00,00,10,
565285256,000000A7,false,Rx,0,8,F5,F8,9F,7F,FD,F9,B7,3D,
565285491,000000A8,false,Rx,0,8,34,B8,1D,61,82,64,18,0E,
565285730,00000107,false,Rx,0,8,00,00,F8,2C,01,00,E9,B6,
565285975,00000120,false,Rx,0,8,E2,0C,00,02,01,08,FF,01,
565286209,00000121,false,Rx,0,8,E2,0C,00,C0,37,5A,7E,FE,
565286442,000000AD,false,Rx,0,8,F7,EA,BF,FF,00,14,00,00,
565286711,00000147,false,Rx,0,8,00,00,00,00,F0,97,60,1D,
565286934,000000AE,false,Rx,0,8,CB,0A,00,00,FF,3C,01,02,
565287423,00000086,false,Rx,0,8,29,08,1E,20,00,00,00,00,
565288230,000000B2,false,Rx,0,8,00,00,00,00,00,00,00,00,
565288479,000000FD,false,Rx,0,8,09,DB,1F,80,00,00,00,00,
565288764,00000116,false,Rx,0,8,FE,0B,01,00,40,00,00,FF,
565289032,000001A2,false,Rx,0,8,92,05,00,00,00,00,00,00,
565289266,00000365,false,Rx,0,8,AC,06,11,00,8C,0F,84,7A,
565293349,000000AF,false,Rx,0,4,83,75,00,00,00,00,00,00,
565293788,0000012B,false,Rx,0,8,A4,4E,40,28,00,00,00,00,
565294228,000005F5,false,Rx,0,8,FE,07,F8,1F,00,FF,DF,FF,
565295127,000000A7,false,Rx,0,8,25,F9,9F,7F,FD,F9,B7,3D,
565295366,000000A8,false,Rx,0,8,46,B9,1D,61,82,64,18,0E,
565301717,000000AD,false,Rx,0,8,42,EB,BF,FF,00,14,00,00,
565301723,000000AE,false,Rx,0,8,69,0B,00,00,FF,3C,01,02,
565301728,00000128,false,Rx,0,3,84,2C,2B,00,00,00,00,00,
565301733,0000012D,false,Rx,0,8,C9,86,7F,00,00,00,FE,3F,
565301738,00000086,false,Rx,0,8,4D,09,1E,20,00,00,00,00,
565301744,000000B2,false,Rx,0,8,00,00,00,00,00,00,00,00,
565301749,00000101,false,Rx,0,8,2C,0C,80,00,A2,04,00,00,
565301754,00000106,false,Rx,0,8,54,0C,64,00,02,00,00,00,
565301760,00000040,false,Rx,0,8,31,0E,00,44,C1,00,00,00,
565301765,0000011E,false,Rx,0,8,3A,0C,00,00,00,00,00,00,
565301770,000003DE,false,Rx,0,8,FE,00,00,00,00,00,00,00,
565301776,000003D8,false,Rx,0,8,00,00,08,00,00,00,00,00,
565301781,1B000076,true,Rx,0,8,76,00,04,01,01,00,00,00,
565301786,17F00015,true,Rx,0,8,00,15,00,00,00,00,00,80,
565302402,000003B5,false,Rx,0,8,87,FE,12,3C,0C,92,20,00,
565303323,000000AF,false,Rx,0,4,83,76,07,01,00,00,00,00,
565305180,000000A7,false,Rx,0,8,C3,FA,9F,7F,FD,F9,A7,3D,
565305414,000000A8,false,Rx,0,8,BE,AA,1D,21,82,64,1C,0E,
565305649,00000107,false,Rx,0,8,00,00,F8,2C,01,00,F4,B6,
565305876,00000120,false,Rx,0,8,52,0D,00,02,01,08,FF,01,
565306111,00000121,false,Rx,0,8,CC,0D,00,80,37,5A,7E,FE,
565306366,00000147,false,Rx,0,8,00,00,00,00,F0,97,60,1D,
565306601,000000AD,false,Rx,0,8,2F,EC,BF,FF,00,14,00,00,
565306856,000000AE,false,Rx,0,8,D1,0C,00,00,FF,3C,01,02,
565307426,00000086,false,Rx,0,8,E1,0A,1E,20,00,00,00,00,
565307836,000000B2,false,Rx,0,8,00,00,00,00,00,00,00,00,
565308109,000000FD,false,Rx,0,8,90,DC,1F,80,00,00,00,00,
565308365,00000116,false,Rx,0,8,ED,0C,01,00,40,00,00,FF,
565313337,000000AF,false,Rx,0,4,83,77,07,01,00,00,00,00,
565315184,000000A7,false,Rx,0,8,AD,FB,9F,7F,FD,F9,A7,3D,
565315392,000000A8,false,Rx,0,8,4B,AB,1D,21,82,64,18,0E,
565321722,000000AD,false,Rx,0,8,5E,ED,BF,FF,00,14,00,00,
565321728,000000AE,false,Rx,0,8,B2,0D,00,00,FF,3C,01,02,
565321733,00000128,false,Rx,0,3,80,00,00,00,00,00,00,00,
565321738,0000012D,false,Rx,0,8,98,87,7F,00,00,00,FE,3F,
565321743,00000086,false,Rx,0,8,85,0B,1E,20,00,00,00,00,
565321749,000000B2,false,Rx,0,8,00,00,00,00,00,00,00,00,
565321754,00000101,false,Rx,0,8,32,0D,80,00,A2,03,00,00,
565321759,00000106,false,Rx,0,8,30,0D,64,00,02,00,00,00,
565321765,0000011E,false,Rx,0,8,5E,0D,00,00,00,00,00,00,
565321770,0000031E,false,Rx,0,8,EC,F9,3F,00,00,00,00,40,
565321775,0000032C,false,Rx,0,8,00,0F,00,00,98,24,00,00,
565321781,0000032F,false,Rx,0,8,00,FF,00,00,00,00,F8,00,
565323206,000000AF,false,Rx,0,4,83,78,00,00,00,00,00,00,
565323769,0000012B,false,Rx,0,8,8E,4F,40,28,00,00,00,00,
565324031,00000463,false,Rx,0,8,00,E0,03,00,00,00,00,00,
565325132,000000A7,false,Rx,0,8,12,FC,9F,7F,FD,F9,A7,3D,
565325367,000000A8,false,Rx,0,8,55,AC,1D,21,82,64,18,0E,
565325600,00000107,false,Rx,0,8,00,00,F8,2C,01,00,F4,B6,
565325856,00000120,false,Rx,0,8,39,0E,00,02,01,08,FF,01,
565326070,00000121,false,Rx,0,8,5F,0E,00,80,37,5A,7E,FE,
565326326,00000147,false,Rx,0,8,00,00,00,00,F0,97,60,1D,
565326560,000000AD,false,Rx,0,8,84,EE,BF,FF,00,14,00,00,
565326809,000000AE,false,Rx,0,8,8A,0E,00,00,FF,3C,01,02,
565327050,00000394,false,Rx,0,8,05,1E,00,1A,00,00,00,00,
565327444,00000086,false,Rx,0,8,96,0C,1E,20,00,00,00,00,
565327808,000000B2,false,Rx,0,8,00,00,00,00,00,00,00,00,
565328091,000000FD,false,Rx,0,8,19,DD,1F,80,00,00,00,00,
565328324,00000116,false,Rx,0,8,89,0D,01,00,40,00,00,FF,
565333336,000000AF,false,Rx,0,4,83,79,00,00,00,00,00,00,
565335013,0000030B,false,Rx,0,8,10,2E,00,00,08,00,00,10,
565335247,000000A7,false,Rx,0,8,02,FD,9F,7F,FD,F9,B7,3D,
565335483,000000A8,false,Rx,0,8,AC,BD,1D,21,82,64,14,0E,
565341737,000000AD,false,Rx,0,8,D5,EF,BF,FF,00,14,00,00,
565341742,000000AE,false,Rx,0,8,68,0F,00,00,FF,3C,01,02,
565341748,00000128,false,Rx,0,3,84,2C,D4,00,00,00,00,00,
565341753,0000012D,false,Rx,0,8,57,88,7F,00,00,00,FE,3F,
565341758,00000086,false,Rx,0,8,F2,0D,1E,20,00,00,00,00,
565341763,000000B2,false,Rx,0,8,00,00,00,00,00,00,00,00,
565341769,00000101,false,Rx,0,8,9F,0E,80,00,A2,00,40,00,
565341774,00000106,false,Rx,0,8,0E,0E,63,00,02,00,00,00,
565341780,0000011E,false,Rx,0,8,F2,0E,00,00,00,00,00,00,
565341785,00000365,false,Rx,0,8,AC,06,11,00,8C,0F,84,7A,
565343363,000000AF,false,Rx,0,4,83,7A,F8,01,00,00,00,00,
565344231,000005F7,false,Rx,0,8,00,FF,FB,DF,FF,FE,FF,FF,
565345171,000000A7,false,Rx,0,8,89,FE,9F,7F,FD,F9,B7,3D,
565345406,000000A8,false,Rx,0,8,1E,BE,1D,21,82,64,14,0E,
565345660,00000107,false,Rx,0,8,00,00,F8,2C,01,00,00,B7,
565345887,00000120,false,Rx,0,8,EC,0F,00,02,01,08,FF,01,
565346123,00000121,false,Rx,0,8,D4,0F,00,C0,37,5A,7E,FE,
565346356,00000147,false,Rx,0,8,00,00,00,00,F0,97,60,1D,
565346586,000000AD,false,Rx,0,8,48,E0,BF,FF,00,14,00,00,
565346849,00000391,false,Rx,0,8,11,89,21,44,00,27,00,22,
565347083,000000AE,false,Rx,0,8,DF,00,00,00,FF,3C,01,02,
565347318,000003BE,false,Rx,0,8,54,0B,E6,00,C8,80,00,80,
565347551,000003C7,false,Rx,0,8,01,10,24,00,00,40,80,00,
565347761,17331110,true,Rx,0,3,34,44,0A,00,00,00,00,00,
565347981,00000086,false,Rx,0,8,5E,0E,1E,20,00,00,00,00,
565348230,000000B2,false,Rx,0,8,00,00,00,00,00,00,00,00,
565348489,000000FD,false,Rx,0,8,E6,DE,1F,80,00,00,00,00,
565348731,00000040,false,Rx,0,8,55,0F,00,44,C1,00,00,00,
565348895,000003C0,false,Rx,0,4,35,0F,03,00,00,00,00,00,
565349148,00000116,false,Rx,0,8,25,0E,01,00,40,00,00,FF,
565349402,000003D6,false,Rx,0,8,0E,00,00,00,00,00,30,00,
565349657,000005AC,false,Rx,0,8,00,00,FF,FE,FE,F7,07,00,
565350576,000005F0,false,Rx,0,8,FD,00,64,00,00,64,00,00,
565353337,000000AF,false,Rx,0,4,83,7B,F8,01,00,00,00,00,
565353801,0000012B,false,Rx,0,8,05,40,40,28,00,00,00,00,
565355104,000000A7,false,Rx,0,8,57,FF,9F,7F,FD,F9,B7,3D,
565355339,000000A8,false,Rx,0,8,D9,BF,1D,21,82,64,18,0E,
565361755,000000AD,false,Rx,0,8,86,E1,BF,FF,00,14,00,00,
565361761,1B000010,true,Rx,0,8,10,00,04,05,11,00,00,00,
565361766,000000AE,false,Rx,0,8,30,01,00,00,FF,3C,01,02,
565361771,00000128,false,Rx,0,3,80,00,00,00,00,00,00,00,
565361776,0000012D,false,Rx,0,8,F2,89,7F,00,00,00,FE,3F,
565361782,00000086,false,Rx,0,8,3A,0F,1E,20,00,00,00,00,
565361787,000000B2,false,Rx,0,8,00,00,00,00,00,00,00,00,
565361792,00000101,false,Rx,0,8,4F,0F,80,00,A2,02,00,00,
565361798,00000106,false,Rx,0,8,6A,0F,63,00,02,00,00,00,
565361803,0000011E,false,Rx,0,8,96,0F,00,00,00,00,00,00,
565361808,16A95414,true,Rx,0,8,00,30,7E,C3,0F,00,00,00,
565363323,000000AF,false,Rx,0,4,83,7C,00,00,00,00,00,00,
565365179,000000A7,false,Rx,0,8,87,F0,DF,7F,FD,F9,B7,3D,
565365413,000000A8,false,Rx,0,8,17,B0,3D,61,82,64,18,0E,
565365643,00000107,false,Rx,0,8,00,00,F8,2C,01,00,0B,B7,
565365903,00000120,false,Rx,0,8,26,00,00,02,01,08,FF,01,
565366137,00000121,false,Rx,0,8,1A,00,00,C0,37,5A,7E,FE,
565366371,00000147,false,Rx,0,8,00,00,00,00,F0,97,60,1D,
565366605,000000AD,false,Rx,0,8,62,E2,BF,FF,00,14,00,00,
565366876,000000AE,false,Rx,0,8,31,02,00,00,FF,3C,01,02,
565367110,000000B1,false,Rx,0,8,76,26,00,00,00,00,00,00,
565367443,00000086,false,Rx,0,8,78,00,1E,20,00,00,00,00,
565367935,000000B2,false,Rx,0,8,00,00,00,00,00,00,00,00,
565368228,000000FD,false,Rx,0,8,71,DF,1F,80,00,00,00,00,
565368483,00000116,false,Rx,0,8,41,0F,01,00,40,00,00,FF,
565368744,00000392,false,Rx,0,8,13,2C,00,00,00,00,00,04,
565369222,000003DB,false,Rx,0,8,50,00,01,04,07,24,01,A3,
565370915,0000031E,false,Rx,0,8,D8,FA,3F,00,00,00,00,40,
565371148,0000032C,false,Rx,0,8,00,0F,00,00,98,24,00,00,
565371404,0000032F,false,Rx,0,8,00,FF,00,00,00,00,F8,00,
565373337,000000AF,false,Rx,0,4,83,7D,00,00,00,00,00,00,
565373946,00000464,false,Rx,0,8,00,00,00,00,00,00,00,00,
565375184,000000A7,false,Rx,0,8,16,F1,9F,7F,FD,F9,B7,3D,
565375419,000000A8,false,Rx,0,8,CE,B1,1D,61,82,64,1C,0E,
565381758,000000AD,false,Rx,0,8,E3,E3,BF,FF,00,14,00,00,
565381763,000000AE,false,Rx,0,8,14,03,00,00,FF,3C,01,02,
565381769,00000128,false,Rx,0,3,84,FF,01,00,00,00,00,00,
565381774,0000012D,false,Rx,0,8,7B,8A,7F,00,00,00,FE,3F,
565381779,000003C8,false,Rx,0,8,00,00,54,24,00,60,01,88,
565381784,00000086,false,Rx,0,8,1C,01,1E,20,00,00,00,00,
565381790,000000B2,false,Rx,0,8,00,00,00,00,00,00,00,00,
565381795,00000101,false,Rx,0,8,77,00,80,00,A2,05,00,00,
565381800,00000106,false,Rx,0,8,BA,00,64,00,02,00,00,00,
565381806,0000011E,false,Rx,0,8,D4,00,00,00,00,00,00,00,
565381811,000003DD,false,Rx,0,8,48,04,10,18,FE,4F,0A,00,
565382845,000003E5,false,Rx,0,8,6D,2B,00,00,00,00,00,00,
565383191,000000AF,false,Rx,0,4,83,7E,51,01,00,00,00,00,
565383801,0000012B,false,Rx,0,8,77,41,40,28,00,00,00,00,
565384669,1B000015,true,Rx,0,8,15,00,04,02,01,00,00,00,
565385006,0000030B,false,Rx,0,8,10,2F,00,00,08,00,00,10,
565385241,000000A7,false,Rx,0,8,62,F2,9F,7F,FD,F9,B7,3D,
565385475,000000A8,false,Rx,0,8,22,B2,1D,61,82,64,1C,0E,
565385716,00000107,false,Rx,0,8,00,00,F8,2C,01,00,0B,B7,
565385938,00000120,false,Rx,0,8,D3,01,00,02,01,08,FF,01,
565386172,00000121,false,Rx,0,8,76,01,00,C0,37,5A,7E,FE,
565386428,00000147,false,Rx,0,8,00,00,00,00,F0,97,60,1D,
565386663,000000AD,false,Rx,0,8,41,E4,BF,FF,00,14,00,00,
565386916,000000AE,false,Rx,0,8,1A,04,00,00,FF,3C,01,02,
565387447,00000086,false,Rx,0,8,B0,02,1E,20,00,00,00,00,
565387934,000000B2,false,Rx,0,8,00,00,00,00,00,00,00,00,
565388228,000000FD,false,Rx,0,8,0B,D0,1F,80,00,00,00,00,
565388482,00000116,false,Rx,0,8,03,00,01,00,40,00,00,FF,
565389210,00000365,false,Rx,0,8,AC,06,11,00,8C,0F,84,7A,
565393328,000000AF,false,Rx,0,4,83,7F,51,01,00,00,00,00,
565395120,000000A7,false,Rx,0,8,E3,F3,9F,7F,FD,F9,B7,3D,
565395355,000000A8,false,Rx,0,8,CD,B3,1D,61,82,64,1C,0E,
565395756,17331110,true,Rx,0,5,44,51,0F,1C,12,00,00,00,
565401767,000000AD,false,Rx,0,8,74,E5,BF,FF,00,14,00,00,
565401773,000000AE,false,Rx,0,8,E1,05,00,00,FF,3C,01,02,
565401778,00000128,false,Rx,0,3,80,00,00,00,00,00,00,00,
565401783,0000012D,false,Rx,0,8,60,8B,7F,00,00,00,FE,3F,
565401789,00000086,false,Rx,0,8,D4,03,1E,20,00,00,00,00,
565401794,000000B2,false,Rx,0,8,00,00,00,00,00,00,00,00,
565401799,00000101,false,Rx,0,8,13,01,80,00,A2,05,00,00,
565401805,00000040,false,Rx,0,8,17,00,00,44,C1,00,00,00,
565401810,00000106,false,Rx,0,8,4C,01,63,00,02,00,00,00,
565401815,0000011E,false,Rx,0,8,B0,01,00,00,00,00,00,00,
565401821,000003DE,false,Rx,0,8,FE,00,00,00,00,00,00,00,
565401834,000003D8,false,Rx,0,8,00,00,08,00,00,00,00,00,
565401839,00000520,false,Rx,0,8,F4,06,00,08,00,0A,00,0A,
565402330,000003B5,false,Rx,0,8,87,FE,12,3C,0C,92,20,00,
565402922,000005EA,false,Rx,0,8,00,00,00,36,F8,FE,FB,FF,
565403335,000000AF,false,Rx,0,4,83,70,00,00,00,00,00,00,
565403630,1B000053,true,Rx,0,8,53,00,04,01,01,00,00,00,
565403963,1A55552B,true,Rx,0,8,00,00,00,00,00,FE,F8,03,
565405103,000000A7,false,Rx,0,8,D9,F4,9F,7F,FD,F9,B7,3D,
565405338,000000A8,false,Rx,0,8,61,B4,1D,61,82,64,1C,0E,
565405593,00000107,false,Rx,0,8,00,00,F8,2C,01,00,16,B7,
565405819,00000120,false,Rx,0,8,2B,02,00,02,01,08,FF,01,
565406063,00000121,false,Rx,0,8,C4,02,00,80,37,5A,7E,FE,
565406296,00000147,false,Rx,0,8,00,00,00,00,F0,97,60,1D,
565406530,000000AD,false,Rx,0,8,6A,E6,BF,FF,00,14,00,00,
565406776,000000AE,false,Rx,0,8,BA,06,00,00,FF,3C,01,02,
565407428,00000086,false,Rx,0,8,C7,04,1E,20,00,00,00,00,
565407849,000000B2,false,Rx,0,8,00,00,00,00,00,00,00,00,
565408123,000000FD,false,Rx,0,8,01,D1,1F,80,00,00,00,00,
565408377,00000116,false,Rx,0,8,67,01,01,00,40,00,00,FF,
565413323,000000AF,false,Rx,0,4,83,71,00,00,00,00,00,00,
565413768,0000012B,false,Rx,0,8,D3,42,40,28,00,00,00,00,
565415114,000000A7,false,Rx,0,8,A2,F5,9F,7F,FD,F9,B7,3D,
565415348,000000A8,false,Rx,0,8,33,B5,1D,61,82,64,18,0E,
565421835,000000AD,false,Rx,0,8,35,E7,BF,FF,00,14,00,00,
565421840,000000AE,false,Rx,0,8,28,07,00,00,FF,3C,01,02,
565421845,00000128,false,Rx,0,3,84,0E,2C,00,00,00,00,00,
565421850,0000012D,false,Rx,0,8,52,8C,7F,00,00,00,FE,3F,
565421856,00000086,false,Rx,0,8,A3,05,1E,20,00,00,00,00,
565421861,000000B2,false,Rx,0,8,00,00,00,00,00,00,00,00,
565421866,00000101,false,Rx,0,8,BF,02,80,00,A2,05,00,00,
565421872,00000106,false,Rx,0,8,E0,02,63,00,02,00,00,00,
565421877,0000011E,false,Rx,0,8,1C,02,00,00,00,00,00,00,
565421882,0000031E,false,Rx,0,8,FE,FB,3F,00,00,00,00,40,
565421888,0000032C,false,Rx,0,8,00,0F,00,00,98,24,00,00,
565421893,0000032F,false,Rx,0,8,00,FF,00,00,00,00,F8,00,
565423331,000000AF,false,Rx,0,4,83,72,22,01,00,00,00,00,
565423943,00000462,false,Rx,0,8,82,80,93,5A,C1,81,B4,00,
565425118,000000A7,false,Rx,0,8,31,F6,9F,7F,FD,F9,B7,3D,
565425358,000000A8,false,Rx,0,8,76,B6,1D,21,82,64,14,0E,
565425613,00000107,false,Rx,0,8,00,00,F8,2C,01,00,16,B7,
565425847,00000120,false,Rx,0,8,F9,03,00,02,01,08,FF,01,
565426082,00000121,false,Rx,0,8,36,03,00,80,37,5A,7E,FE,
565426316,00000147,false,Rx,0,8,00,00,00,00,F0,97,60,1D,
565426545,000000AD,false,Rx,0,8,A2,E8,BF,FF,00,14,00,00,
565426792,000000AE,false,Rx,0,8,5F,08,00,00,FF,3C,01,02,
565427435,00000086,false,Rx,0,8,0F,06,1E,20,00,00,00,00,
565427780,000000B2,false,Rx,0,8,00,00,00,00,00,00,00,00,
565428062,000000FD,false,Rx,0,8,CE,D2,1F,80,00,00,00,00,
565428318,00000116,false,Rx,0,8,CB,02,01,00,40,00,00,FF,
565433328,000000AF,false,Rx,0,4,83,73,22,01,00,00,00,00,
565434983,0000030B,false,Rx,0,8,10,20,00,00,08,00,00,10,
