Time Stamp,ID,Extended,Dir,Bus,LEN,D1,D2,D3,D4,D5,D6,D7,D8
61136147,00000106,false,Rx,0,8,C6,0C,63,00,02,00,00,00,
61136152,00000128,false,Rx,0,3,80,00,00,00,00,00,00,00,
61136157,0000011E,false,Rx,0,8,3A,0C,00,00,00,00,00,00,
61136163,0000012D,false,Rx,0,8,7B,8A,7F,00,00,00,FE,3F,
61136168,000003C0,false,Rx,0,4,BF,0B,03,00,00,00,00,00,
61136173,000003D6,false,Rx,0,8,07,00,00,00,00,00,30,00,
61136179,000000A7,false,Rx,0,8,95,5B,60,80,FD,09,48,3D,
61136185,000000A8,false,Rx,0,8,16,4B,1D,21,83,64,E8,0C,
61136191,000000AF,false,Rx,0,4,83,7C,00,00,00,00,00,00,
61136196,1B000053,true,Rx,0,8,53,00,04,01,01,00,00,00,
61136203,000005F0,false,Rx,0,8,FD,00,64,00,00,64,00,00,
61136208,00000365,false,Rx,0,8,AA,06,27,00,94,0F,9C,7A,
61138209,00000086,false,Rx,0,8,91,0A,04,20,00,00,00,00,
61139363,000000B2,false,Rx,0,8,00,00,00,00,00,00,00,00,
61139598,000000AD,false,Rx,0,8,41,E4,BF,FF,00,14,00,00,
61139832,000000FD,false,Rx,0,8,90,DC,1F,80,00,00,00,00,
61140067,000000AE,false,Rx,0,8,1A,04,00,00,FF,3C,01,02,
61140316,00000116,false,Rx,0,8,87,0C,01,04,00,00,00,FF,
61142474,000000AF,false,Rx,0,4,83,7D,00,00,00,00,00,00,
61142906,000000A7,false,Rx,0,8,01,5C,A0,80,FD,09,48,3D,
61143141,000000A8,false,Rx,0,8,0D,4C,1D,61,83,64,EC,0C,
61143373,00000107,false,Rx,0,8,00,00,F8,0B,01,00,8B,C9,
61143609,00000120,false,Rx,0,8,39,0E,00,02,01,08,FF,01,
61143842,00000121,false,Rx,0,8,F6,0E,00,00,36,50,7E,FE,
61144098,00000147,false,Rx,0,8,00,00,00,00,F0,C3,00,1D,
61145045,0000030B,false,Rx,0,8,10,2C,00,00,08,00,00,10,
61146014,000005AC,false,Rx,0,8,00,00,FF,FE,FE,F7,07,00,
61148021,1B000015,true,Rx,0,8,15,00,04,02,01,00,00,00,
61148267,00000086,false,Rx,0,8,F5,0B,04,20,00,00,00,00,
61149366,000000B2,false,Rx,0,8,00,00,00,00,00,00,00,00,
61149601,000000AD,false,Rx,0,8,74,E5,BF,FF,00,14,00,00,
61149835,00000101,false,Rx,0,8,A9,0D,80,01,A2,05,00,00,
61150069,000000AE,false,Rx,0,8,E1,05,00,00,FF,3C,01,02,
61156162,00000106,false,Rx,0,8,A2,0D,63,00,02,00,00,00,
61156168,00000128,false,Rx,0,3,84,EC,38,00,00,00,00,00,
61156173,0000011E,false,Rx,0,8,5E,0D,00,00,00,00,00,00,
61156178,0000012D,false,Rx,0,8,60,8B,7F,00,00,00,FE,3F,
61156184,0000012B,false,Rx,0,8,B7,46,40,28,00,00,00,00,
61156190,1B000076,true,Rx,0,8,76,00,04,01,01,00,0A,00,
61156196,000003B5,false,Rx,0,8,86,FE,12,39,0C,7C,20,00,
61156202,000000A7,false,Rx,0,8,F1,5D,A0,80,FD,09,48,3D,
61156208,000000A8,false,Rx,0,8,15,4D,3D,61,83,64,F4,0C,
61156213,000000AF,false,Rx,0,4,83,7E,00,00,00,00,00,00,
61156218,1B000010,true,Rx,0,8,10,00,04,05,11,00,00,00,
61156224,16A95414,true,Rx,0,8,00,60,7E,C3,0F,00,00,00,
61158209,00000086,false,Rx,0,8,E6,0C,04,20,00,00,00,00,
61159383,000000B2,false,Rx,0,8,00,00,00,00,00,00,00,00,
61159618,000000AD,false,Rx,0,8,6A,E6,BF,FF,00,14,00,00,
61159853,000000FD,false,Rx,0,8,19,DD,1F,80,00,00,00,00,
61160088,000000AE,false,Rx,0,8,BA,06,00,00,FF,3C,01,02,
61160351,00000116,false,Rx,0,8,E3,0D,01,04,00,00,00,FF,
61160580,00000392,false,Rx,0,8,35,22,00,00,00,00,00,04,
61162015,000000A7,false,Rx,0,8,7A,5E,A0,80,FD,09,48,3D,
61162260,00000040,false,Rx,0,8,F9,0C,00,44,C1,00,00,00,
61162484,000000A8,false,Rx,0,8,EF,4E,3D,61,83,64,F8,0C,
61162633,000000AF,false,Rx,0,4,83,7F,D4,01,00,00,00,00,
61162893,00000107,false,Rx,0,8,00,00,F8,0B,01,00,8B,C9,
61163128,00000120,false,Rx,0,8,EC,0F,00,02,01,08,FF,01,
61163353,00000121,false,Rx,0,8,40,0F,00,00,36,50,7E,FE,
61163608,00000147,false,Rx,0,8,00,00,00,00,F0,C3,00,1D,
61163862,000003D8,false,Rx,0,8,00,00,08,00,00,00,00,00,
61164268,00000520,false,Rx,0,8,B6,09,00,08,00,0A,00,0A,
61166007,000003DB,false,Rx,0,8,50,10,01,04,07,24,01,A2,
61168234,00000086,false,Rx,0,8,82,0D,04,20,00,00,00,00,
61169396,000000B2,false,Rx,0,8,00,00,00,00,00,00,00,00,
61169631,000000AD,false,Rx,0,8,35,E7,BF,FF,00,14,00,00,
61169864,00000101,false,Rx,0,8,05,0E,80,01,A2,05,00,00,
61170108,000000AE,false,Rx,0,8,28,07,00,00,FF,3C,01,02,
61176198,00000106,false,Rx,0,8,0E,0E,63,00,02,00,00,00,
61176204,00000128,false,Rx,0,3,80,00,00,00,00,00,00,00,
61176209,0000011E,false,Rx,0,8,F2,0E,00,00,00,00,00,00,
61176214,0000012D,false,Rx,0,8,52,8C,7F,00,00,00,FE,3F,
61176220,00000464,false,Rx,0,8,08,4C,00,00,00,00,00,00,
61176225,000000A7,false,Rx,0,8,A4,5F,A0,80,FD,09,48,3D,
61176230,000000A8,false,Rx,0,8,60,4F,3D,61,83,64,F8,0C,
61176236,000000AF,false,Rx,0,4,83,70,D4,01,00,00,00,00,
61176241,000003DD,false,Rx,0,8,48,04,10,00,FE,43,00,00,
61176464,0000031E,false,Rx,0,8,F4,FD,3F,00,00,00,00,40,
61176697,0000032C,false,Rx,0,8,00,0F,00,00,98,24,00,00,
61176953,0000032F,false,Rx,0,8,00,FF,00,00,00,00,7A,01,
61178220,00000086,false,Rx,0,8,2E,0E,04,20,00,00,00,00,
61179383,000000B2,false,Rx,0,8,00,00,00,00,00,00,00,00,
61179618,000000AD,false,Rx,0,8,A2,E8,BF,FF,00,14,00,00,
61179848,000000FD,false,Rx,0,8,E6,DE,1F,80,00,00,00,00,
61180108,000000AE,false,Rx,0,8,5F,08,00,00,FF,3C,01,02,
61180342,00000116,false,Rx,0,8,4F,0E,01,04,00,00,00,FF,
61180577,000000B1,false,Rx,0,8,6E,2D,00,00,00,00,00,00,
61180812,0000012B,false,Rx,0,8,92,47,40,28,00,00,00,00,
61181067,000003E5,false,Rx,0,8,6A,24,00,00,00,00,00,00,
61182033,000000A7,false,Rx,0,8,6D,50,A0,80,FD,09,48,3D,
61182273,000000A8,false,Rx,0,8,08,40,3D,61,83,64,F8,0C,
61182495,00000107,false,Rx,0,8,00,00,F8,0B,01,00,9D,C9,
61182672,000000AF,false,Rx,0,4,83,71,00,00,00,00,00,00,
61182906,00000120,false,Rx,0,8,26,00,00,02,01,08,FF,01,
61183140,00000121,false,Rx,0,8,8E,00,00,00,36,50,7E,FE,
61183382,00000147,false,Rx,0,8,00,00,00,00,F0,C3,00,1D,
61186013,00000365,false,Rx,0,8,AB,06,26,00,94,0F,9C,7A,
61188225,00000086,false,Rx,0,8,4A,0F,04,20,00,00,00,00,
61189354,000000B2,false,Rx,0,8,00,00,00,00,00,00,00,00,
61189590,000000AD,false,Rx,0,8,A6,E9,BF,FF,00,14,00,00,
61189824,00000101,false,Rx,0,8,61,0F,80,01,A2,05,00,00,
61190059,000000AE,false,Rx,0,8,B7,09,00,00,FF,3C,01,02,
61196254,00000106,false,Rx,0,8,6A,0F,63,00,02,00,00,00,
61196259,00000128,false,Rx,0,3,84,EC,C7,00,00,00,00,00,
61196264,0000011E,false,Rx,0,8,96,0F,00,00,00,00,00,00,
61196269,0000012D,false,Rx,0,8,3E,8D,7F,00,00,00,FE,3F,
61196275,000006B2,false,Rx,0,8,75,D1,9D,A3,29,FD,46,27,
61196280,000003C8,false,Rx,0,8,00,00,54,24,00,60,11,94,
61196285,1B000077,true,Rx,0,8,77,00,04,02,01,00,00,00,
61196291,000000A7,false,Rx,0,8,E5,51,A0,80,FD,09,48,3D,
61196296,000000A8,false,Rx,0,8,07,41,3D,21,83,64,F4,0C,
61196301,000000AF,false,Rx,0,4,83,72,00,00,00,00,00,00,
61196306,0000030B,false,Rx,0,8,10,2D,00,00,08,00,00,10,
61196312,000003DE,false,Rx,0,8,FE,00,00,00,00,00,00,00,
61198223,00000086,false,Rx,0,8,08,00,04,20,00,00,00,00,
61199328,000000B2,false,Rx,0,8,00,00,00,00,00,00,00,00,
61199571,000000AD,false,Rx,0,8,F7,EA,BF,FF,00,14,00,00,
61199799,000000FD,false,Rx,0,8,71,DF,1F,80,00,00,00,00,
61200059,000000AE,false,Rx,0,8,CB,0A,00,00,FF,3C,01,02,
61200288,00000116,false,Rx,0,8,2B,0F,01,04,00,00,00,FF,
61202060,000000A7,false,Rx,0,8,91,52,A0,80,FD,09,48,3D,
61202316,000000A8,false,Rx,0,8,D3,42,3D,21,83,64,F0,0C,
61202480,000000AF,false,Rx,0,4,83,73,2B,01,00,00,00,00,
61202714,00000107,false,Rx,0,8,00,00,F8,0B,01,00,9D,C9,
61202949,00000120,false,Rx,0,8,D3,01,00,02,01,08,FF,01,
61203183,00000121,false,Rx,0,8,E2,01,00,00,36,50,7E,FE,
61203432,00000147,false,Rx,0,8,00,00,00,00,F0,C3,00,1D,
61203668,00000391,false,Rx,0,8,17,89,23,5D,00,27,00,22,
61203902,000003BE,false,Rx,0,8,22,0A,E6,00,C8,80,00,80,
61204157,000003C7,false,Rx,0,8,01,10,24,00,00,40,80,00,
61208226,00000086,false,Rx,0,8,6C,01,04,20,00,00,00,00,
61209382,000000B2,false,Rx,0,8,00,00,00,00,00,00,00,00,
61209617,000000AD,false,Rx,0,8,42,EB,BF,FF,00,14,00,00,
61209877,00000101,false,Rx,0,8,23,00,80,01,A2,05,00,00,
61210112,000000AE,false,Rx,0,8,69,0B,00,00,FF,3C,01,02,
61216253,00000106,false,Rx,0,8,28,00,63,00,02,00,00,00,
61216258,00000128,false,Rx,0,3,80,00,00,00,00,00,00,00,
61216263,0000011E,false,Rx,0,8,D4,00,00,00,00,00,00,00,
61216268,0000012D,false,Rx,0,8,0E,8E,7F,00,00,00,FE,3F,
61216274,0000012B,false,Rx,0,8,47,48,40,28,00,00,00,00,
61216279,000006B4,false,Rx,0,8,02,4D,35,33,31,32,37,37,
61216284,000000A7,false,Rx,0,8,10,53,A0,80,FD,09,48,3D,
61216290,00000040,false,Rx,0,8,9D,0D,00,44,C1,00,00,00,
61216295,000000A8,false,Rx,0,8,94,43,3D,21,83,64,EC,0C,
61216300,000000AF,false,Rx,0,4,83,74,2B,01,00,00,00,00,
61218228,00000086,false,Rx,0,8,C0,02,04,20,00,00,00,00,
61219308,000000B2,false,Rx,0,8,00,00,00,00,00,00,00,00,
61219551,000000AD,false,Rx,0,8,2F,EC,BF,FF,00,14,00,00,
61219785,000000FD,false,Rx,0,8,0B,D0,1F,80,00,00,00,00,
61220020,000000AE,false,Rx,0,8,D1,0C,00,00,FF,3C,01,02,
61220268,00000116,false,Rx,0,8,69,00,01,04,00,00,00,FF,
61221183,00000462,false,Rx,0,8,00,00,38,00,00,01,00,00,
61221987,000000A7,false,Rx,0,8,2A,54,A0,80,FD,09,48,3D,
61222236,000000A8,false,Rx,0,8,95,44,3D,61,83,64,F4,0C,
61222459,00000107,false,Rx,0,8,00,00,F8,0B,01,00,AF,C9,
61222634,000000AF,false,Rx,0,4,83,75,00,00,00,00,00,00,
61222868,00000120,false,Rx,0,8,2B,02,00,02,01,08,FF,01,
61223101,00000121,false,Rx,0,8,6D,02,00,00,36,50,7E,FE,
61223354,00000147,false,Rx,0,8,00,00,00,00,F0,BF,00,1D,
61226365,0000031E,false,Rx,0,8,81,FE,3F,00,00,00,00,40,
61226599,0000032C,false,Rx,0,8,00,0F,00,00,98,24,00,00,
61226855,0000032F,false,Rx,0,8,00,FF,00,00,00,00,7A,01,
61228225,00000086,false,Rx,0,8,A4,03,04,20,00,00,00,00,
61229366,000000B2,false,Rx,0,8,00,00,00,00,00,00,00,00,
61229600,000000AD,false,Rx,0,8,5E,ED,BF,FF,00,14,00,00,
61229835,00000101,false,Rx,0,8,CD,01,80,01,A2,01,00,00,
61230070,000000AE,false,Rx,0,8,B2,0D,00,00,FF,3C,01,02,
61236244,00000106,false,Rx,0,8,4C,01,63,00,02,00,00,00,
61236249,00000128,false,Rx,0,3,84,FF,0E,00,00,00,00,00,
61236255,0000011E,false,Rx,0,8,B0,01,00,00,00,00,00,00,
61236260,0000012D,false,Rx,0,8,F9,8F,7F,00,00,00,FE,3F,
61236265,000003C0,false,Rx,0,4,C5,0C,03,00,00,00,00,00,
61236270,000003D6,false,Rx,0,8,08,00,00,00,00,00,30,00,
61236276,000000A7,false,Rx,0,8,51,55,A0,80,FD,09,48,3D,
61236281,000000A8,false,Rx,0,8,FF,45,3D,61,83,64,F4,0C,
61236286,000000AF,false,Rx,0,4,83,76,00,00,00,00,00,00,
61236291,00000365,false,Rx,0,8,AB,06,26,00,93,0F,9C,7A,
61238219,00000086,false,Rx,0,8,B7,04,04,20,00,00,00,00,
61239352,000000B2,false,Rx,0,8,00,00,00,00,00,00,00,00,
61239586,000000AD,false,Rx,0,8,84,EE,BF,FF,00,14,00,00,
61239819,000000FD,false,Rx,0,8,01,D1,1F,80,00,00,00,00,
61240054,000000AE,false,Rx,0,8,8A,0E,00,00,FF,3C,01,02,
61240305,00000116,false,Rx,0,8,0D,01,01,04,00,00,00,FF,
61240547,00000394,false,Rx,0,8,36,13,00,1A,00,00,00,00,
61240782,0000012B,false,Rx,0,8,4F,49,40,28,00,00,00,00,
61241036,00000569,false,Rx,0,8,00,00,00,3E,F8,10,00,00,
61241982,000000A7,false,Rx,0,8,22,56,A0,80,FD,09,58,3D,
61242232,000000A8,false,Rx,0,8,55,56,3D,61,83,64,F0,0C,
61242453,00000107,false,Rx,0,8,00,00,F8,0B,01,00,AF,C9,
61242629,000000AF,false,Rx,0,4,83,77,4C,01,00,00,00,00,
61242864,00000120,false,Rx,0,8,F9,03,00,02,01,08,FF,01,
61243097,00000121,false,Rx,0,8,9F,03,00,00,36,50,7E,FE,
61243354,00000147,false,Rx,0,8,00,00,00,00,F0,BF,00,1D,
61245051,0000030B,false,Rx,0,8,10,2E,00,00,08,00,00,10,
61245989,000005AC,false,Rx,0,8,00,00,FF,FE,FE,F7,07,00,
61248203,00000086,false,Rx,0,8,D3,05,04,20,00,00,00,00,
61249374,000000B2,false,Rx,0,8,00,00,00,00,00,00,00,00,
61249609,000000AD,false,Rx,0,8,D5,EF,BF,FF,00,14,00,00,
61249839,00000101,false,Rx,0,8,5E,02,80,01,A2,04,00,00,
61250099,000000AE,false,Rx,0,8,68,0F,00,00,FF,3C,01,02,
61256254,00000106,false,Rx,0,8,E0,02,63,00,02,00,00,00,
61256259,00000128,false,Rx,0,3,80,00,00,00,00,00,00,00,
61256264,0000011E,false,Rx,0,8,1C,02,00,00,00,00,00,00,
61256270,0000012D,false,Rx,0,8,5D,80,7F,00,00,00,FE,3F,
61256275,000003B5,false,Rx,0,8,86,FE,12,39,0C,7C,20,00,
61256280,000000A7,false,Rx,0,8,AB,57,A0,80,FD,09,58,3D,
61256286,000000A8,false,Rx,0,8,D0,57,3D,61,83,64,E8,0C,
61256291,000000AF,false,Rx,0,4,83,78,4C,01,00,00,00,00,
61256296,00000641,false,Rx,0,8,66,16,42,13,14,12,7D,14,
61256301,00000676,false,Rx,0,8,00,00,00,80,00,C0,20,01,
61256307,16A95414,true,Rx,0,8,00,60,7E,C3,0F,00,00,00,
61257651,16A95415,true,Rx,0,8,00,00,00,00,14,00,98,00,
61258230,00000086,false,Rx,0,8,7F,06,04,20,00,00,00,00,
61259363,000000B2,false,Rx,0,8,00,00,00,00,00,00,00,00,
61259598,000000AD,false,Rx,0,8,48,E0,BF,FF,00,14,00,00,
61259832,000000FD,false,Rx,0,8,CE,D2,1F,80,00,00,00,00,
61260087,000000AE,false,Rx,0,8,DF,00,00,00,FF,3C,01,02,
61260315,00000116,false,Rx,0,8,A1,02,01,04,00,00,00,FF,
61260558,00000392,false,Rx,0,8,51,23,00,00,00,00,00,04,
61261974,000000A7,false,Rx,0,8,E6,58,A0,80,FD,09,58,3D,
61262216,00000040,false,Rx,0,8,31,0E,00,44,C1,00,00,00,
61262439,000000A8,false,Rx,0,8,82,58,3D,61,83,64,E0,0C,
61262619,000000AF,false,Rx,0,4,83,79,00,00,00,00,00,00,
61262853,00000107,false,Rx,0,8,00,00,F8,0B,01,00,C1,C9,
61263109,00000120,false,Rx,0,8,AF,04,00,02,01,08,FF,01,
61263343,00000121,false,Rx,0,8,22,04,00,00,36,50,7E,FE,
61263598,00000147,false,Rx,0,8,00,00,00,00,F0,BF,00,1D,
61263831,000003D8,false,Rx,0,8,00,00,08,00,00,00,00,00,
61266003,000003DB,false,Rx,0,8,50,10,01,04,07,24,01,A2,
61268223,00000086,false,Rx,0,8,1B,07,04,20,00,00,00,00,
61269388,000000B2,false,Rx,0,8,00,00,00,00,00,00,00,00,
61269649,000000AD,false,Rx,0,8,86,E1,BF,FF,00,14,00,00,
61269884,00000101,false,Rx,0,8,3A,03,80,01,A2,04,00,00,
61270117,000000AE,false,Rx,0,8,30,01,00,00,FF,3C,01,02,
61276285,00000106,false,Rx,0,8,84,03,63,00,02,00,00,00,
61276291,00000128,false,Rx,0,3,80,00,00,00,00,00,00,00,
61276296,0000011E,false,Rx,0,8,78,03,00,00,00,00,00,00,
61276301,0000012D,false,Rx,0,8,0A,81,7F,00,00,00,FE,3F,
61276306,0000012B,false,Rx,0,8,5F,4A,40,28,00,00,00,00,
61276312,000001AB,false,Rx,0,8,5F,0C,04,02,18,00,04,00,
61276317,00000463,false,Rx,0,8,00,E0,3F,00,00,00,00,00,
61276322,000000A7,false,Rx,0,8,1D,59,60,80,FD,09,58,3D,
61276328,000000A8,false,Rx,0,8,F0,59,3D,61,83,64,E0,0C,
61276341,000000AF,false,Rx,0,4,83,7A,00,00,00,00,00,00,
61276346,000003DD,false,Rx,0,8,48,04,10,00,FE,43,00,00,
61276462,0000031E,false,Rx,0,8,68,FF,3F,00,00,00,00,40,
61276696,0000032C,false,Rx,0,8,00,0F,00,00,98,24,00,00,
61276951,0000032F,false,Rx,0,8,00,FF,00,00,00,00,7A,01,
61278188,00000086,false,Rx,0,8,59,08,04,20,00,00,00,00,
61279434,000000B2,false,Rx,0,8,00,00,00,00,00,00,00,00,
61279661,000000AD,false,Rx,0,8,62,E2,BF,FF,00,14,00,00,
61279896,000000FD,false,Rx,0,8,BB,D3,1F,80,00,00,00,00,
61280152,000000AE,false,Rx,0,8,31,02,00,00,FF,3C,01,02,
61280370,00000116,false,Rx,0,8,C5,03,01,04,00,00,00,FF,
61280631,000000B1,false,Rx,0,8,71,2E,00,00,00,00,00,00,
61280864,000001A2,false,Rx,0,8,45,09,00,00,00,00,00,00,
61281120,000003E5,false,Rx,0,8,2B,25,00,00,00,00,00,00,
61282105,000000A7,false,Rx,0,8,30,5A,A0,80,FD,09,58,3D,
61282328,000000A8,false,Rx,0,8,DF,5A,3D,61,83,64,E8,0C,
61282491,000000AF,false,Rx,0,4,83,7B,00,00,00,00,00,00,
61282726,00000107,false,Rx,0,8,00,00,F8,0B,01,00,C1,C9,
61282955,00000120,false,Rx,0,8,AD,05,00,02,01,08,FF,01,
61283227,00000121,false,Rx,0,8,15,05,00,00,36,50,7E,FE,
61283449,00000147,false,Rx,0,8,00,00,00,00,F0,BF,00,1D,
61285993,00000365,false,Rx,0,8,AB,06,26,00,94,0F,9C,7A,
61288232,00000086,false,Rx,0,8,3D,09,04,20,00,00,00,00,
61289383,000000B2,false,Rx,0,8,00,00,00,00,00,00,00,00,
61289618,000000AD,false,Rx,0,8,E3,E3,BF,FF,00,14,00,00,
61289853,00000101,false,Rx,0,8,9C,04,80,01,A2,05,00,00,
61290086,000000AE,false,Rx,0,8,14,03,00,00,FF,3C,01,02,
61290343,00000106,false,Rx,0,8,97,04,63,00,02,00,00,00,
61297525,00000128,false,Rx,0,3,84,E8,36,00,00,00,00,00,
61297530,0000011E,false,Rx,0,8,6B,04,00,00,00,00,00,00,
61297535,0000012D,false,Rx,0,8,18,82,7F,00,00,00,FE,3F,
61297540,000003C8,false,Rx,0,8,00,00,54,24,00,60,11,94,
61297546,000000A7,false,Rx,0,8,5E,5B,A0,80,FD,09,58,3D,
61297551,000000A8,false,Rx,0,8,21,5B,1D,61,83,64,F4,0C,
61297556,000000AF,false,Rx,0,4,83,7C,00,00,00,00,00,00,
61297561,0000030B,false,Rx,0,8,10,2F,00,00,08,00,00,10,
61297567,000003DE,false,Rx,0,8,FE,00,00,00,00,00,00,00,
61298223,00000086,false,Rx,0,8,91,0A,04,20,00,00,00,00,
61299355,000000B2,false,Rx,0,8,00,00,00,00,00,00,00,00,
61299590,000000AD,false,Rx,0,8,41,E4,BF,FF,00,14,00,00,
61299823,000000FD,false,Rx,0,8,2D,D4,1F,80,00,00,00,00,
61300058,000000AE,false,Rx,0,8,1A,04,00,00,FF,3C,01,02,
61300309,00000116,false,Rx,0,8,D6,04,01,04,00,00,00,FF,
61300570,0000012B,false,Rx,0,8,FA,4B,40,28,00,00,00,00,
61302046,000000A7,false,Rx,0,8,E1,5C,A0,80,FD,09,58,3D,
61302273,000000A8,false,Rx,0,8,EC,5C,3D,61,83,64,F8,0C,
61302516,00000107,false,Rx,0,8,00,00,F8,0B,01,00,D3,C9,
61302670,000000AF,false,Rx,0,4,83,7D,DE,01,00,00,00,00,
61302926,00000120,false,Rx,0,8,42,06,00,02,01,08,FF,01,
61303161,00000121,false,Rx,0,8,2F,06,00,40,36,50,7E,FE,
61303388,00000147,false,Rx,0,8,00,00,00,00,F0,BF,00,1D,
61303627,00000391,false,Rx,0,8,17,89,23,5C,00,27,00,22,
61303883,000003BE,false,Rx,0,8,54,0B,E6,00,C8,80,00,80,
61304118,000003C7,false,Rx,0,8,2C,10,24,00,00,40,80,00,
61308230,00000086,false,Rx,0,8,F5,0B,04,20,00,00,00,00,
61309424,000000B2,false,Rx,0,8,00,00,00,00,00,00,00,00,
61309658,000000AD,false,Rx,0,8,74,E5,BF,FF,00,14,00,00,
61309893,00000101,false,Rx,0,8,4D,05,80,01,A2,04,00,00,
61310128,000000AE,false,Rx,0,8,E1,05,00,00,FF,3C,01,02,
61316342,00000106,false,Rx,0,8,F3,05,63,00,02,00,00,00,
61316347,00000128,false,Rx,0,3,80,00,00,00,00,00,00,00,
61316352,0000011E,false,Rx,0,8,0F,05,00,00,00,00,00,00,
61316358,0000012D,false,Rx,0,8,89,83,7F,00,00,00,FE,3F,
61316363,000000A7,false,Rx,0,8,11,5D,A0,80,FD,09,58,3D,
61316368,00000040,false,Rx,0,8,55,0F,00,44,C1,00,00,00,
61316374,000000A8,false,Rx,0,8,B7,5D,3D,61,83,64,F4,0C,
61316379,000000AF,false,Rx,0,4,83,7E,DE,01,00,00,00,00,
61318223,00000086,false,Rx,0,8,E6,0C,04,20,00,00,00,00,
61319344,000000B2,false,Rx,0,8,00,00,00,00,00,00,00,00,
61319558,000000AD,false,Rx,0,8,6A,E6,BF,FF,00,14,00,00,
61319813,000000FD,false,Rx,0,8,B7,D5,1F,80,00,00,00,00,
61320048,000000AE,false,Rx,0,8,BA,06,00,00,FF,3C,01,02,
61320276,00000116,false,Rx,0,8,B2,05,01,04,00,00,00,FF,
61321171,00000464,false,Rx,0,8,08,4C,00,00,00,00,00,00,
61322034,000000A7,false,Rx,0,8,9A,5E,A0,80,FD,09,58,3D,
61322259,000000A8,false,Rx,0,8,95,5E,3D,61,83,64,EC,0C,
61322478,00000107,false,Rx,0,8,00,00,F8,0B,01,00,D3,C9,
61322658,000000AF,false,Rx,0,4,83,7F,00,00,00,00,00,00,
61322887,00000120,false,Rx,0,8,40,07,00,02,01,08,FF,01,
61323147,00000121,false,Rx,0,8,7C,07,00,40,36,50,7E,FE,
61323397,00000147,false,Rx,0,8,00,00,00,00,F0,BF,00,1D,
61326454,0000031E,false,Rx,0,8,FB,F0,3F,00,00,00,00,40,
61326707,0000032C,false,Rx,0,8,00,0F,00,00,98,24,00,00,
61326942,0000032F,false,Rx,0,8,00,FF,00,00,00,00,7A,01,
61328203,00000086,false,Rx,0,8,82,0D,04,20,00,00,00,00,
61329397,000000B2,false,Rx,0,8,00,00,00,00,00,00,00,00,
61329630,000000AD,false,Rx,0,8,35,E7,BF,FF,00,14,00,00,
61329865,00000101,false,Rx,0,8,54,06,80,01,A2,05,00,00,
61330120,000000AE,false,Rx,0,8,28,07,00,00,FF,3C,01,02,
61330369,00000106,false,Rx,0,8,5F,06,63,00,02,00,00,00,
61336376,00000128,false,Rx,0,3,84,E8,C9,00,00,00,00,00,
61336381,0000011E,false,Rx,0,8,A3,06,00,00,00,00,00,00,
61336386,0000012D,false,Rx,0,8,06,84,7F,00,00,00,FE,3F,
61336391,0000012B,false,Rx,0,8,BF,4C,40,28,00,00,00,00,
61336397,000003C0,false,Rx,0,4,70,0D,03,00,00,00,00,00,
61336402,000003D6,false,Rx,0,8,09,00,00,00,00,00,30,00,
61336407,000000A7,false,Rx,0,8,44,5F,A0,80,FD,09,58,3D,
61336412,000000A8,false,Rx,0,8,1F,5F,3D,21,83,64,E8,0C,
61336418,000000AF,false,Rx,0,4,83,70,00,00,00,00,00,00,
61336423,1B000053,true,Rx,0,8,53,00,04,01,01,00,00,00,
61336428,000005F0,false,Rx,0,8,FD,00,64,00,00,64,00,00,
61336433,00000365,false,Rx,0,8,AC,06,26,00,93,0F,9C,7A,
61338236,00000086,false,Rx,0,8,2E,0E,04,20,00,00,00,00,
61339396,000000B2,false,Rx,0,8,00,00,00,00,00,00,00,00,
61339631,000000AD,false,Rx,0,8,A2,E8,BF,FF,00,14,00,00,
61339866,000000FD,false,Rx,0,8,A5,D6,1F,80,00,00,00,00,
61340099,000000AE,false,Rx,0,8,5F,08,00,00,FF,3C,01,02,
61340356,00000116,false,Rx,0,8,1E,06,01,04,00,00,00,FF,
61341004,00000570,false,Rx,0,8,FF,00,00,00,00,00,00,00,
61342001,000000A7,false,Rx,0,8,8D,50,A0,80,FD,09,58,3D,
61342255,000000A8,false,Rx,0,8,A4,50,1D,21,83,64,E4,0C,
61342477,00000107,false,Rx,0,8,00,00,F8,0B,01,00,E5,C9,
61342654,000000AF,false,Rx,0,4,83,71,21,01,00,00,00,00,
61342889,00000120,false,Rx,0,8,19,08,00,02,01,08,FF,01,
61343123,00000121,false,Rx,0,8,BF,08,00,40,36,50,7E,FE,
61343374,00000147,false,Rx,0,8,00,00,00,00,F0,BF,00,1D,
61345054,0000030B,false,Rx,0,8,10,20,00,00,08,00,00,10,
61345995,000005AC,false,Rx,0,8,00,00,FF,FE,FE,F7,07,00,
61348115,1B000015,true,Rx,0,8,15,00,04,02,01,00,00,00,
61348368,00000086,false,Rx,0,8,4A,0F,04,20,00,00,00,00,
61349175,17331F10,true,Rx,0,8,37,C3,38,03,20,00,00,00,
61349434,000000B2,false,Rx,0,8,00,00,00,00,00,00,00,00,
61349669,000000AD,false,Rx,0,8,A6,E9,BF,FF,00,14,00,00,
61349924,00000101,false,Rx,0,8,85,07,80,01,A2,04,00,00,
61350158,000000AE,false,Rx,0,8,B7,09,00,00,FF,3C,01,02,
61350389,00000106,false,Rx,0,8,3B,07,63,00,02,00,00,00,
61356390,00000128,false,Rx,0,3,80,00,00,00,00,00,00,00,
61356395,0000011E,false,Rx,0,8,C7,07,00,00,00,00,00,00,
61356400,0000012D,false,Rx,0,8,79,85,7F,00,00,00,FE,3F,
61356406,000003B5,false,Rx,0,8,86,FE,12,3A,0C,7F,20,00,
61356411,1B000076,true,Rx,0,8,76,00,04,01,01,00,0A,00,
61356416,000000A7,false,Rx,0,8,E5,51,A0,80,FD,09,48,3D,
61356422,000000A8,false,Rx,0,8,34,41,1D,21,83,64,E8,0C,
61356427,000000AF,false,Rx,0,4,83,72,21,01,00,00,00,00,
61356432,1B000010,true,Rx,0,8,10,00,04,05,11,00,00,00,
61356437,16A95414,true,Rx,0,8,00,60,7E,C3,0F,00,00,00,
61358234,00000086,false,Rx,0,8,08,00,04,20,00,00,00,00,
61359364,000000B2,false,Rx,0,8,00,00,00,00,00,00,00,00,
61359599,000000AD,false,Rx,0,8,F7,EA,BF,FF,00,14,00,00,
61359832,000000FD,false,Rx,0,8,9F,D7,1F,80,00,00,00,00,
61360067,000000AE,false,Rx,0,8,CB,0A,00,00,FF,3C,01,02,
61360316,00000116,false,Rx,0,8,7A,07,01,04,00,00,00,FF,
61360579,0000012B,false,Rx,0,8,EB,4D,40,28,00,00,00,00,
61360834,00000392,false,Rx,0,8,42,24,00,00,00,00,00,04,
61361975,000000A7,false,Rx,0,8,91,52,A0,80,FD,09,48,3D,
61362243,00000040,false,Rx,0,8,17,00,00,44,C1,00,00,00,
61362445,000000A8,false,Rx,0,8,D8,42,1D,21,83,64,E8,0C,
61362622,000000AF,false,Rx,0,4,83,73,00,00,00,00,00,00,
61362855,00000107,false,Rx,0,8,00,00,F8,0B,01,00,F7,C9,
61363090,00000120,false,Rx,0,8,4F,09,00,02,01,08,FF,01,
61363343,00000041,false,Rx,0,8,4F,08,00,00,00,00,00,00,
61363579,00000121,false,Rx,0,8,40,09,00,40,36,50,7E,FE,
61363833,00000147,false,Rx,0,8,00,00,00,00,F0,BF,00,1D,
61364211,000003D8,false,Rx,0,8,00,00,08,00,00,00,00,00,
61365252,00000520,false,Rx,0,8,1A,0A,00,08,00,0A,00,0A,
61365942,17F00015,true,Rx,0,8,00,15,00,00,00,00,00,80,
61366213,000003DB,false,Rx,0,8,50,10,01,04,07,24,01,A2,
61368223,00000086,false,Rx,0,8,6C,01,04,20,00,00,00,00,
61369388,000000B2,false,Rx,0,8,00,00,00,00,00,00,00,00,
61369628,000000AD,false,Rx,0,8,42,EB,BF,FF,00,14,00,00,
61369857,00000101,false,Rx,0,8,C3,08,80,01,A2,09,00,00,
61370118,000000AE,false,Rx,0,8,69,0B,00,00,FF,3C,01,02,
61370356,00000106,false,Rx,0,8,79,08,63,00,02,00,00,00,
61376437,00000128,false,Rx,0,3,84,FF,0F,00,00,00,00,00,
61376442,0000011E,false,Rx,0,8,85,08,00,00,00,00,00,00,
61376447,0000012D,false,Rx,0,8,C9,86,7F,00,00,00,FE,3F,
61376452,00000462,false,Rx,0,8,00,00,38,00,00,01,00,00,
61376458,000000A7,false,Rx,0,8,10,53,A0,80,FD,09,48,3D,
61376463,000000A8,false,Rx,0,8,AC,43,3D,21,83,64,E8,0C,
61376468,000000AF,false,Rx,0,4,83,74,00,00,00,00,00,00,
61376473,000003DD,false,Rx,0,8,48,04,10,00,FE,45,00,00,
61376479,0000031E,false,Rx,0,8,31,F1,3F,00,00,00,00,40,
61376654,0000032C,false,Rx,0,8,00,0F,00,00,98,24,00,00,
61376883,0000032F,false,Rx,0,8,00,FF,00,00,00,00,78,01,
61378216,00000086,false,Rx,0,8,C0,02,04,20,00,00,00,00,
61379374,000000B2,false,Rx,0,8,00,00,00,00,00,00,00,00,
61379609,000000AD,false,Rx,0,8,2F,EC,BF,FF,00,14,00,00,
61379864,000000FD,false,Rx,0,8,58,D8,1F,80,00,00,00,00,
61380099,000000AE,false,Rx,0,8,D1,0C,00,00,FF,3C,01,02,
61380356,00000116,false,Rx,0,8,38,08,01,04,00,00,00,FF,
61380569,000000B1,false,Rx,0,8,4D,2F,00,00,00,00,00,00,
61380824,000003E5,false,Rx,0,8,22,26,00,00,00,00,00,00,
61382363,000000A7,false,Rx,0,8,2A,54,A0,80,FD,09,48,3D,
61382578,000000A8,false,Rx,0,8,48,44,3D,21,83,64,E4,0C,
61382727,000000AF,false,Rx,0,4,83,75,34,01,00,00,00,00,
61382987,00000107,false,Rx,0,8,00,00,F8,0B,01,00,F7,C9,
61383231,00000120,false,Rx,0,8,94,0A,00,02,01,08,FF,01,
61383452,00000121,false,Rx,0,8,25,0A,00,40,36,50,7E,FE,
61383708,00000147,false,Rx,0,8,00,00,00,00,F0,BF,00,1D,
61385994,00000365,false,Rx,0,8,AC,06,25,00,92,0F,9C,7A,
61388225,00000086,false,Rx,0,8,A4,03,04,20,00,00,00,00,
61389366,000000B2,false,Rx,0,8,00,00,00,00,00,00,00,00,
61389601,000000AD,false,Rx,0,8,5E,ED,BF,FF,00,14,00,00,
61389835,00000101,false,Rx,0,8,12,09,80,01,A2,08,00,00,
61390070,000000AE,false,Rx,0,8,B2,0D,00,00,FF,3C,01,02,
61390316,00000106,false,Rx,0,8,1D,09,63,00,02,00,00,00,
61390459,00000128,false,Rx,0,3,80,00,00,00,00,00,00,00,
61396453,0000011E,false,Rx,0,8,E1,09,00,00,00,00,00,00,
61396458,0000012D,false,Rx,0,8,98,87,7F,00,00,00,FE,3F,
61396463,0000012B,false,Rx,0,8,A4,4E,40,28,00,00,00,00,
61396469,000003C8,false,Rx,0,8,00,00,54,24,00,60,11,94,
61396474,1B000077,true,Rx,0,8,77,00,04,02,01,00,00,00,
61396479,000000A7,false,Rx,0,8,51,55,A0,80,FD,09,48,3D,
61396485,000000A8,false,Rx,0,8,1A,45,3D,21,83,64,E0,0C,
61396490,000000AF,false,Rx,0,4,83,76,34,01,00,00,00,00,
61396495,0000030B,false,Rx,0,8,10,21,00,00,08,00,00,10,
61396500,000003DE,false,Rx,0,8,FE,00,00,00,00,00,00,00,
61398224,00000086,false,Rx,0,8,B7,04,04,20,00,00,00,00,
61399387,000000B2,false,Rx,0,8,00,00,00,00,00,00,00,00,
61399622,000000AD,false,Rx,0,8,84,EE,BF,FF,00,14,00,00,
61399877,000000FD,false,Rx,0,8,6A,D9,1F,80,00,00,00,00,
61400112,000000AE,false,Rx,0,8,8A,0E,00,00,FF,3C,01,02,
61400363,00000116,false,Rx,0,8,5C,09,01,04,00,00,00,FF,
61400597,00000394,false,Rx,0,8,E1,14,00,1A,00,00,00,00,
61402015,000000A7,false,Rx,0,8,C2,56,A0,80,FD,09,48,3D,
61402262,000000A8,false,Rx,0,8,6D,46,3D,21,83,64,DC,0C,
61402484,00000107,false,Rx,0,8,00,00,F8,0B,01,00,09,CA,
61402661,000000AF,false,Rx,0,4,83,77,00,00,00,00,00,00,
61402895,00000120,false,Rx,0,8,38,0B,00,02,01,08,FF,01,
61403130,00000121,false,Rx,0,8,8E,0B,00,40,36,50,7E,FE,
61403383,00000147,false,Rx,0,8,00,00,00,00,F0,BF,00,1D,
61403618,00000391,false,Rx,0,8,16,89,23,5A,00,27,00,22,
61403853,000003BE,false,Rx,0,8,D1,0C,E6,00,C8,80,00,80,
61404086,000003C7,false,Rx,0,8,01,10,24,00,00,40,80,00,
61408235,00000086,false,Rx,0,8,D3,05,04,20,00,00,00,00,
61409422,000000B2,false,Rx,0,8,00,00,00,00,00,00,00,00,
61409657,000000AD,false,Rx,0,8,D5,EF,BF,FF,00,14,00,00,
61409890,00000101,false,Rx,0,8,0F,0A,80,01,A2,04,00,00,
61410120,000000AE,false,Rx,0,8,68,0F,00,00,FF,3C,01,02,
61410383,00000106,false,Rx,0,8,B1,0A,63,00,02,00,00,00,
61410513,00000128,false,Rx,0,3,80,00,00,00,00,00,00,00,
61416509,0000011E,false,Rx,0,8,4D,0A,00,00,00,00,00,00,
61416515,0000012D,false,Rx,0,8,57,88,7F,00,00,00,FE,3F,
61416520,000006B4,false,Rx,0,8,00,91,97,71,29,33,56,57,
61416525,000000A7,false,Rx,0,8,4B,57,A0,80,FD,09,48,3D,
61416531,00000040,false,Rx,0,8,73,01,00,44,C1,00,00,00,
61416536,000000A8,false,Rx,0,8,08,47,3D,21,83,64,D4,0C,
61416541,000000AF,false,Rx,0,4,83,78,00,00,00,00,00,00,
61418242,00000086,false,Rx,0,8,7F,06,04,20,00,00,00,00,
61419356,000000B2,false,Rx,0,8,00,00,00,00,00,00,00,00,
61419564,000000AD,false,Rx,0,8,48,E0,BF,FF,00,14,00,00,
61419825,000000FD,false,Rx,0,8,26,DA,1F,80,00,00,00,00,
61420059,000000AE,false,Rx,0,8,DF,00,00,00,FF,3C,01,02,
61420308,00000116,false,Rx,0,8,F0,0A,01,04,00,00,00,FF,
61420570,0000012B,false,Rx,0,8,8E,4F,40,28,00,00,00,00,
61421180,00000463,false,Rx,0,8,00,E0,3F,00,00,00,00,00,
61421967,000000A7,false,Rx,0,8,E6,58,A0,80,FD,09,58,3D,
61422206,000000A8,false,Rx,0,8,B0,58,3D,21,83,64,D0,0C,
61422449,00000107,false,Rx,0,8,00,00,F8,0B,01,00,09,CA,
61422604,000000AF,false,Rx,0,4,83,79,00,00,00,00,00,00,
61422833,00000120,false,Rx,0,8,E2,0C,00,02,01,08,FF,01,
61423094,00000121,false,Rx,0,8,4B,0C,00,40,36,50,7E,FE,
61423344,00000147,false,Rx,0,8,00,00,00,00,F0,BF,00,1D,
61426383,0000031E,false,Rx,0,8,8B,F2,3F,00,00,00,00,40,
61426618,0000032C,false,Rx,0,8,00,0F,00,00,98,24,00,00,
61426873,0000032F,false,Rx,0,8,00,FF,00,00,00,00,78,01,
61428223,00000086,false,Rx,0,8,1B,07,04,20,00,00,00,00,
61429355,000000B2,false,Rx,0,8,00,00,00,00,00,00,00,00,
61429590,000000AD,false,Rx,0,8,86,E1,BF,FF,00,14,00,00,
61429824,00000101,false,Rx,0,8,2A,0B,81,01,A2,05,00,00,
61430079,000000AE,false,Rx,0,8,30,01,00,00,FF,3C,01,02,
61430308,00000106,false,Rx,0,8,D5,0B,63,00,02,00,00,00,
61430451,00000128,false,Rx,0,3,84,10,37,00,00,00,00,00,
61436521,0000011E,false,Rx,0,8,29,0B,00,00,00,00,00,00,
61436527,0000012D,false,Rx,0,8,F2,89,7F,00,00,00,FE,3F,
61436532,000003C0,false,Rx,0,4,80,0E,03,00,00,00,00,00,
61436537,000003D6,false,Rx,0,8,0A,00,00,00,00,00,30,00,
61436542,000000AF,false,Rx,0,4,83,7A,00,00,00,00,00,00,
61436547,000000A7,false,Rx,0,8,36,59,A0,80,FD,09,58,3D,
61436553,000000A8,false,Rx,0,8,FA,59,3D,21,83,64,D4,0C,
61436558,00000365,false,Rx,0,8,AC,06,25,00,93,0F,9C,7A,
61438227,00000086,false,Rx,0,8,59,08,04,20,00,00,00,00,
61439321,000000B2,false,Rx,0,8,00,00,00,00,00,00,00,00,
61439569,000000AD,false,Rx,0,8,62,E2,BF,FF,00,14,00,00,
61439825,000000FD,false,Rx,0,8,09,DB,1F,80,00,00,00,00,
61440059,000000AE,false,Rx,0,8,31,02,00,00,FF,3C,01,02,
61440282,00000116,false,Rx,0,8,94,0B,01,04,00,00,00,FF,
61442007,000000A7,false,Rx,0,8,30,5A,A0,80,FD,09,58,3D,
61442225,000000A8,false,Rx,0,8,ED,5A,3D,21,83,64,D8,0C,
61442469,00000107,false,Rx,0,8,00,00,F8,0B,01,00,1B,CA,
61442624,000000AF,false,Rx,0,4,83,7B,27,01,00,00,00,00,
61442854,00000120,false,Rx,0,8,52,0D,00,02,01,08,FF,01,
61443088,00000121,false,Rx,0,8,58,0D,00,40,36,50,7E,FE,
61443363,00000147,false,Rx,0,8,00,00,00,00,F0,BF,00,1D,
61445035,0000030B,false,Rx,0,8,10,22,00,00,08,00,00,10,
61446003,000005AC,false,Rx,0,8,00,00,FF,FE,FE,F7,07,00,
61448223,00000086,false,Rx,0,8,3D,09,04,20,00,00,00,00,
61449356,000000B2,false,Rx,0,8,00,00,00,00,00,00,00,00,
61449570,000000AD,false,Rx,0,8,E3,E3,BF,FF,00,14,00,00,
61449799,00000101,false,Rx,0,8,47,0C,80,01,A2,01,00,00,
61450060,000000AE,false,Rx,0,8,14,03,00,00,FF,3C,01,02,
61450287,00000106,false,Rx,0,8,C6,0C,63,00,02,00,00,00,
61450452,00000128,false,Rx,0,3,80,00,00,00,00,00,00,00,
61455366,0000011E,false,Rx,0,8,3A,0C,00,00,00,00,00,00,
61455371,0000012D,false,Rx,0,8,7B,8A,7F,00,00,00,FE,3F,
61455377,0000012B,false,Rx,0,8,05,40,40,28,00,00,00,00,
61455382,000003B5,false,Rx,0,8,86,FE,12,3A,0C,7F,20,00,
61455387,000000A7,false,Rx,0,8,5E,5B,A0,80,FD,09,58,3D,
61455393,000000A8,false,Rx,0,8,20,5B,3D,21,83,64,D8,0C,
61455398,000000AF,false,Rx,0,4,83,7C,27,01,00,00,00,00,
61456047,16A95414,true,Rx,0,8,00,60,7E,C3,0F,00,00,00,
61458234,00000086,false,Rx,0,8,91,0A,04,20,00,00,00,00,
61459363,000000B2,false,Rx,0,8,00,00,00,00,00,00,00,00,
61459598,000000AD,false,Rx,0,8,41,E4,BF,FF,00,14,00,00,
61459832,000000FD,false,Rx,0,8,90,DC,1F,80,00,00,00,00,
61460067,000000AE,false,Rx,0,8,1A,04,00,00,FF,3C,01,02,
61460315,00000116,false,Rx,0,8,87,0C,01,04,00,00,00,FF,
61460553,00000392,false,Rx,0,8,26,25,00,00,00,00,00,04,
61462034,000000A7,false,Rx,0,8,E1,5C,A0,80,FD,09,58,3D,
61462277,00000040,false,Rx,0,8,DF,02,00,44,C1,00,00,00,
61462500,000000A8,false,Rx,0,8,4E,5C,3D,21,83,64,D0,0C,
61462676,000000AF,false,Rx,0,4,83,7D,00,00,00,00,00,00,
61462910,00000107,false,Rx,0,8,00,00,F8,0B,01,00,1B,CA,
61463144,00000120,false,Rx,0,8,39,0E,00,02,01,08,FF,01,
61463370,00000121,false,Rx,0,8,CB,0E,00,40,36,50,7E,FE,
61463629,00000147,false,Rx,0,8,00,00,00,00,F0,BF,00,1D,
61463885,000003D8,false,Rx,0,8,00,00,08,00,00,00,00,00,
61465993,000003DB,false,Rx,0,8,50,10,01,04,07,24,01,A2,
61467264,00000385,false,Rx,0,8,20,00,22,00,00,00,02,00,
61467528,000003E8,false,Rx,0,8,00,02,00,00,00,20,00,00,
61467782,000003FE,false,Rx,0,8,00,00,00,00,00,00,00,00,
61468055,00000086,false,Rx,0,8,F5,0B,04,20,00,00,00,00,
61469453,000000AD,false,Rx,0,8,74,E5,BF,FF,00,14,00,00,
61469708,000000B2,false,Rx,0,8,00,00,00,00,00,00,00,00,
61469943,000000AE,false,Rx,0,8,E1,05,00,00,FF,3C,01,02,
61470177,00000101,false,Rx,0,8,96,0D,80,01,A2,00,00,00,
61470328,00000128,false,Rx,0,3,84,10,C8,00,00,00,00,00,
61470570,00000106,false,Rx,0,8,A2,0D,63,00,02,00,00,00,
61476576,0000012D,false,Rx,0,8,60,8B,7F,00,00,00,FE,3F,
61476581,0000011E,false,Rx,0,8,5E,0D,00,00,00,00,00,00,
61476587,000001AB,false,Rx,0,8,23,0D,04,02,18,00,04,00,
61476592,00000464,false,Rx,0,8,08,4C,00,00,00,00,00,00,
61476597,000000A7,false,Rx,0,8,11,5D,A0,80,FD,09,58,3D,
61476603,000000A8,false,Rx,0,8,CD,5D,3D,21,83,64,C8,0C,
61476608,000000AF,false,Rx,0,4,83,7E,00,00,00,00,00,00,
61476613,000003DD,false,Rx,0,8,48,04,10,00,FE,45,00,00,
61476618,0000031E,false,Rx,0,8,C9,F3,3F,00,00,00,00,40,
61476694,0000032C,false,Rx,0,8,00,0F,00,00,98,24,00,00,
61476950,0000032F,false,Rx,0,8,00,FF,00,00,00,00,76,01,
61478219,00000086,false,Rx,0,8,E6,0C,04,20,00,00,00,00,
61479430,000000B2,false,Rx,0,8,00,00,00,00,00,00,00,00,
61479665,000000AD,false,Rx,0,8,6A,E6,BF,FF,00,14,00,00,
61479899,000000FD,false,Rx,0,8,19,DD,1F,80,00,00,00,00,
61480133,000000AE,false,Rx,0,8,BA,06,00,00,FF,3C,01,02,
61480386,00000116,false,Rx,0,8,E3,0D,01,04,00,00,00,FF,
61480619,000000B1,false,Rx,0,8,13,20,00,00,00,00,00,00,
61480875,000001A2,false,Rx,0,8,B0,0A,00,00,00,00,00,00,
61481130,0000012B,false,Rx,0,8,77,41,40,28,00,00,00,00,
61481382,000003E5,false,Rx,0,8,3E,27,00,00,00,00,00,00,
61481992,000000A7,false,Rx,0,8,9A,5E,A0,80,FD,09,58,3D,
61482231,000000A8,false,Rx,0,8,E5,5E,3D,E1,82,64,C0,0C,
61482474,00000107,false,Rx,0,8,00,00,F8,0B,01,00,2D,CA,
61482623,000000AF,false,Rx,0,4,83,7F,D8,01,00,00,00,00,
61482883,00000120,false,Rx,0,8,EC,0F,00,02,01,08,FF,01,
61483118,00000121,false,Rx,0,8,7D,0F,00,40,36,50,7E,FE,
61483367,00000147,false,Rx,0,8,00,00,00,00,F0,BF,00,1D,
61485995,00000365,false,Rx,0,8,AD,06,25,00,92,0F,9C,7A,
61488231,00000086,false,Rx,0,8,82,0D,04,20,00,00,00,00,
61489381,000000B2,false,Rx,0,8,00,00,00,00,00,00,00,00,
61489618,000000AD,false,Rx,0,8,35,E7,BF,FF,00,14,00,00,
61489851,00000101,false,Rx,0,8,CA,0E,80,01,A2,03,00,00,
61490086,000000AE,false,Rx,0,8,28,07,00,00,FF,3C,01,02,
61490344,00000106,false,Rx,0,8,0E,0E,63,00,02,00,00,00,
61490474,00000128,false,Rx,0,3,80,00,00,00,00,00,00,00,
61496576,0000011E,false,Rx,0,8,F2,0E,00,00,00,00,00,00,
61496581,0000012D,false,Rx,0,8,52,8C,7F,00,00,00,FE,3F,
61496587,000003C8,false,Rx,0,8,00,00,54,24,00,60,11,94,
61496592,000000A7,false,Rx,0,8,CE,5F,A0,80,FD,0D,58,3D,
61496597,000000A8,false,Rx,0,8,E4,5F,3D,E1,82,64,B8,0C,
61496603,000000AF,false,Rx,0,4,83,70,D8,01,00,00,00,00,
61496608,0000030B,false,Rx,0,8,10,23,00,00,08,00,00,10,
61496613,000003DE,false,Rx,0,8,FE,00,00,00,00,00,00,00,
61498216,00000086,false,Rx,0,8,2E,0E,04,20,00,00,00,00,
61499327,000000B2,false,Rx,0,8,00,00,00,00,00,00,00,00,
61499572,000000AD,false,Rx,0,8,A2,E8,BF,FF,00,14,00,00,
61499805,000000FD,false,Rx,0,8,E6,DE,1F,80,00,00,00,00,
61500040,000000AE,false,Rx,0,8,5F,08,00,00,FF,3C,01,02,
61500288,00000116,false,Rx,0,8,4F,0E,01,04,00,00,00,FF,
61502047,000000A7,false,Rx,0,8,07,50,A0,80,FD,0D,58,3D,
61502277,000000A8,false,Rx,0,8,8C,50,3D,E1,82,64,B8,0C,
61502494,00000107,false,Rx,0,8,00,00,F8,0B,01,00,2D,CA,
61502673,000000AF,false,Rx,0,4,83,71,00,00,00,00,00,00,
61502928,00000120,false,Rx,0,8,26,00,00,02,01,08,FF,01,
61503163,00000121,false,Rx,0,8,B3,00,00,40,36,50,7E,FE,
61503414,00000147,false,Rx,0,8,00,00,00,00,F0,BF,00,1D,
61503648,000002C2,false,Rx,0,8,00,00,00,00,00,00,00,00,
61503883,00000391,false,Rx,0,8,16,89,23,59,00,27,00,22,
61504138,000003BE,false,Rx,0,8,6A,0D,E6,00,C8,80,00,80,
61504375,000003C7,false,Rx,0,8,2C,10,24,00,00,40,80,00,
61504670,17F00076,true,Rx,0,8,20,76,00,00,00,00,00,80,
61504905,00000640,false,Rx,0,8,E0,91,9B,C4,7D,A0,0F,48,
61505139,00000647,false,Rx,0,8,B8,FD,FF,7F,00,00,00,18,
61505389,0000065F,false,Rx,0,8,2E,20,00,00,00,00,2E,7F,
61505622,00000670,false,Rx,0,8,19,10,00,00,00,03,00,88,
61508230,00000086,false,Rx,0,8,4A,0F,04,20,00,00,00,00,
61509423,000000B2,false,Rx,0,8,00,00,00,00,00,00,00,00,
61509657,000000AD,false,Rx,0,8,A6,E9,BF,FF,00,14,00,00,
61509913,00000101,false,Rx,0,8,D4,0F,80,01,A2,04,00,00,
61510146,000000AE,false,Rx,0,8,B7,09,00,00,FF,3C,01,02,
61510396,00000106,false,Rx,0,8,6A,0F,63,00,02,00,00,00,
61510531,00000128,false,Rx,0,3,84,FF,10,00,00,00,00,00,
61517770,0000011E,false,Rx,0,8,96,0F,00,00,00,00,00,00,
61517776,0000012D,false,Rx,0,8,3E,8D,7F,00,00,00,FE,3F,
61517781,0000012B,false,Rx,0,8,D3,42,40,28,00,00,00,00,
61517786,000000A7,false,Rx,0,8,8F,51,A0,80,FD,0D,58,3D,
61517792,00000040,false,Rx,0,8,BB,03,00,44,C1,00,00,00,
61517797,000000A8,false,Rx,0,8,CE,51,3D,E1,82,64,BC,0C,
61517802,000000AF,false,Rx,0,4,83,72,00,00,00,00,00,00,
61518238,00000086,false,Rx,0,8,08,00,04,20,00,00,00,00,
61519324,000000B2,false,Rx,0,8,00,00,00,00,00,00,00,00,
61519567,000000AD,false,Rx,0,8,F7,EA,BF,FF,00,14,00,00,
61519822,000000FD,false,Rx,0,8,71,DF,1F,80,00,00,00,00,
61520057,000000AE,false,Rx,0,8,CB,0A,00,00,FF,3C,01,02,
61520283,00000116,false,Rx,0,8,2B,0F,01,04,00,00,00,FF,
61521179,00000462,false,Rx,0,8,00,00,38,00,00,01,00,00,
61521434,00000465,false,Rx,0,8,00,00,00,00,00,00,00,80,
61522044,000000A7,false,Rx,0,8,E2,52,E0,80,FD,0D,58,3D,
61522267,000000A8,false,Rx,0,8,94,52,3D,E1,82,64,C0,0C,
61522505,00000107,false,Rx,0,8,00,00,F8,0B,01,00,3F,CA,
61522687,000000AF,false,Rx,0,4,83,73,00,01,00,00,00,00,
61522920,00000120,false,Rx,0,8,D3,01,00,02,01,08,FF,01,
61523155,00000121,false,Rx,0,8,DF,01,00,40,36,50,7E,FE,
61523410,00000147,false,Rx,0,8,00,00,00,00,F0,BF,00,1D,
61526384,0000031E,false,Rx,0,8,64,F4,3F,00,00,00,00,40,
61526639,0000032C,false,Rx,0,8,00,0F,00,00,98,24,00,00,
61526873,0000032F,false,Rx,0,8,00,FF,00,00,00,00,76,01,
61528223,00000086,false,Rx,0,8,6C,01,04,20,00,00,00,00,
61529322,000000B2,false,Rx,0,8,00,00,00,00,00,00,00,00,
61529570,000000AD,false,Rx,0,8,42,EB,BF,FF,00,14,00,00,
61529804,00000101,false,Rx,0,8,23,00,80,01,A2,05,00,00,
61530053,000000AE,false,Rx,0,8,69,0B,00,00,FF,3C,01,02,
61530297,00000106,false,Rx,0,8,28,00,63,00,02,00,00,00,
61530440,00000128,false,Rx,0,3,80,00,00,00,00,00,00,00,
61536592,0000011E,false,Rx,0,8,D4,00,00,00,00,00,00,00,
61536597,0000012D,false,Rx,0,8,0E,8E,7F,00,00,00,FE,3F,
61536603,00000366,false,Rx,0,8,00,00,00,20,80,03,00,00,
61536608,000003C0,false,Rx,0,4,35,0F,03,00,00,00,00,00,
61536613,000003D6,false,Rx,0,8,0B,00,00,00,00,00,30,00,
61536618,000000A7,false,Rx,0,8,63,53,E0,80,FD,0D,58,3D,
61536624,000000A8,false,Rx,0,8,CD,53,3D,E1,82,64,BC,0C,
61536629,000000AF,false,Rx,0,4,83,74,00,01,00,00,00,00,
61536634,1B000053,true,Rx,0,8,53,00,04,01,01,00,00,00,
61536639,000005F0,false,Rx,0,8,FD,00,64,00,00,64,00,00,
61536645,0000065A,false,Rx,0,8,00,00,02,10,00,00,3C,00,
61536650,00000365,false,Rx,0,8,AD,06,25,00,93,0F,9C,7A,
61538237,00000086,false,Rx,0,8,C0,02,04,20,00,00,00,00,
61539397,000000B2,false,Rx,0,8,00,00,00,00,00,00,00,00,
61539630,000000AD,false,Rx,0,8,2F,EC,BF,FF,00,14,00,00,
61539886,000000FD,false,Rx,0,8,0B,D0,1F,80,00,00,00,00,
61540120,000000AE,false,Rx,0,8,D1,0C,00,00,FF,3C,01,02,
61540353,00000116,false,Rx,0,8,69,00,01,04,00,00,00,FF,
61540609,0000012B,false,Rx,0,8,8B,43,40,28,00,00,00,00,
61542005,000000A7,false,Rx,0,8,59,54,E0,80,FD,0D,58,3D,
61542248,000000A8,false,Rx,0,8,59,54,3D,E1,82,64,B8,0C,
61542492,00000107,false,Rx,0,8,00,00,F8,0B,01,00,3F,CA,
61542646,000000AF,false,Rx,0,4,83,75,00,00,00,00,00,00,
61542901,00000120,false,Rx,0,8,2B,02,00,02,01,08,FF,01,
61543136,00000121,false,Rx,0,8,50,02,00,40,36,50,7E,FE,
61543383,00000147,false,Rx,0,8,00,00,00,00,F0,BF,00,1D,
61545103,0000030B,false,Rx,0,8,10,24,00,00,08,00,00,10,
61545369,00000643,false,Rx,0,8,85,02,13,00,00,00,00,00,
61545999,000005AC,false,Rx,0,8,00,00,FF,FE,FE,F7,07,00,
61547902,1B000015,true,Rx,0,8,15,00,04,02,01,00,00,00,
61548232,00000086,false,Rx,0,8,A4,03,04,20,00,00,00,00,
61549363,000000B2,false,Rx,0,8,00,00,00,00,00,00,00,00,
61549597,000000AD,false,Rx,0,8,5E,ED,BF,FF,00,14,00,00,
61549832,00000101,false,Rx,0,8,47,01,80,01,A2,05,00,00,
61550067,000000AE,false,Rx,0,8,B2,0D,00,00,FF,3C,01,02,
61550316,00000106,false,Rx,0,8,4C,01,63,00,02,00,00,00,
61550460,00000128,false,Rx,0,3,80,00,00,00,00,00,00,00,
61556627,0000011E,false,Rx,0,8,B0,01,00,00,00,00,00,00,
61556632,0000012D,false,Rx,0,8,F9,8F,7F,00,00,00,FE,3F,
61556638,000003B5,false,Rx,0,8,86,FE,12,3A,0C,7F,20,00,
61556643,1B000076,true,Rx,0,8,76,00,04,01,01,00,0A,00,
61556648,000000A7,false,Rx,0,8,22,55,E0,80,FD,0D,58,3D,
61556654,000000A8,false,Rx,0,8,7B,55,3D,E1,82,64,B4,0C,
61556659,000000AF,false,Rx,0,4,83,76,00,00,00,00,00,00,
61556664,000005EA,false,Rx,0,8,00,00,00,36,F8,FE,FB,FF,
61556669,1B000010,true,Rx,0,8,10,00,04,05,11,00,00,00,
61556675,1A55552B,true,Rx,0,8,00,00,00,00,00,FE,F8,03,
61556680,16A95414,true,Rx,0,8,00,60,7E,C3,0F,00,00,00,
61558043,00000585,false,Rx,0,8,0F,3C,00,7F,11,00,00,00,
61558288,00000086,false,Rx,0,8,B7,04,04,20,00,00,00,00,
61559355,000000B2,false,Rx,0,8,00,00,00,00,00,00,00,00,
61559590,000000AD,false,Rx,0,8,84,EE,BF,FF,00,14,00,00,
61559844,000000FD,false,Rx,0,8,01,D1,1F,80,00,00,00,00,
61560079,000000AE,false,Rx,0,8,8A,0E,00,00,FF,3C,01,02,
61560307,00000116,false,Rx,0,8,0D,01,01,04,00,00,00,FF,
61560544,00000394,false,Rx,0,8,70,15,00,1A,00,00,00,00,
61560805,00000392,false,Rx,0,8,8A,26,00,00,00,00,00,04,
61562084,00000040,false,Rx,0,8,A8,04,00,44,C1,00,00,00,
61562328,000000A7,false,Rx,0,8,B1,56,E0,80,FD,0D,58,3D,
61562550,000000A8,false,Rx,0,8,03,56,3D,E1,82,64,B8,0C,
61562727,000000AF,false,Rx,0,4,83,77,00,00,00,00,00,00,
61562960,00000107,false,Rx,0,8,00,00,F8,0B,01,00,51,CA,
61563197,00000120,false,Rx,0,8,F9,03,00,02,01,08,FF,01,
61563445,00000121,false,Rx,0,8,A2,03,00,40,36,50,7E,FE,
61563678,00000147,false,Rx,0,8,00,00,00,00,F0,C3,00,1D,
61563934,000003D8,false,Rx,0,8,00,00,08,00,00,00,00,00,
61565054,00000520,false,Rx,0,8,7E,0B,00,08,00,0A,00,0A,
61565995,000003DB,false,Rx,0,8,50,10,01,04,07,24,01,A2,
61568232,00000086,false,Rx,0,8,D3,05,04,20,00,00,00,00,
61569353,000000B2,false,Rx,0,8,00,00,00,00,00,00,00,00,
61569609,000000AD,false,Rx,0,8,D5,EF,BF,FF,00,14,00,00,
61569844,00000101,false,Rx,0,8,EB,02,80,01,A2,05,00,00,
61570078,000000AE,false,Rx,0,8,68,0F,00,00,FF,3C,01,02,
61570328,00000106,false,Rx,0,8,E0,02,63,00,02,00,00,00,
61570472,00000128,false,Rx,0,3,84,FD,38,00,00,00,00,00,
61577820,0000011E,false,Rx,0,8,1C,02,00,00,00,00,00,00,
61577825,0000012D,false,Rx,0,8,5D,80,7F,00,00,00,FE,3F,
61577831,0000012B,false,Rx,0,8,0B,44,40,28,00,00,00,00,
61577836,00000463,false,Rx,0,8,00,E0,3F,00,00,00,00,00,
61577841,000000A7,false,Rx,0,8,38,57,E0,80,FD,0D,58,3D,
61577847,000000A8,false,Rx,0,8,2E,57,3D,E1,82,64,BC,0C,
61577852,000000AF,false,Rx,0,4,83,78,00,00,00,00,00,00,
61577857,17331110,true,Rx,0,8,80,07,34,5E,00,01,01,00,
61577862,000003DD,false,Rx,0,8,48,04,10,00,FE,47,00,00,
61577868,0000031E,false,Rx,0,8,1B,F5,3F,00,00,00,00,40,
61577873,0000032C,false,Rx,0,8,00,0F,00,00,98,24,00,00,
61577878,0000032F,false,Rx,0,8,00,FF,00,00,00,00,74,01,
61578225,00000086,false,Rx,0,8,7F,06,04,20,00,00,00,00,
61579394,000000B2,false,Rx,0,8,00,00,00,00,00,00,00,00,
61579629,000000AD,false,Rx,0,8,48,E0,BF,FF,00,14,00,00,
61579864,000000FD,false,Rx,0,8,CE,D2,1F,80,00,00,00,00,
61580098,000000AE,false,Rx,0,8,DF,00,00,00,FF,3C,01,02,
61580356,00000116,false,Rx,0,8,A1,02,01,04,00,00,00,FF,
61580591,000000B1,false,Rx,0,8,D6,21,00,00,00,00,00,00,
61580824,000003E5,false,Rx,0,8,93,28,00,00,00,00,00,00,
61582000,000000A7,false,Rx,0,8,75,58,E0,80,FD,0D,58,3D,
61582266,000000A8,false,Rx,0,8,82,58,3D,E1,82,64,C4,0C,
61582488,00000107,false,Rx,0,8,00,00,F8,0B,01,00,63,CA,
61582644,000000AF,false,Rx,0,4,83,79,C5,01,00,00,00,00,
61582899,00000120,false,Rx,0,8,AF,04,00,02,01,08,FF,01,
61583134,00000121,false,Rx,0,8,1F,04,00,40,36,50,7E,FE,
61583391,00000147,false,Rx,0,8,00,00,00,00,F0,C3,00,1D,
61585995,00000365,false,Rx,0,8,AD,06,24,00,93,0F,9C,7A,
61588231,00000086,false,Rx,0,8,1B,07,04,20,00,00,00,00,
61589342,000000B2,false,Rx,0,8,00,00,00,00,00,00,00,00,
61589577,000000AD,false,Rx,0,8,86,E1,BF,FF,00,14,00,00,
61589812,00000101,false,Rx,0,8,05,03,80,01,A2,01,00,00,
61590068,000000AE,false,Rx,0,8,30,01,00,00,FF,3C,01,02,
61590295,00000106,false,Rx,0,8,84,03,63,00,02,00,00,00,
61590460,00000128,false,Rx,0,3,80,00,00,00,00,00,00,00,
61590693,0000011E,false,Rx,0,8,78,03,00,00,00,00,00,00,
61596691,0000012D,false,Rx,0,8,0A,81,7F,00,00,00,FE,3F,
61596696,000003C8,false,Rx,0,8,00,00,54,24,00,60,11,94,
61596701,17F00077,true,Rx,0,8,20,77,00,00,00,00,00,00,
61596707,1B000077,true,Rx,0,8,77,00,04,02,01,00,00,00,
61596712,000000A7,false,Rx,0,8,A5,59,E0,80,FD,0D,58,3D,
61596717,000000A8,false,Rx,0,8,B8,59,3D,E1,82,64,C8,0C,
61596723,000000AF,false,Rx,0,4,83,7A,C5,01,00,00,00,00,
61596728,0000030B,false,Rx,0,8,10,25,00,00,08,00,00,10,
61596733,0000065E,false,Rx,0,8,00,00,0A,A1,23,00,00,00,
61596738,000003DE,false,Rx,0,8,FE,00,00,00,00,00,00,00,
61598225,00000086,false,Rx,0,8,59,08,04,20,00,00,00,00,
61599328,000000B2,false,Rx,0,8,00,00,00,00,00,00,00,00,
61599570,000000AD,false,Rx,0,8,62,E2,BF,FF,00,14,00,00,
61599805,000000FD,false,Rx,0,8,BB,D3,1F,80,00,00,00,00,
61600038,000000AE,false,Rx,0,8,31,02,00,00,FF,3C,01,02,
61600289,00000116,false,Rx,0,8,C5,03,01,04,00,00,00,FF,
61600571,0000012B,false,Rx,0,8,AE,45,40,28,00,00,00,00,
61602046,000000A7,false,Rx,0,8,A3,5A,E0,80,FD,0D,58,3D,
61602277,000000A8,false,Rx,0,8,E7,5A,3D,E1,82,64,C8,0C,
61602520,00000107,false,Rx,0,8,00,00,F8,0B,01,00,63,CA,
61602674,000000AF,false,Rx,0,4,83,7B,00,00,00,00,00,00,
61602909,00000120,false,Rx,0,8,AD,05,00,02,01,08,FF,01,
61603144,00000121,false,Rx,0,8,28,05,00,40,36,50,7E,FE,
61603394,00000147,false,Rx,0,8,00,00,00,00,F0,C3,00,1D,
61603630,00000391,false,Rx,0,8,16,89,23,59,00,27,00,22,
61603864,000003BE,false,Rx,0,8,75,0E,E6,00,C8,80,00,80,
61604119,000003C7,false,Rx,0,8,01,10,24,00,00,40,80,00,
61608250,00000086,false,Rx,0,8,3D,09,04,20,00,00,00,00,
61609421,000000B2,false,Rx,0,8,00,00,00,00,00,00,00,00,
61609656,000000AD,false,Rx,0,8,E3,E3,BF,FF,00,14,00,00,
61609911,00000101,false,Rx,0,8,A3,04,80,01,A2,00,00,00,
61610146,000000AE,false,Rx,0,8,14,03,00,00,FF,3C,01,02,
61610371,00000106,false,Rx,0,8,97,04,63,00,02,00,00,00,
61610533,00000128,false,Rx,0,3,84,FD,C7,00,00,00,00,00,
61610766,0000011E,false,Rx,0,8,6B,04,00,00,00,00,00,00,
61616801,0000012D,false,Rx,0,8,18,82,7F,00,00,00,FE,3F,
61616807,000006B4,false,Rx,0,8,01,48,31,37,41,55,30,48,
61616812,000000A7,false,Rx,0,8,CD,5B,E0,80,FD,0D,58,3D,
61616817,00000040,false,Rx,0,8,CC,05,00,44,C1,00,00,00,
61616823,000000A8,false,Rx,0,8,5A,5B,3D,E1,82,64,C0,0C,
61616828,000000AF,false,Rx,0,4,83,7C,00,00,00,00,00,00,
61618234,00000086,false,Rx,0,8,91,0A,04,20,00,00,00,00,
61619316,000000B2,false,Rx,0,8,00,00,00,00,00,00,00,00,
61619559,000000AD,false,Rx,0,8,41,E4,BF,FF,00,14,00,00,
61619815,000000FD,false,Rx,0,8,2D,D4,1F,80,00,00,00,00,
61620050,000000AE,false,Rx,0,8,1A,04,00,00,FF,3C,01,02,
61620296,00000116,false,Rx,0,8,D6,04,01,04,00,00,00,FF,
61621085,00000464,false,Rx,0,8,7B,BD,EF,C6,C7,4E,91,3C,
61622073,000000A7,false,Rx,0,8,72,5C,E0,80,FD,0D,58,3D,
61622295,000000A8,false,Rx,0,8,18,5C,3D,21,83,64,BC,0C,
61622459,000000AF,false,Rx,0,4,83,7D,3A,01,00,00,00,00,
61622694,00000107,false,Rx,0,8,00,00,F8,0B,01,00,75,CA,
61622949,00000120,false,Rx,0,8,42,06,00,02,01,08,FF,01,
61623184,00000121,false,Rx,0,8,2F,06,00,40,36,50,7E,FE,
61623434,00000147,false,Rx,0,8,00,00,00,00,F0,C3,00,1D,
61625639,17331110,true,Rx,0,5,44,51,0F,23,0F,00,00,00,
61626348,0000031E,false,Rx,0,8,9C,F6,3F,00,00,00,00,40,
61626608,0000032C,false,Rx,0,8,00,0F,00,00,98,24,00,00,
61626863,0000032F,false,Rx,0,8,00,FF,00,00,00,00,74,01,
61628235,00000086,false,Rx,0,8,F5,0B,04,20,00,00,00,00,
61629343,000000B2,false,Rx,0,8,00,00,00,00,00,00,00,00,
61629577,000000AD,false,Rx,0,8,74,E5,BF,FF,00,14,00,00,
61629812,00000101,false,Rx,0,8,37,05,80,01,A2,03,00,00,
61630047,000000AE,false,Rx,0,8,E1,05,00,00,FF,3C,01,02,
61630271,00000106,false,Rx,0,8,F3,05,63,00,02,00,00,00,
61630449,00000128,false,Rx,0,3,80,00,00,00,00,00,00,00,
61630682,0000011E,false,Rx,0,8,0F,05,00,00,00,00,00,00,
61636773,0000012D,false,Rx,0,8,89,83,7F,00,00,00,FE,3F,
61636778,0000012B,false,Rx,0,8,B7,46,40,28,00,00,00,00,
61636783,000003C0,false,Rx,0,4,74,00,03,00,00,00,00,00,
61636788,000003D6,false,Rx,0,8,0C,00,00,00,00,00,30,00,
61636794,000000A7,false,Rx,0,8,82,5D,E0,80,FD,0D,58,3D,
61636799,000000A8,false,Rx,0,8,33,5D,3D,21,83,64,B8,0C,
61636804,000000AF,false,Rx,0,4,83,7E,3A,01,00,00,00,00,
61636809,00000365,false,Rx,0,8,AE,06,24,00,93,0F,9C,7A,
61638213,00000086,false,Rx,0,8,E6,0C,04,20,00,00,00,00,
61639362,000000B2,false,Rx,0,8,00,00,00,00,00,00,00,00,
61639571,000000AD,false,Rx,0,8,6A,E6,BF,FF,00,14,00,00,
61639832,000000FD,false,Rx,0,8,B7,D5,1F,80,00,00,00,00,
61640065,000000AE,false,Rx,0,8,BA,06,00,00,FF,3C,01,02,
61640315,00000116,false,Rx,0,8,B2,05,01,04,00,00,00,FF,
61642014,000000A7,false,Rx,0,8,09,5E,E0,80,FD,0D,58,3D,
61642260,000000A8,false,Rx,0,8,B9,5E,3D,21,83,64,BC,0C,
61642482,00000107,false,Rx,0,8,00,00,F8,0B,01,00,75,CA,
61642659,000000AF,false,Rx,0,4,83,7F,00,00,00,00,00,00,
61642893,00000120,false,Rx,0,8,40,07,00,02,01,08,FF,01,
61643126,00000121,false,Rx,0,8,7C,07,00,40,36,50,7E,FE,
61643381,00000147,false,Rx,0,8,00,00,00,00,F0,C3,00,1D,
61645034,0000030B,false,Rx,0,8,10,26,00,00,08,00,00,10,
61645756,000006B7,false,Rx,0,8,D1,9D,53,04,00,11,00,9E,
61646031,000005AC,false,Rx,0,8,00,00,FF,FE,FE,F7,07,00,
61646277,000006B8,false,Rx,0,8,B8,07,84,F8,1B,6C,00,00,
61648231,00000086,false,Rx,0,8,82,0D,04,20,00,00,00,00,
61649396,000000B2,false,Rx,0,8,00,00,00,00,00,00,00,00,
61649630,000000AD,false,Rx,0,8,35,E7,BF,FF,00,14,00,00,
61649859,00000101,false,Rx,0,8,50,06,80,01,A2,08,00,00,
61650120,000000AE,false,Rx,0,8,28,07,00,00,FF,3C,01,02,
61650369,00000106,false,Rx,0,8,5F,06,63,00,02,00,00,00,
61650505,00000128,false,Rx,0,3,84,FF,11,00,00,00,00,00,
61650759,0000011E,false,Rx,0,8,A3,06,00,00,00,00,00,00,
61656791,0000012D,false,Rx,0,8,06,84,7F,00,00,00,FE,3F,
61656796,000003B5,false,Rx,0,8,86,FE,12,3A,0C,82,20,00,
61656801,000000A7,false,Rx,0,8,D7,5F,E0,80,FD,0D,58,3D,
61656807,000000A8,false,Rx,0,8,F0,5F,3D,21,83,64,C8,0C,
61656812,000000AF,false,Rx,0,4,83,70,00,00,00,00,00,00,
61656817,16A95414,true,Rx,0,8,00,60,7E,C3,0F,00,00,00,
61658219,00000086,false,Rx,0,8,2E,0E,04,20,00,00,00,00,
61659349,000000B2,false,Rx,0,8,00,00,00,00,00,00,00,00,
61659588,000000AD,false,Rx,0,8,A2,E8,BF,FF,00,14,00,00,
61659822,000000FD,false,Rx,0,8,A5,D6,1F,80,00,00,00,00,
61660077,000000AE,false,Rx,0,8,5F,08,00,00,FF,3C,01,02,
61660324,00000116,false,Rx,0,8,1E,06,01,04,00,00,00,FF,
61660567,0000012B,false,Rx,0,8,92,47,40,28,00,00,00,00,
61660822,00000392,false,Rx,0,8,EE,27,00,00,00,00,00,04,
61661967,000000A7,false,Rx,0,8,1E,50,E0,80,FD,0D,58,3D,
61662234,00000040,false,Rx,0,8,60,06,00,44,C1,00,00,00,
61662457,000000A8,false,Rx,0,8,30,50,3D,21,83,64,D4,0C,
61662632,000000AF,false,Rx,0,4,83,71,00,01,00,00,00,00,
61662867,00000107,false,Rx,0,8,00,00,F8,0B,01,00,87,CA,
61663102,00000120,false,Rx,0,8,19,08,00,02,01,08,FF,01,
61663356,00000121,false,Rx,0,8,BF,08,00,40,36,50,7E,FE,
61663591,00000147,false,Rx,0,8,00,00,00,00,F0,C3,00,1D,
61663824,000003D8,false,Rx,0,8,00,00,08,00,00,00,00,00,
61665995,000003DB,false,Rx,0,8,50,10,01,04,07,24,01,A2,
61668244,00000086,false,Rx,0,8,4A,0F,04,20,00,00,00,00,
61669387,000000B2,false,Rx,0,8,00,00,00,00,00,00,00,00,
61669622,000000AD,false,Rx,0,8,A6,E9,BF,FF,00,14,00,00,
61669852,00000101,false,Rx,0,8,C0,07,80,01,A2,06,00,00,
61670111,000000AE,false,Rx,0,8,B7,09,00,00,FF,3C,01,02,
61670363,00000106,false,Rx,0,8,3B,07,63,00,02,00,00,00,
61670498,00000128,false,Rx,0,3,80,00,00,00,00,00,00,00,
61670753,0000011E,false,Rx,0,8,C7,07,00,00,00,00,00,00,
61676813,0000012D,false,Rx,0,8,79,85,7F,00,00,00,FE,3F,
61676819,000001AB,false,Rx,0,8,AF,0E,04,02,18,00,04,00,
61676824,00000462,false,Rx,0,8,00,00,38,00,00,01,00,00,
61676829,000000A7,false,Rx,0,8,96,51,E0,80,FD,0D,58,3D,
61676881,000000A8,false,Rx,0,8,02,51,3D,21,83,64,D8,0C,
61676886,000000AF,false,Rx,0,4,83,72,00,01,00,00,00,00,
61676891,17331110,true,Rx,0,4,C0,00,00,00,00,00,00,00,
61676896,000003DD,false,Rx,0,8,48,04,10,00,FE,47,00,00,
61676901,0000031E,false,Rx,0,8,9A,F7,3F,00,00,00,00,40,
61676907,0000032C,false,Rx,0,8,00,0F,00,00,98,24,00,00,
61676912,0000032F,false,Rx,0,8,00,FF,00,00,00,00,74,01,
61678228,00000086,false,Rx,0,8,08,00,04,20,00,00,00,00,
61679414,000000B2,false,Rx,0,8,00,00,00,00,00,00,00,00,
61679670,000000AD,false,Rx,0,8,F7,EA,BF,FF,00,14,00,00,
61679904,000000FD,false,Rx,0,8,9F,D7,1F,80,00,00,00,00,
61680138,000000AE,false,Rx,0,8,CB,0A,00,00,FF,3C,01,02,
61680389,00000116,false,Rx,0,8,7A,07,01,04,00,00,00,FF,
61680622,000000B1,false,Rx,0,8,D9,22,00,00,00,00,00,00,
61680852,000001A2,false,Rx,0,8,54,0B,00,00,00,00,00,00,
61681107,000003E5,false,Rx,0,8,7E,29,00,00,00,00,00,00,
61682014,000000A7,false,Rx,0,8,68,52,E0,80,FD,09,58,3D,
61682260,000000A8,false,Rx,0,8,EE,52,3D,21,83,64,D8,0C,
61682483,00000107,false,Rx,0,8,00,00,F8,0B,01,00,87,CA,
61682659,000000AF,false,Rx,0,4,83,73,00,00,00,00,00,00,
61682894,00000120,false,Rx,0,8,4F,09,00,02,01,08,FF,01,
61683129,00000121,false,Rx,0,8,40,09,00,40,36,50,7E,FE,
61683384,00000147,false,Rx,0,8,00,00,00,00,F0,C3,00,1D,
61683619,000003D4,false,Rx,0,8,A7,09,80,06,00,04,00,00,
61685982,00000365,false,Rx,0,8,AE,06,24,00,93,0F,9C,7A,
61688219,00000086,false,Rx,0,8,6C,01,04,20,00,00,00,00,
61689349,000000B2,false,Rx,0,8,00,00,00,00,00,00,00,00,
61689584,000000AD,false,Rx,0,8,42,EB,BF,FF,00,14,00,00,
61689819,00000101,false,Rx,0,8,76,08,81,01,A2,06,00,00,
61690054,000000AE,false,Rx,0,8,69,0B,00,00,FF,3C,01,02,
61690305,00000106,false,Rx,0,8,79,08,63,00,02,00,00,00,
61690448,00000128,false,Rx,0,3,80,00,00,00,00,00,00,00,
61690703,0000011E,false,Rx,0,8,85,08,00,00,00,00,00,00,
61696830,0000012D,false,Rx,0,8,C9,86,7F,00,00,00,FE,3F,
61696836,0000012B,false,Rx,0,8,47,48,40,28,00,00,00,00,
61696841,000003C8,false,Rx,0,8,00,00,54,24,00,60,11,94,
61696846,000000A7,false,Rx,0,8,E9,53,E0,80,FD,09,58,3D,
61696852,000000A8,false,Rx,0,8,D9,53,3D,21,83,64,CC,0C,
61696857,000000AF,false,Rx,0,4,83,74,00,00,00,00,00,00,
61696862,0000030B,false,Rx,0,8,10,27,00,00,08,00,00,10,
61696867,000003DE,false,Rx,0,8,FE,00,00,00,00,00,00,00,
61698202,00000086,false,Rx,0,8,C0,02,04,20,00,00,00,00,
61699290,000000B2,false,Rx,0,8,00,00,00,00,00,00,00,00,
61699538,000000AD,false,Rx,0,8,2F,EC,BF,FF,00,14,00,00,
61699794,000000FD,false,Rx,0,8,58,D8,1F,80,00,00,00,00,
61700029,000000AE,false,Rx,0,8,D1,0C,00,00,FF,3C,01,02,
61700277,00000116,false,Rx,0,8,38,08,01,04,00,00,00,FF,
61702002,000000A7,false,Rx,0,8,D3,54,E0,80,FD,09,58,3D,
61702250,000000A8,false,Rx,0,8,05,54,3D,21,83,64,C4,0C,
61702473,00000107,false,Rx,0,8,00,00,F8,0B,01,00,99,CA,
61702649,000000AF,false,Rx,0,4,83,75,00,00,00,00,00,00,
61702883,00000120,false,Rx,0,8,94,0A,00,02,01,08,FF,01,
61703118,00000121,false,Rx,0,8,25,0A,00,40,36,50,7E,FE,
61703367,00000147,false,Rx,0,8,00,00,00,00,F0,BF,00,1D,
61703602,00000391,false,Rx,0,8,16,89,23,5A,00,27,00,22,
61703835,000003BE,false,Rx,0,8,78,0F,E6,00,C8,80,00,80,
61704090,000003C7,false,Rx,0,8,2C,10,24,00,00,40,80,00,
61708219,00000086,false,Rx,0,8,A4,03,04,20,00,00,00,00,
61709384,000000B2,false,Rx,0,8,00,00,00,00,00,00,00,00,
61709617,000000AD,false,Rx,0,8,5E,ED,BF,FF,00,14,00,00,
61709852,00000101,false,Rx,0,8,D1,09,81,02,A2,03,00,00,
61710081,000000AE,false,Rx,0,8,B2,0D,00,00,FF,3C,01,02,
61710353,00000106,false,Rx,0,8,1D,09,63,00,02,00,00,00,
61710489,00000128,false,Rx,0,3,84,F3,37,00,00,00,00,00,
61710723,0000011E,false,Rx,0,8,E1,09,00,00,00,00,00,00,
61716833,0000012D,false,Rx,0,8,98,87,7F,00,00,00,FE,3F,
61716838,000000A7,false,Rx,0,8,3B,55,A0,80,FD,0D,58,3D,
61716843,00000040,false,Rx,0,8,04,07,00,44,C1,00,00,00,
61716849,000000A8,false,Rx,0,8,57,55,3D,21,83,64,C0,0C,
61716854,000000AF,false,Rx,0,4,83,76,00,00,00,00,00,00,
61718220,00000086,false,Rx,0,8,B7,04,04,20,00,00,00,00,
61719304,000000B2,false,Rx,0,8,00,00,00,00,00,00,00,00,
61719547,000000AD,false,Rx,0,8,84,EE,BF,FF,00,14,00,00,
61719782,000000FD,false,Rx,0,8,6A,D9,1F,80,00,00,00,00,
61720017,000000AE,false,Rx,0,8,8A,0E,00,00,FF,3C,01,02,
61720258,00000116,false,Rx,0,8,5C,09,01,04,00,00,00,FF,
61720502,00000394,false,Rx,0,8,B5,16,00,1A,00,00,00,00,
61720737,0000012B,false,Rx,0,8,4F,49,40,28,00,00,00,00,
61721315,00000463,false,Rx,0,8,00,E0,3F,00,00,00,00,00,
61722013,000000A7,false,Rx,0,8,A8,56,A0,80,FD,0D,58,3D,
61722230,000000A8,false,Rx,0,8,17,56,3D,21,83,64,C8,0C,
61722479,00000107,false,Rx,0,8,00,00,F8,0B,01,00,99,CA,
61722634,000000AF,false,Rx,0,4,83,77,C4,01,00,00,00,00,
61722869,00000120,false,Rx,0,8,38,0B,00,02,01,08,FF,01,
61723098,00000121,false,Rx,0,8,8E,0B,00,40,36,50,7E,FE,
61723366,00000147,false,Rx,0,8,00,00,00,00,F0,BF,00,1D,
61726521,0000031E,false,Rx,0,8,D3,F8,3F,00,00,00,00,40,
61726754,0000032C,false,Rx,0,8,00,0F,00,00,98,24,00,00,
61727010,0000032F,false,Rx,0,8,00,FF,00,00,00,00,74,01,
61728226,00000086,false,Rx,0,8,D3,05,04,20,00,00,00,00,
61729364,000000B2,false,Rx,0,8,00,00,00,00,00,00,00,00,
61729620,000000AD,false,Rx,0,8,D5,EF,BF,FF,00,14,00,00,
61729855,00000101,false,Rx,0,8,42,0A,81,02,A2,06,00,00,
61730090,000000AE,false,Rx,0,8,68,0F,00,00,FF,3C,01,02,
61730352,00000106,false,Rx,0,8,B1,0A,63,00,02,00,00,00,
61730488,00000128,false,Rx,0,3,80,00,00,00,00,00,00,00,
61730723,0000011E,false,Rx,0,8,4D,0A,00,00,00,00,00,00,
61736862,0000012D,false,Rx,0,8,57,88,7F,00,00,00,FE,3F,
61736867,000003C0,false,Rx,0,4,C1,01,03,00,00,00,00,00,
61736872,000003D6,false,Rx,0,8,0D,00,00,00,00,00,30,00,
61736878,000000A7,false,Rx,0,8,21,57,A0,80,FD,0D,58,3D,
61736883,000000A8,false,Rx,0,8,92,57,3D,21,83,64,D0,0C,
61736888,000000AF,false,Rx,0,4,83,78,C4,01,00,00,00,00,
61736893,1B000053,true,Rx,0,8,53,00,04,01,01,00,00,00,
61736899,000005F0,false,Rx,0,8,FD,00,64,00,00,64,00,00,
61736904,00000365,false,Rx,0,8,AE,06,23,00,92,0F,9C,7A,
61738236,00000086,false,Rx,0,8,7F,06,04,20,00,00,00,00,
61739391,000000B2,false,Rx,0,8,00,00,00,00,00,00,00,00,
61739626,000000AD,false,Rx,0,8,48,E0,BF,FF,00,14,00,00,
61739861,000000FD,false,Rx,0,8,26,DA,1F,80,00,00,00,00,
61740095,000000AE,false,Rx,0,8,DF,00,00,00,FF,3C,01,02,
61740352,00000116,false,Rx,0,8,F0,0A,01,04,00,00,00,FF,
61741001,00000569,false,Rx,0,8,00,00,00,3E,F8,10,00,00,
61742020,000000A7,false,Rx,0,8,6C,58,A0,80,FD,0D,58,3D,
61742268,000000A8,false,Rx,0,8,B0,58,3D,21,83,64,D0,0C,
61742512,00000107,false,Rx,0,8,00,00,F8,0B,01,00,AB,CA,
61742667,000000AF,false,Rx,0,4,83,79,00,00,00,00,00,00,
61742922,00000120,false,Rx,0,8,E2,0C,00,02,01,08,FF,01,
61743157,00000121,false,Rx,0,8,4B,0C,00,40,36,50,7E,FE,
61743389,00000147,false,Rx,0,8,00,00,00,00,F0,BF,00,1D,
61745046,0000030B,false,Rx,0,8,10,28,00,00,08,00,00,10,
61745994,000005AC,false,Rx,0,8,00,00,FF,FE,FE,F7,07,00,
61748043,1B000015,true,Rx,0,8,15,00,04,02,01,00,00,00,
61748268,00000086,false,Rx,0,8,1B,07,04,20,00,00,00,00,
61749393,000000B2,false,Rx,0,8,00,00,00,00,00,00,00,00,
61749649,000000AD,false,Rx,0,8,86,E1,BF,FF,00,14,00,00,
61749884,00000101,false,Rx,0,8,63,0B,81,02,A2,04,00,00,
61750117,000000AE,false,Rx,0,8,30,01,00,00,FF,3C,01,02,
61750369,00000106,false,Rx,0,8,D5,0B,63,00,02,00,00,00,
61750505,00000128,false,Rx,0,3,84,F3,C8,00,00,00,00,00,
61750739,0000011E,false,Rx,0,8,29,0B,00,00,00,00,00,00,
61756882,0000012D,false,Rx,0,8,F2,89,7F,00,00,00,FE,3F,
61756887,0000012B,false,Rx,0,8,5F,4A,40,28,00,00,00,00,
61756892,1B000076,true,Rx,0,8,76,00,04,01,01,00,0A,00,
61756898,000003B5,false,Rx,0,8,86,FE,12,3A,0C,82,20,00,
61756903,000000A7,false,Rx,0,8,A5,59,E0,80,FD,0D,58,3D,
61756908,000000A8,false,Rx,0,8,FA,59,3D,21,83,64,D4,0C,
61756914,00000642,false,Rx,0,8,10,00,00,00,0C,18,11,1F,
61756919,000000AF,false,Rx,0,4,83,7A,00,00,00,00,00,00,
61756924,1B000010,true,Rx,0,8,10,00,04,05,11,00,00,00,
61756929,16A95414,true,Rx,0,8,00,60,7E,C3,0F,00,00,00,
61757639,16A95415,true,Rx,0,8,00,00,00,00,14,00,98,00,
61758223,00000086,false,Rx,0,8,59,08,04,20,00,00,00,00,
61759374,000000B2,false,Rx,0,8,00,00,00,00,00,00,00,00,
61759610,000000AD,false,Rx,0,8,62,E2,BF,FF,00,14,00,00,
61759844,000000FD,false,Rx,0,8,09,DB,1F,80,00,00,00,00,
61760100,000000AE,false,Rx,0,8,31,02,00,00,FF,3C,01,02,
61760327,00000116,false,Rx,0,8,94,0B,01,04,00,00,00,FF,
61760564,00000392,false,Rx,0,8,AC,28,00,00,00,00,00,04,
61762040,00000040,false,Rx,0,8,46,08,00,44,C1,00,00,00,
61762292,000000A7,false,Rx,0,8,29,5A,E0,80,FD,09,58,3D,
61762513,000000A8,false,Rx,0,8,35,5A,3D,21,83,64,CC,0C,
61762689,000000AF,false,Rx,0,4,83,7B,3B,01,00,00,00,00,
61762924,00000107,false,Rx,0,8,00,00,F8,0B,01,00,AB,CA,
61763158,00000120,false,Rx,0,8,52,0D,00,02,01,08,FF,01,
61763388,00000121,false,Rx,0,8,58,0D,00,40,36,50,7E,FE,
61763644,00000147,false,Rx,0,8,00,00,00,00,F0,BF,00,1D,
61763876,000003D8,false,Rx,0,8,00,00,08,00,00,00,00,00,
61765081,00000520,false,Rx,0,8,6D,0C,00,08,00,0A,00,0A,
61765986,000003DB,false,Rx,0,8,50,10,01,04,07,24,01,A2,
61768219,00000086,false,Rx,0,8,3D,09,04,20,00,00,00,00,
61769365,000000B2,false,Rx,0,8,00,00,00,00,00,00,00,00,
61769605,000000AD,false,Rx,0,8,E3,E3,BF,FF,00,14,00,00,
61769834,00000101,false,Rx,0,8,C5,0C,81,02,A2,05,00,00,
61770094,000000AE,false,Rx,0,8,14,03,00,00,FF,3C,01,02,
61770323,00000106,false,Rx,0,8,C6,0C,63,00,02,00,00,00,
61770488,00000128,false,Rx,0,3,80,00,00,00,00,00,00,00,
61770721,0000011E,false,Rx,0,8,3A,0C,00,00,00,00,00,00,
61778059,0000012D,false,Rx,0,8,7B,8A,7F,00,00,00,FE,3F,
61778064,00000464,false,Rx,0,8,08,4C,00,00,00,00,00,00,
61778070,000000A7,false,Rx,0,8,5E,5B,A0,80,FD,09,58,3D,
61778075,000000A8,false,Rx,0,8,B0,5B,3D,21,83,64,C0,0C,
61778080,000000AF,false,Rx,0,4,83,7C,3B,01,00,00,00,00,
61778086,000003DD,false,Rx,0,8,48,04,10,00,FE,47,00,00,
61778091,0000031E,false,Rx,0,8,EC,F9,3F,00,00,00,00,40,
61778096,0000032C,false,Rx,0,8,00,0F,00,00,98,24,00,00,
61778102,0000032F,false,Rx,0,8,00,FF,00,00,00,00,74,01,
61778228,00000086,false,Rx,0,8,91,0A,04,20,00,00,00,00,
61779386,000000B2,false,Rx,0,8,00,00,00,00,00,00,00,00,
61779621,000000AD,false,Rx,0,8,41,E4,BF,FF,00,14,00,00,
61779877,000000FD,false,Rx,0,8,90,DC,1F,80,00,00,00,00,
61780111,000000AE,false,Rx,0,8,1A,04,00,00,FF,3C,01,02,
61780363,00000116,false,Rx,0,8,87,0C,01,04,00,00,00,FF,
61780598,000000B1,false,Rx,0,8,E8,23,00,00,00,00,00,00,
61780831,0000012B,false,Rx,0,8,FA,4B,40,28,00,00,00,00,
61781085,000003E5,false,Rx,0,8,E6,2A,00,00,00,00,00,00,
61782009,000000A7,false,Rx,0,8,64,5C,A0,80,FD,0D,68,3D,
61782260,000000A8,false,Rx,0,8,EC,6C,3D,61,83,64,BC,0C,
61782478,00000107,false,Rx,0,8,00,00,F8,0B,01,00,BD,CA,
61782658,000000AF,false,Rx,0,4,83,7D,00,00,00,00,00,00,
61782892,00000120,false,Rx,0,8,39,0E,00,02,01,08,FF,01,
61783126,00000121,false,Rx,0,8,CB,0E,00,40,36,50,7E,FE,
61783371,00000147,false,Rx,0,8,00,00,00,00,F0,BF,00,1D,
61785998,00000365,false,Rx,0,8,AE,06,23,00,92,0F,9C,7A,
61788237,00000086,false,Rx,0,8,F5,0B,04,20,00,00,00,00,
61789396,000000B2,false,Rx,0,8,00,00,00,00,00,00,00,00,
61789631,000000AD,false,Rx,0,8,74,E5,BF,FF,00,14,00,00,
61789866,00000101,false,Rx,0,8,A5,0D,81,02,A2,08,00,00,
61790100,000000AE,false,Rx,0,8,E1,05,00,00,FF,3C,01,02,
61790355,00000106,false,Rx,0,8,A2,0D,63,00,02,00,00,00,
61790491,00000128,false,Rx,0,3,84,FF,12,00,00,00,00,00,
61790746,0000011E,false,Rx,0,8,5E,0D,00,00,00,00,00,00,
61796881,0000012D,false,Rx,0,8,60,8B,7F,00,00,00,FE,3F,
61796886,000003C8,false,Rx,0,8,00,00,54,24,00,60,11,94,
61796892,1B000077,true,Rx,0,8,77,00,04,02,01,00,00,00,
61796897,000000A7,false,Rx,0,8,8D,5D,E0,80,FD,0D,68,3D,
61796902,000000A8,false,Rx,0,8,49,6D,3D,61,83,64,C0,0C,
61796908,000000AF,false,Rx,0,4,83,7E,00,00,00,00,00,00,
61796913,0000030B,false,Rx,0,8,10,29,00,00,08,00,00,10,
61796918,000003DE,false,Rx,0,8,FE,00,00,00,00,00,00,00,
61798232,00000086,false,Rx,0,8,E6,0C,04,20,00,00,00,00,
61799343,000000B2,false,Rx,0,8,00,00,00,00,00,00,00,00,
61799577,000000AD,false,Rx,0,8,6A,E6,BF,FF,00,14,00,00,
61799812,000000FD,false,Rx,0,8,19,DD,1F,80,00,00,00,00,
61800045,000000AE,false,Rx,0,8,BA,06,00,00,FF,3C,01,02,
61800296,00000116,false,Rx,0,8,E3,0D,01,04,00,00,00,FF,
61802028,000000A7,false,Rx,0,8,06,5E,E0,80,FD,0D,68,3D,
61802270,000000A8,false,Rx,0,8,8B,6E,3D,61,83,64,C8,0C,
61802513,00000107,false,Rx,0,8,00,00,F8,0B,01,00,CF,CA,
61802667,000000AF,false,Rx,0,4,83,7F,00,01,00,00,00,00,
61802903,00000120,false,Rx,0,8,EC,0F,00,02,01,08,FF,01,
61803133,00000121,false,Rx,0,8,7D,0F,00,40,36,50,7E,FE,
61803382,00000147,false,Rx,0,8,00,00,00,00,F0,BF,00,1D,
61803622,00000391,false,Rx,0,8,17,89,23,5B,00,27,00,22,
61803878,000003BE,false,Rx,0,8,C1,00,E6,00,C8,80,00,80,
61804111,000003C7,false,Rx,0,8,01,10,24,00,00,40,80,00,
61808262,00000086,false,Rx,0,8,82,0D,04,20,00,00,00,00,
61809415,000000B2,false,Rx,0,8,00,00,00,00,00,00,00,00,
61809649,000000AD,false,Rx,0,8,35,E7,BF,FF,00,14,00,00,
61809878,00000101,false,Rx,0,8,40,0E,80,01,A2,07,00,00,
61810138,000000AE,false,Rx,0,8,28,07,00,00,FF,3C,01,02,
61810374,00000106,false,Rx,0,8,0E,0E,63,00,02,00,00,00,
61810531,00000128,false,Rx,0,3,80,00,00,00,00,00,00,00,
61810764,0000011E,false,Rx,0,8,F2,0E,00,00,00,00,00,00,
61816895,0000012D,false,Rx,0,8,52,8C,7F,00,00,00,FE,3F,
61816900,0000012B,false,Rx,0,8,BF,4C,40,28,00,00,00,00,
61816905,000006B4,false,Rx,0,8,00,91,97,71,29,33,56,57,
61816911,000000A7,false,Rx,0,8,D8,5F,E0,80,FD,0D,68,3D,
61816916,00000040,false,Rx,0,8,22,09,00,44,C1,00,00,00,
61816921,000000A8,false,Rx,0,8,94,6F,3D,61,83,64,D0,0C,
61816927,000000AF,false,Rx,0,4,83,70,00,01,00,00,00,00,
61818234,00000086,false,Rx,0,8,2E,0E,04,20,00,00,00,00,
61819315,000000B2,false,Rx,0,8,00,00,00,00,00,00,00,00,
61819559,000000AD,false,Rx,0,8,A2,E8,BF,FF,00,14,00,00,
61819793,000000FD,false,Rx,0,8,E6,DE,1F,80,00,00,00,00,
61820028,000000AE,false,Rx,0,8,5F,08,00,00,FF,3C,01,02,
61820277,00000116,false,Rx,0,8,4F,0E,01,04,00,00,00,FF,
61821193,00000462,false,Rx,0,8,00,00,38,00,00,01,00,00,
61822054,000000A7,false,Rx,0,8,11,50,E0,80,FD,0D,68,3D,
61822276,000000A8,false,Rx,0,8,54,60,3D,61,83,64,CC,0C,
61822519,00000107,false,Rx,0,8,00,00,F8,0B,01,00,CF,CA,
61822695,000000AF,false,Rx,0,4,83,71,00,00,00,00,00,00,
61822929,00000120,false,Rx,0,8,26,00,00,02,01,08,FF,01,
61823158,00000121,false,Rx,0,8,B3,00,00,40,36,50,7E,FE,
61823417,00000147,false,Rx,0,8,00,00,00,00,F0,BF,00,1D,
61826434,0000031E,false,Rx,0,8,D8,FA,3F,00,00,00,00,40,
61826667,0000032C,false,Rx,0,8,00,0F,00,00,98,24,00,00,
61826923,0000032F,false,Rx,0,8,00,FF,00,00,00,00,74,01,
61828227,00000086,false,Rx,0,8,4A,0F,04,20,00,00,00,00,
61829394,000000B2,false,Rx,0,8,00,00,00,00,00,00,00,00,
61829608,000000AD,false,Rx,0,8,A6,E9,BF,FF,00,14,00,00,
61829838,00000101,false,Rx,0,8,61,0F,80,01,A2,05,00,00,
61830098,000000AE,false,Rx,0,8,B7,09,00,00,FF,3C,01,02,
61830327,00000106,false,Rx,0,8,6A,0F,63,00,02,00,00,00,
61830492,00000128,false,Rx,0,3,80,00,00,00,00,00,00,00,
61830725,0000011E,false,Rx,0,8,96,0F,00,00,00,00,00,00,
61830955,0000012D,false,Rx,0,8,3E,8D,7F,00,00,00,FE,3F,
61836950,000003C0,false,Rx,0,4,31,02,03,00,00,00,00,00,
61836955,000003D6,false,Rx,0,8,0E,00,00,00,00,00,30,00,
61836960,000000A7,false,Rx,0,8,13,51,E0,80,FD,09,68,3D,
61836965,000000A8,false,Rx,0,8,D0,61,3D,61,83,64,BC,0C,
61836971,000000AF,false,Rx,0,4,83,72,00,00,00,00,00,00,
61836976,00000365,false,Rx,0,8,AF,06,23,00,93,0F,9C,7A,
61838218,00000086,false,Rx,0,8,08,00,04,20,00,00,00,00,
61839327,000000B2,false,Rx,0,8,00,00,00,00,00,00,00,00,
61839569,000000AD,false,Rx,0,8,F7,EA,BF,FF,00,14,00,00,
61839825,000000FD,false,Rx,0,8,71,DF,1F,80,00,00,00,00,
61840060,000000AE,false,Rx,0,8,CB,0A,00,00,FF,3C,01,02,
61840282,00000116,false,Rx,0,8,2B,0F,01,04,00,00,00,FF,
61840550,0000012B,false,Rx,0,8,EB,4D,40,28,00,00,00,00,
61842025,000000A7,false,Rx,0,8,7E,52,A0,80,FD,09,68,3D,
61842265,000000A8,false,Rx,0,8,74,62,3D,61,83,64,B0,0C,
61842508,00000107,false,Rx,0,8,00,00,F8,0B,01,00,E1,CA,
61842663,000000AF,false,Rx,0,4,83,73,00,00,00,00,00,00,
61842897,00000120,false,Rx,0,8,D3,01,00,02,01,08,FF,01,
61843127,00000121,false,Rx,0,8,DF,01,00,40,36,50,7E,FE,
61843397,00000147,false,Rx,0,8,00,00,00,00,F0,BF,00,1D,
61845034,0000030B,false,Rx,0,8,10,2A,00,00,08,00,00,10,
61845970,000005AC,false,Rx,0,8,00,00,FF,FE,FE,F7,07,00,
61848234,00000086,false,Rx,0,8,6C,01,04,20,00,00,00,00,
61849383,000000B2,false,Rx,0,8,00,00,00,00,00,00,00,00,
61849618,000000AD,false,Rx,0,8,42,EB,BF,FF,00,14,00,00,
61849852,00000101,false,Rx,0,8,96,00,80,01,A2,04,00,00,
61850087,000000AE,false,Rx,0,8,69,0B,00,00,FF,3C,01,02,
61850343,00000106,false,Rx,0,8,28,00,63,00,02,00,00,00,
61850479,00000128,false,Rx,0,3,84,2C,37,00,00,00,00,00,
61850712,0000011E,false,Rx,0,8,D4,00,00,00,00,00,00,00,
61850942,0000012D,false,Rx,0,8,0E,8E,7F,00,00,00,FE,3F,
61855777,000003B5,false,Rx,0,8,86,FE,12,3A,0C,84,20,00,
61855782,000000A7,false,Rx,0,8,75,53,A0,80,FD,0D,68,3D,
61855788,000000A8,false,Rx,0,8,7E,63,3D,21,83,64,A4,0C,
61855793,000000AF,false,Rx,0,4,83,74,00,00,00,00,00,00,
61856028,16A95414,true,Rx,0,8,00,60,7E,C3,0F,00,00,00,
61858235,00000086,false,Rx,0,8,C0,02,04,20,00,00,00,00,
61859420,000000B2,false,Rx,0,8,00,00,00,00,00,00,00,00,
61859676,000000AD,false,Rx,0,8,2F,EC,BF,FF,00,14,00,00,
61859910,000000FD,false,Rx,0,8,0B,D0,1F,80,00,00,00,00,
61860144,000000AE,false,Rx,0,8,D1,0C,00,00,FF,3C,01,02,
61860396,00000116,false,Rx,0,8,69,00,01,04,00,00,00,FF,
61860625,00000392,false,Rx,0,8,C8,29,00,00,00,00,00,04,
61860885,0000065D,false,Rx,0,8,F1,2A,2B,12,00,40,82,7B,
61862027,00000040,false,Rx,0,8,8E,0A,00,44,C1,00,00,00,
61862255,000000A7,false,Rx,0,8,56,54,E0,80,FD,0D,68,3D,
61862479,000000A8,false,Rx,0,8,01,64,1D,21,83,64,A8,0C,
61862655,000000AF,false,Rx,0,4,83,75,1B,01,00,00,00,00,
61862890,00000107,false,Rx,0,8,00,00,F8,0B,01,00,E1,CA,
61863124,00000120,false,Rx,0,8,2B,02,00,02,01,08,FF,01,
61863369,00000121,false,Rx,0,8,50,02,00,40,36,50,7E,FE,
61863624,00000147,false,Rx,0,8,00,00,00,00,F0,BF,00,1D,
61863857,000003D8,false,Rx,0,8,00,00,08,00,00,00,00,00,
61865022,17F00015,true,Rx,0,8,00,15,00,00,00,00,00,80,
61865987,000003DB,false,Rx,0,8,50,10,01,04,07,24,01,A2,
61868239,00000086,false,Rx,0,8,A4,03,04,20,00,00,00,00,
61869430,000000B2,false,Rx,0,8,00,00,00,00,00,00,00,00,
61869665,000000AD,false,Rx,0,8,5E,ED,BF,FF,00,14,00,00,
61869894,00000101,false,Rx,0,8,47,01,80,01,A2,05,00,00,
61870164,000000AE,false,Rx,0,8,B2,0D,00,00,FF,3C,01,02,
61870388,00000106,false,Rx,0,8,4C,01,63,00,02,00,00,00,
61870544,00000128,false,Rx,0,3,80,00,00,00,00,00,00,00,
61870778,0000011E,false,Rx,0,8,B0,01,00,00,00,00,00,00,
61871007,0000012D,false,Rx,0,8,F9,8F,7F,00,00,00,FE,3F,
61877042,0000012B,false,Rx,0,8,A4,4E,40,28,00,00,00,00,
61877047,000001AB,false,Rx,0,8,E1,0F,04,02,18,00,04,00,
61877052,00000463,false,Rx,0,8,00,E0,3F,00,00,00,00,00,
61877058,000000A7,false,Rx,0,8,2D,55,E0,80,FD,0D,68,3D,
61877063,000000A8,false,Rx,0,8,8B,65,1D,21,83,64,B8,0C,
61877068,000000AF,false,Rx,0,4,83,76,1B,01,00,00,00,00,
61877074,000003DD,false,Rx,0,8,48,04,10,00,FE,47,00,00,
61877079,0000031E,false,Rx,0,8,FE,FB,3F,00,00,00,00,40,
61877084,0000032C,false,Rx,0,8,00,0F,00,00,98,24,00,00,
61877090,0000032F,false,Rx,0,8,00,FF,00,00,00,00,72,01,
61878222,00000086,false,Rx,0,8,B7,04,04,20,00,00,00,00,
61879473,000000AD,false,Rx,0,8,84,EE,BF,FF,00,14,00,00,
61879707,000000B2,false,Rx,0,8,00,00,00,00,00,00,00,00,
61879941,000000AE,false,Rx,0,8,8A,0E,00,00,FF,3C,01,02,
61880202,000000FD,false,Rx,0,8,01,D1,1F,80,00,00,00,00,
61880445,000000B1,false,Rx,0,8,44,24,00,00,00,00,00,00,
61880679,00000116,false,Rx,0,8,0D,01,01,04,00,00,00,FF,
61880934,00000394,false,Rx,0,8,9F,17,00,1A,00,00,00,00,
61881167,000001A2,false,Rx,0,8,FE,0C,00,00,00,00,00,00,
61881421,000003E5,false,Rx,0,8,6D,2B,00,00,00,00,00,00,
61882131,000000A7,false,Rx,0,8,BE,56,E0,80,FD,0D,68,3D,
61882363,000000A8,false,Rx,0,8,96,66,3D,21,83,64,C4,0C,
61882518,000000AF,false,Rx,0,4,83,77,00,00,00,00,00,00,
61882753,00000107,false,Rx,0,8,00,00,F8,0B,01,00,F2,CA,
61882987,00000120,false,Rx,0,8,F9,03,00,02,01,08,FF,01,
61883225,00000121,false,Rx,0,8,A2,03,00,40,36,50,7E,FE,
61883468,00000147,false,Rx,0,8,00,00,00,00,F0,BF,00,1D,
61885974,00000365,false,Rx,0,8,AF,06,23,00,91,0F,9C,7A,
61888232,00000086,false,Rx,0,8,D3,05,04,20,00,00,00,00,
61889356,000000B2,false,Rx,0,8,00,00,00,00,00,00,00,00,
61889585,000000AD,false,Rx,0,8,D5,EF,BF,FF,00,14,00,00,
61889845,00000101,false,Rx,0,8,61,02,80,01,A2,01,00,00,
61890080,000000AE,false,Rx,0,8,68,0F,00,00,FF,3C,01,02,
61890328,00000106,false,Rx,0,8,E0,02,63,00,02,00,00,00,
61890472,00000128,false,Rx,0,3,84,2C,C8,00,00,00,00,00,
61890705,0000011E,false,Rx,0,8,1C,02,00,00,00,00,00,00,
61890935,0000012D,false,Rx,0,8,5D,80,7F,00,00,00,FE,3F,
61898250,000005F5,false,Rx,0,8,FE,07,F8,1F,00,FF,DF,FF,
61898256,000003C8,false,Rx,0,8,00,00,54,24,00,60,11,94,
61898261,000000A7,false,Rx,0,8,37,57,E0,80,FD,0D,68,3D,
61898266,000000A8,false,Rx,0,8,CE,67,3D,61,83,64,CC,0C,
61898272,000000AF,false,Rx,0,4,83,78,00,00,00,00,00,00,
61898277,0000030B,false,Rx,0,8,10,2B,00,00,08,00,00,10,
61898282,000003DE,false,Rx,0,8,FE,00,00,00,00,00,00,00,
61898287,00000086,false,Rx,0,8,7F,06,04,20,00,00,00,00,
61899328,000000B2,false,Rx,0,8,00,00,00,00,00,00,00,00,
61899570,000000AD,false,Rx,0,8,48,E0,BF,FF,00,14,00,00,
61899804,000000FD,false,Rx,0,8,CE,D2,1F,80,00,00,00,00,
61900059,000000AE,false,Rx,0,8,DF,00,00,00,FF,3C,01,02,
61900288,00000116,false,Rx,0,8,A1,02,01,04,00,00,00,FF,
61900550,0000012B,false,Rx,0,8,8E,4F,40,28,00,00,00,00,
61901987,000000A7,false,Rx,0,8,7A,58,E0,80,FD,0D,68,3D,
61902231,000000A8,false,Rx,0,8,A1,68,3D,21,83,64,C4,0C,
61902452,00000107,false,Rx,0,8,00,00,F8,0B,01,00,F2,CA,
61902629,000000AF,false,Rx,0,4,83,79,E4,01,00,00,00,00,
61902862,00000120,false,Rx,0,8,AF,04,00,02,01,08,FF,01,
61903097,00000121,false,Rx,0,8,1F,04,00,40,36,50,7E,FE,
61903354,00000147,false,Rx,0,8,00,00,00,00,F0,BF,00,1D,
61903590,00000391,false,Rx,0,8,16,89,23,59,00,27,00,22,
61903824,000003BE,false,Rx,0,8,B5,01,E6,00,C8,80,00,80,
61904059,000003C7,false,Rx,0,8,32,10,24,00,00,40,80,00,
61908231,00000086,false,Rx,0,8,1B,07,04,20,00,00,00,00,
61909397,000000B2,false,Rx,0,8,00,00,00,00,00,00,00,00,
61909632,000000AD,false,Rx,0,8,86,E1,BF,FF,00,14,00,00,
61909866,00000101,false,Rx,0,8,B0,03,80,01,A2,00,00,00,
61910121,000000AE,false,Rx,0,8,30,01,00,00,FF,3C,01,02,
61910368,00000106,false,Rx,0,8,84,03,63,00,02,00,00,00,
61910503,00000128,false,Rx,0,3,80,00,00,00,00,00,00,00,
61910758,0000011E,false,Rx,0,8,78,03,00,00,00,00,00,00,
61910993,0000012D,false,Rx,0,8,0A,81,7F,00,00,00,FE,3F,
61917025,00000040,false,Rx,0,8,EA,0B,00,44,C1,00,00,00,
61917031,000000A7,false,Rx,0,8,AA,59,E0,80,FD,0D,68,3D,
61917036,000000A8,false,Rx,0,8,15,69,3D,21,83,64,B0,0C,
61917041,000000AF,false,Rx,0,4,83,7A,E4,01,00,00,00,00,
61918209,00000086,false,Rx,0,8,59,08,04,20,00,00,00,00,
61919291,000000B2,false,Rx,0,8,00,00,00,00,00,00,00,00,
61919539,000000AD,false,Rx,0,8,62,E2,BF,FF,00,14,00,00,
61919774,000000FD,false,Rx,0,8,BB,D3,1F,80,00,00,00,00,
61920029,000000AE,false,Rx,0,8,31,02,00,00,FF,3C,01,02,
61920276,00000116,false,Rx,0,8,C5,03,01,04,00,00,00,FF,
61921170,00000464,false,Rx,0,8,08,4C,00,00,00,00,00,00,
61922054,000000A7,false,Rx,0,8,B5,5A,A0,80,FD,0D,68,3D,
61922276,000000A8,false,Rx,0,8,D5,6A,3D,21,83,64,98,0C,
61922519,00000107,false,Rx,0,8,00,00,F8,0B,01,00,03,CB,
61922696,000000AF,false,Rx,0,4,83,7B,00,00,00,00,00,00,
61922930,00000120,false,Rx,0,8,AD,05,00,02,01,08,FF,01,
61923165,00000121,false,Rx,0,8,28,05,00,40,36,50,7E,FE,
61923422,00000147,false,Rx,0,8,00,00,00,00,F0,BF,00,1D,
61926382,0000031E,false,Rx,0,8,5D,FC,3F,00,00,00,00,40,
61926642,0000032C,false,Rx,0,8,00,0F,00,00,98,24,00,00,
61926871,0000032F,false,Rx,0,8,00,FF,00,00,00,00,6A,01,
61928225,00000086,false,Rx,0,8,3D,09,04,20,00,00,00,00,
61929329,000000B2,false,Rx,0,8,00,00,00,00,00,00,00,00,
61929571,000000AD,false,Rx,0,8,E3,E3,BF,FF,00,14,00,00,
61929806,00000101,false,Rx,0,8,E6,04,80,01,A2,02,00,00,
61930040,000000AE,false,Rx,0,8,14,03,00,00,FF,3C,01,02,
61930288,00000106,false,Rx,0,8,97,04,63,00,02,00,00,00,
61930432,00000128,false,Rx,0,3,84,FF,13,00,00,00,00,00,
61930666,0000011E,false,Rx,0,8,6B,04,00,00,00,00,00,00,
61930922,0000012D,false,Rx,0,8,18,82,7F,00,00,00,FE,3F,
61935848,0000012B,false,Rx,0,8,05,40,40,28,00,00,00,00,
61935853,000003C0,false,Rx,0,4,84,03,03,00,00,00,00,00,
61935858,000003D6,false,Rx,0,8,0F,00,00,00,00,00,30,00,
61935863,000000A7,false,Rx,0,8,C2,5B,E0,80,FD,0D,68,3D,
61935869,000000A8,false,Rx,0,8,F3,6B,1D,21,83,64,90,0C,
61935874,000000AF,false,Rx,0,4,83,7C,00,00,00,00,00,00,
61935879,1B000053,true,Rx,0,8,53,00,04,01,01,00,00,00,
61935885,000005F0,false,Rx,0,8,FD,00,64,00,00,64,00,00,
61935955,00000365,false,Rx,0,8,AF,06,22,00,93,0F,9C,7A,
61938223,00000086,false,Rx,0,8,91,0A,04,20,00,00,00,00,
61939354,000000B2,false,Rx,0,8,00,00,00,00,00,00,00,00,
61939590,000000AD,false,Rx,0,8,41,E4,BF,FF,00,14,00,00,
61939823,000000FD,false,Rx,0,8,2D,D4,1F,80,00,00,00,00,
61940079,000000AE,false,Rx,0,8,1A,04,00,00,FF,3C,01,02,
61940307,00000116,false,Rx,0,8,D6,04,01,04,00,00,00,FF,
61940984,000005F7,false,Rx,0,8,00,FF,FB,DF,FF,FE,FF,FF,
61942027,000000A7,false,Rx,0,8,BA,5C,E0,80,FD,11,68,3D,
61942255,000000A8,false,Rx,0,8,ED,6C,1D,21,83,64,90,0C,
61942499,00000107,false,Rx,0,8,00,00,F8,0B,01,00,03,CB,
61942653,000000AF,false,Rx,0,4,83,7D,00,01,00,00,00,00,
61942909,00000120,false,Rx,0,8,42,06,00,02,01,08,FF,01,
61943143,00000121,false,Rx,0,8,2F,06,00,40,36,50,7E,FE,
61943387,00000147,false,Rx,0,8,00,00,00,00,F0,BF,00,1D,
61945026,0000030B,false,Rx,0,8,10,2C,00,00,08,00,00,10,
61945968,000005AC,false,Rx,0,8,00,00,FF,FE,FE,F7,07,00,
61947826,1B000015,true,Rx,0,8,15,00,04,02,01,00,00,00,
61948224,00000086,false,Rx,0,8,F5,0B,04,20,00,00,00,00,
61949349,000000B2,false,Rx,0,8,00,00,00,00,00,00,00,00,
61949588,000000AD,false,Rx,0,8,74,E5,BF,FF,00,14,00,00,
61949818,00000101,false,Rx,0,8,F8,05,80,01,A2,05,00,00,
61950078,000000AE,false,Rx,0,8,E1,05,00,00,FF,3C,01,02,
61950308,00000106,false,Rx,0,8,F3,05,63,00,02,00,00,00,
61950446,00000128,false,Rx,0,3,80,00,00,00,00,00,00,00,
61950705,0000011E,false,Rx,0,8,0F,05,00,00,00,00,00,00,
61950939,0000012D,false,Rx,0,8,89,83,7F,00,00,00,FE,3F,
61957054,000003B5,false,Rx,0,8,86,FE,12,3A,0C,84,20,00,
61957060,1B000076,true,Rx,0,8,76,00,04,01,01,00,0A,00,
61957065,000000A7,false,Rx,0,8,4A,5D,E0,80,FD,11,68,3D,
61957070,000000A8,false,Rx,0,8,C9,6D,1D,21,83,64,A4,0C,
61957076,000000AF,false,Rx,0,4,83,7E,00,01,00,00,00,00,
61957081,1B000010,true,Rx,0,8,10,00,04,05,11,00,00,00,
61957086,16A95414,true,Rx,0,8,00,60,7E,C3,0F,00,00,00,
61958219,00000086,false,Rx,0,8,E6,0C,04,20,00,00,00,00,
61959323,000000B2,false,Rx,0,8,00,00,00,00,00,00,00,00,
61959566,000000AD,false,Rx,0,8,6A,E6,BF,FF,00,14,00,00,
61959821,000000FD,false,Rx,0,8,B7,D5,1F,80,00,00,00,00,
61960056,000000AE,false,Rx,0,8,BA,06,00,00,FF,3C,01,02,
61960284,00000116,false,Rx,0,8,B2,05,01,04,00,00,00,FF,
61960522,00000392,false,Rx,0,8,64,2A,00,00,00,00,00,04,
61960781,0000012B,false,Rx,0,8,77,41,40,28,00,00,00,00,
61962007,00000040,false,Rx,0,8,F9,0C,00,44,C1,00,00,00,
61962220,000000A7,false,Rx,0,8,06,5E,E0,80,FD,0D,68,3D,
61962468,000000A8,false,Rx,0,8,00,6E,3D,21,83,64,B4,0C,
61962644,000000AF,false,Rx,0,4,83,7F,00,00,00,00,00,00,
61962878,00000107,false,Rx,0,8,00,00,F8,0B,01,00,14,CB,
61963113,00000120,false,Rx,0,8,40,07,00,02,01,08,FF,01,
61963363,00000121,false,Rx,0,8,7C,07,00,40,36,50,7E,FE,
61963597,00000147,false,Rx,0,8,00,00,00,00,F0,BF,00,1D,
61963853,000003D8,false,Rx,0,8,00,00,08,00,00,00,00,00,
61964955,00000520,false,Rx,0,8,09,0D,00,08,00,0A,00,0A,
61965969,000003DB,false,Rx,0,8,50,10,01,04,07,24,01,A2,
61968223,00000086,false,Rx,0,8,82,0D,04,20,00,00,00,00,
61969374,000000B2,false,Rx,0,8,00,00,00,00,00,00,00,00,
61969608,000000AD,false,Rx,0,8,35,E7,BF,FF,00,14,00,00,
61969864,00000101,false,Rx,0,8,2E,06,80,01,A2,02,00,00,
61970099,000000AE,false,Rx,0,8,28,07,00,00,FF,3C,01,02,
61970356,00000106,false,Rx,0,8,5F,06,63,00,02,00,00,00,
61970492,00000128,false,Rx,0,3,80,00,00,00,00,00,00,00,
61970720,0000011E,false,Rx,0,8,A3,06,00,00,00,00,00,00,
61970980,0000012D,false,Rx,0,8,06,84,7F,00,00,00,FE,3F,
61977075,00000462,false,Rx,0,8,00,00,38,00,00,01,00,00,
61977080,00000465,false,Rx,0,8,00,00,00,00,00,00,00,80,
61977085,000000A7,false,Rx,0,8,A7,5F,20,81,FD,0D,68,3D,
61977091,000000A8,false,Rx,0,8,8F,6F,3D,21,83,64,B4,0C,
61977096,000000AF,false,Rx,0,4,83,70,00,00,00,00,00,00,
61977101,000003DD,false,Rx,0,8,48,04,10,00,FE,49,00,00,
61977106,0000031E,false,Rx,0,8,F4,FD,3F,00,00,00,00,40,
61977112,0000032C,false,Rx,0,8,00,0F,00,00,98,24,00,00,
61977117,0000032F,false,Rx,0,8,00,FF,00,00,00,00,66,01,
61978217,00000086,false,Rx,0,8,2E,0E,04,20,00,00,00,00,
61979369,000000B2,false,Rx,0,8,00,00,00,00,00,00,00,00,
61979603,000000AD,false,Rx,0,8,A2,E8,BF,FF,00,14,00,00,
61979838,000000FD,false,Rx,0,8,A5,D6,1F,80,00,00,00,00,
61980081,000000AE,false,Rx,0,8,5F,08,00,00,FF,3C,01,02,
61980302,00000116,false,Rx,0,8,1E,06,01,04,00,00,00,FF,
61980571,000000B1,false,Rx,0,8,8B,25,00,00,00,00,00,00,
61980904,000003E5,false,Rx,0,8,9E,2C,00,00,00,00,00,00,
61982006,000000A7,false,Rx,0,8,11,50,E0,80,FD,0D,68,3D,
61982253,000000A8,false,Rx,0,8,4F,60,3D,21,83,64,A8,0C,
61982476,00000107,false,Rx,0,8,00,00,F8,0B,01,00,14,CB,
61982652,000000AF,false,Rx,0,4,83,71,00,00,00,00,00,00,
61982887,00000120,false,Rx,0,8,19,08,00,02,01,08,FF,01,
61983122,00000121,false,Rx,0,8,BF,08,00,40,36,50,7E,FE,
61983366,00000147,false,Rx,0,8,00,00,00,00,F0,BF,00,1D,
61985987,00000365,false,Rx,0,8,B0,06,22,00,92,0F,9C,7A,
61988235,00000086,false,Rx,0,8,4A,0F,04,20,00,00,00,00,
61989364,000000B2,false,Rx,0,8,00,00,00,00,00,00,00,00,
61989572,000000AD,false,Rx,0,8,A6,E9,BF,FF,00,14,00,00,
61989832,00000101,false,Rx,0,8,0A,07,81,01,A2,00,40,00,
61990067,000000AE,false,Rx,0,8,B7,09,00,00,FF,3C,01,02,
61990316,00000106,false,Rx,0,8,3B,07,63,00,02,00,00,00,
61990460,00000128,false,Rx,0,3,84,22,38,00,00,00,00,00,
61990697,0000011E,false,Rx,0,8,C7,07,00,00,00,00,00,00,
61990937,0000012D,false,Rx,0,8,79,85,7F,00,00,00,FE,3F,
61997090,0000012B,false,Rx,0,8,D3,42,40,28,00,00,00,00,
61997096,000003C8,false,Rx,0,8,00,00,54,24,00,60,11,94,
61997101,1B000077,true,Rx,0,8,77,00,04,02,01,00,00,00,
61997106,000000A7,false,Rx,0,8,99,51,E0,80,FD,0D,68,3D,
61997112,000000A8,false,Rx,0,8,02,61,3D,21,83,64,9C,0C,
61997117,000000AF,false,Rx,0,4,83,72,00,00,00,00,00,00,
61997122,0000030B,false,Rx,0,8,10,2D,00,00,08,00,00,10,
61997127,000003DE,false,Rx,0,8,FE,00,00,00,00,00,00,00,
61998236,00000086,false,Rx,0,8,08,00,04,20,00,00,00,00,
61999363,000000B2,false,Rx,0,8,00,00,00,00,00,00,00,00,
61999598,000000AD,false,Rx,0,8,F7,EA,BF,FF,00,14,00,00,
61999826,000000FD,false,Rx,0,8,9F,D7,1F,80,00,00,00,00,
62000087,000000AE,false,Rx,0,8,CB,0A,00,00,FF,3C,01,02,
62000315,00000116,false,Rx,0,8,7A,07,01,04,00,00,00,FF,
62002042,000000A7,false,Rx,0,8,2A,52,E0,80,FD,11,68,3D,
62002261,000000A8,false,Rx,0,8,9E,62,3D,21,83,64,94,0C,
62002505,00000107,false,Rx,0,8,00,00,F8,0B,01,00,25,CB,
62002659,000000AF,false,Rx,0,4,83,73,1A,01,00,00,00,00,
62002894,00000120,false,Rx,0,8,4F,09,00,02,01,08,FF,01,
62003129,00000121,false,Rx,0,8,40,09,00,40,36,50,7E,FE,
62003371,00000147,false,Rx,0,8,00,00,00,00,F0,BF,00,1D,
62003630,000002C2,false,Rx,0,8,00,00,00,00,00,00,00,00,
62003865,00000391,false,Rx,0,8,16,89,23,58,00,27,00,22,
62004099,000003BE,false,Rx,0,8,DA,02,E6,00,C8,80,00,80,
62004356,000003C7,false,Rx,0,8,01,10,24,00,00,40,80,00,
62004650,17F00076,true,Rx,0,8,20,76,00,00,00,00,00,80,
62004885,00000640,false,Rx,0,8,E0,91,9B,C4,7D,A0,0F,48,
62005120,00000647,false,Rx,0,8,B8,FD,FF,7F,00,00,00,C1,
62005366,0000065F,false,Rx,0,8,2E,20,00,00,00,00,2E,7F,
62005601,00000670,false,Rx,0,8,19,10,00,00,00,03,00,88,
62008230,00000086,false,Rx,0,8,6C,01,04,20,00,00,00,00,
62009441,000000B2,false,Rx,0,8,00,00,00,00,00,00,00,00,
62009676,000000AD,false,Rx,0,8,42,EB,BF,FF,00,14,00,00,
62009931,00000101,false,Rx,0,8,48,08,81,01,A2,00,40,00,
62010166,000000AE,false,Rx,0,8,69,0B,00,00,FF,3C,01,02,
62010397,00000106,false,Rx,0,8,79,08,63,00,02,00,00,00,
62010553,00000128,false,Rx,0,3,80,00,00,00,00,00,00,00,
62010795,0000011E,false,Rx,0,8,85,08,00,00,00,00,00,00,
62011030,0000012D,false,Rx,0,8,C9,86,7F,00,00,00,FE,3F,
62018293,000006B4,false,Rx,0,8,02,4D,35,33,31,32,37,37,
62018298,00000040,false,Rx,0,8,9D,0D,00,44,C1,00,00,00,
62018304,000000A7,false,Rx,0,8,AB,53,E0,80,FD,11,68,3D,
62018309,000000A8,false,Rx,0,8,71,63,3D,21,83,64,94,0C,
62018314,000000AF,false,Rx,0,4,83,74,1A,01,00,00,00,00,
62018319,00000086,false,Rx,0,8,C0,02,04,20,00,00,00,00,
62019304,000000B2,false,Rx,0,8,00,00,00,00,00,00,00,00,
62019547,000000AD,false,Rx,0,8,2F,EC,BF,FF,00,14,00,00,
62019781,000000FD,false,Rx,0,8,58,D8,1F,80,00,00,00,00,
62020016,000000AE,false,Rx,0,8,D1,0C,00,00,FF,3C,01,02,
62020264,00000116,false,Rx,0,8,38,08,01,04,00,00,00,FF,
62020548,0000012B,false,Rx,0,8,8B,43,40,28,00,00,00,00,
62021177,00000463,false,Rx,0,8,00,E0,3F,00,00,00,00,00,
62022461,000000AF,false,Rx,0,4,83,75,00,00,00,00,00,00,
62022795,000000A7,false,Rx,0,8,EE,54,20,81,FD,11,68,3D,
62023030,000000A8,false,Rx,0,8,AD,64,3D,21,83,64,9C,0C,
62023276,00000107,false,Rx,0,8,00,00,F8,0B,01,00,36,CB,
62023499,00000120,false,Rx,0,8,94,0A,00,02,01,08,FF,01,
62023754,00000121,false,Rx,0,8,25,0A,00,40,36,50,7E,FE,
62023988,00000147,false,Rx,0,8,00,00,00,00,F0,BF,00,1D,
62026388,0000031E,false,Rx,0,8,81,FE,3F,00,00,00,00,40,
62026642,0000032C,false,Rx,0,8,00,0F,00,00,98,24,00,00,
62026876,0000032F,false,Rx,0,8,00,FF,00,00,00,00,62,01,
62028225,00000086,false,Rx,0,8,A4,03,04,20,00,00,00,00,
62029375,000000B2,false,Rx,0,8,00,00,00,00,00,00,00,00,
62029611,000000AD,false,Rx,0,8,5E,ED,BF,FF,00,14,00,00,
62029845,00000101,false,Rx,0,8,68,09,81,01,A2,01,00,00,
62030078,000000AE,false,Rx,0,8,B2,0D,00,00,FF,3C,01,02,
62030328,00000106,false,Rx,0,8,1D,09,63,00,02,00,00,00,
62030473,00000128,false,Rx,0,3,84,22,C7,00,00,00,00,00,
62030707,0000011E,false,Rx,0,8,E1,09,00,00,00,00,00,00,
62030941,0000012D,false,Rx,0,8,98,87,7F,00,00,00,FE,3F,
62031118,000003C0,false,Rx,0,4,FE,04,03,00,00,00,00,00,
62037110,000003D6,false,Rx,0,8,00,00,00,00,00,00,30,00,
62037115,000000A7,false,Rx,0,8,95,55,20,81,FD,11,68,3D,
62037120,000000A8,false,Rx,0,8,85,65,3D,61,83,64,A4,0C,
62037126,000000AF,false,Rx,0,4,83,76,00,00,00,00,00,00,
62037131,00000365,false,Rx,0,8,B0,06,22,00,92,0F,98,7A,
62038225,00000086,false,Rx,0,8,B7,04,04,20,00,00,00,00,
62039363,000000B2,false,Rx,0,8,00,00,00,00,00,00,00,00,
62039596,000000AD,false,Rx,0,8,84,EE,BF,FF,00,14,00,00,
62039826,000000FD,false,Rx,0,8,6A,D9,1F,80,00,00,00,00,
62040095,000000AE,false,Rx,0,8,8A,0E,00,00,FF,3C,01,02,
62040324,00000116,false,Rx,0,8,5C,09,01,04,00,00,00,FF,
62040567,00000394,false,Rx,0,8,50,18,00,1A,00,00,00,00,
62042046,000000A7,false,Rx,0,8,06,56,20,81,FD,11,68,3D,
62042269,000000A8,false,Rx,0,8,B5,66,3D,61,83,64,A4,0C,
62042512,00000107,false,Rx,0,8,00,00,F8,0B,01,00,36,CB,
62042697,000000AF,false,Rx,0,4,83,77,E5,01,00,00,00,00,
62042932,00000120,false,Rx,0,8,38,0B,00,02,01,08,FF,01,
62043166,00000121,false,Rx,0,8,8E,0B,00,40,36,50,7E,FE,
62043401,00000147,false,Rx,0,8,00,00,00,00,F0,BF,00,1D,
62045033,0000030B,false,Rx,0,8,10,2E,00,00,08,00,00,10,
62045975,000005AC,false,Rx,0,8,00,00,FF,FE,FE,F7,07,00,
62048231,00000086,false,Rx,0,8,D3,05,04,20,00,00,00,00,
62049383,000000B2,false,Rx,0,8,00,00,00,00,00,00,00,00,
62049618,000000AD,false,Rx,0,8,D5,EF,BF,FF,00,14,00,00,
62049853,00000101,false,Rx,0,8,81,0A,81,01,A2,03,00,00,
62050086,000000AE,false,Rx,0,8,68,0F,00,00,FF,3C,01,02,
62050343,00000106,false,Rx,0,8,B1,0A,63,00,02,00,00,00,
62050478,00000128,false,Rx,0,3,80,00,00,00,00,00,00,00,
62050733,0000011E,false,Rx,0,8,4D,0A,00,00,00,00,00,00,
62050968,0000012D,false,Rx,0,8,57,88,7F,00,00,00,FE,3F,
62056025,0000012B,false,Rx,0,8,0B,44,40,28,00,00,00,00,
62056031,000003B5,false,Rx,0,8,86,FE,12,3B,0C,87,20,00,
62056036,000005EA,false,Rx,0,8,00,00,00,36,F8,FE,FB,FF,
62056041,000000A7,false,Rx,0,8,8F,57,20,81,FD,11,68,3D,
62056047,000000A8,false,Rx,0,8,DF,67,3D,61,83,64,9C,0C,
62056052,000000AF,false,Rx,0,4,83,78,E5,01,00,00,00,00,
62056057,1A55552B,true,Rx,0,8,00,00,00,00,00,FE,F8,03,
62056062,16A95414,true,Rx,0,8,00,60,7E,C3,0F,00,00,00,
62058238,00000086,false,Rx,0,8,7F,06,04,20,00,00,00,00,
62059371,000000B2,false,Rx,0,8,00,00,00,00,00,00,00,00,
62059606,000000AD,false,Rx,0,8,48,E0,BF,FF,00,14,00,00,
62059836,000000FD,false,Rx,0,8,26,DA,1F,80,00,00,00,00,
62060097,000000AE,false,Rx,0,8,DF,00,00,00,FF,3C,01,02,
62060322,00000116,false,Rx,0,8,F0,0A,01,04,00,00,00,FF,
62060586,00000392,false,Rx,0,8,00,2B,00,00,00,00,00,04,
62061967,00000040,false,Rx,0,8,31,0E,00,44,C1,00,00,00,
62062208,000000A7,false,Rx,0,8,C2,58,20,81,FD,11,68,3D,
62062429,000000A8,false,Rx,0,8,B5,68,3D,61,83,64,90,0C,
62062606,000000AF,false,Rx,0,4,83,79,00,00,00,00,00,00,
62062839,00000107,false,Rx,0,8,00,00,F8,0B,01,00,47,CB,
62063074,00000120,false,Rx,0,8,E2,0C,00,02,01,08,FF,01,
62063324,00000121,false,Rx,0,8,4B,0C,00,40,36,50,7E,FE,
62063567,00000147,false,Rx,0,8,00,00,00,00,F0,BF,00,1D,
62063821,000003D8,false,Rx,0,8,00,00,08,00,00,00,00,00,
62065987,000003DB,false,Rx,0,8,50,10,01,04,07,24,01,A2,
62068235,00000086,false,Rx,0,8,1B,07,04,20,00,00,00,00,
62069396,000000B2,false,Rx,0,8,00,00,00,00,00,00,00,00,
62069631,000000AD,false,Rx,0,8,86,E1,BF,FF,00,14,00,00,
62069865,00000101,false,Rx,0,8,2E,0B,81,01,A2,08,00,00,
62070099,000000AE,false,Rx,0,8,30,01,00,00,FF,3C,01,02,
62070356,00000106,false,Rx,0,8,D5,0B,63,00,02,00,00,00,
62070491,00000128,false,Rx,0,3,84,FF,00,00,00,00,00,00,
62070746,0000011E,false,Rx,0,8,29,0B,00,00,00,00,00,00,
62070981,0000012D,false,Rx,0,8,F2,89,7F,00,00,00,FE,3F,
62077220,000001AB,false,Rx,0,8,ED,00,04,02,18,00,04,00,
62077226,00000464,false,Rx,0,8,08,4C,00,00,00,00,00,00,
62077231,000000A7,false,Rx,0,8,12,59,20,81,FD,11,68,3D,
62077236,000000A8,false,Rx,0,8,6A,69,3D,21,83,64,88,0C,
62077242,000000AF,false,Rx,0,4,83,7A,00,00,00,00,00,00,
62077247,000003DD,false,Rx,0,8,48,04,10,00,FE,49,00,00,
62077252,0000031E,false,Rx,0,8,68,FF,3F,00,00,00,00,40,
62077257,0000032C,false,Rx,0,8,00,0F,00,00,98,24,00,00,
62077263,0000032F,false,Rx,0,8,00,FF,00,00,00,00,60,01,
62078228,00000086,false,Rx,0,8,59,08,04,20,00,00,00,00,
62079419,000000B2,false,Rx,0,8,00,00,00,00,00,00,00,00,
62079654,000000AD,false,Rx,0,8,62,E2,BF,FF,00,14,00,00,
62079887,000000FD,false,Rx,0,8,09,DB,1F,80,00,00,00,00,
62080143,000000AE,false,Rx,0,8,31,02,00,00,FF,3C,01,02,
62080368,00000116,false,Rx,0,8,94,0B,01,04,00,00,00,FF,
62080608,000000B1,false,Rx,0,8,76,26,00,00,00,00,00,00,
62080863,0000012B,false,Rx,0,8,AE,45,40,28,00,00,00,00,
62081118,000001A2,false,Rx,0,8,35,0D,00,00,00,00,00,00,
62081369,000003E5,false,Rx,0,8,AA,2D,00,00,00,00,00,00,
62082389,000000A7,false,Rx,0,8,14,5A,20,81,FD,11,68,3D,
62082598,000000A8,false,Rx,0,8,AE,6A,1D,21,83,64,88,0C,
62082779,000000AF,false,Rx,0,4,83,7B,35,01,00,00,00,00,
62083013,00000107,false,Rx,0,8,00,00,F8,0B,01,00,47,CB,
62083259,00000120,false,Rx,0,8,52,0D,00,02,01,08,FF,01,
62083483,00000121,false,Rx,0,8,58,0D,00,40,36,50,7E,FE,
62083739,00000147,false,Rx,0,8,00,00,00,00,F0,BF,00,1D,
62085985,00000365,false,Rx,0,8,B0,06,22,00,93,0F,98,7A,
62088237,00000086,false,Rx,0,8,3D,09,04,20,00,00,00,00,
62089349,000000B2,false,Rx,0,8,00,00,00,00,00,00,00,00,
62089584,000000AD,false,Rx,0,8,E3,E3,BF,FF,00,14,00,00,
62089819,00000101,false,Rx,0,8,C9,0C,80,01,A2,08,00,00,
62090075,000000AE,false,Rx,0,8,14,03,00,00,FF,3C,01,02,
62090304,00000106,false,Rx,0,8,C6,0C,63,00,02,00,00,00,
62090443,00000128,false,Rx,0,3,80,00,00,00,00,00,00,00,
62090702,0000011E,false,Rx,0,8,3A,0C,00,00,00,00,00,00,
62090936,0000012D,false,Rx,0,8,7B,8A,7F,00,00,00,FE,3F,
62091195,000003C8,false,Rx,0,8,00,00,54,24,00,60,11,94,
62098406,17F00077,true,Rx,0,8,20,77,00,00,00,00,00,00,
62098411,000000A7,false,Rx,0,8,7A,5B,20,81,FD,11,68,3D,
62098417,000000A8,false,Rx,0,8,CB,6B,1D,21,83,64,94,0C,
62098422,000000AF,false,Rx,0,4,83,7C,35,01,00,00,00,00,
62098427,0000030B,false,Rx,0,8,10,2F,00,00,08,00,00,10,
62098432,0000065E,false,Rx,0,8,00,00,0A,A1,23,00,00,00,
62098438,000003DE,false,Rx,0,8,FE,00,00,00,00,00,00,00,
62098443,00000086,false,Rx,0,8,91,0A,04,20,00,00,00,00,
62099324,000000B2,false,Rx,0,8,00,00,00,00,00,00,00,00,
62099567,000000AD,false,Rx,0,8,41,E4,BF,FF,00,14,00,00,
62099801,000000FD,false,Rx,0,8,90,DC,1F,80,00,00,00,00,
62100035,000000AE,false,Rx,0,8,1A,04,00,00,FF,3C,01,02,
62100284,00000116,false,Rx,0,8,87,0C,01,04,00,00,00,FF,
62102007,000000A7,false,Rx,0,8,C5,5C,20,81,FD,11,68,3D,
62102253,000000A8,false,Rx,0,8,DA,6C,1D,21,83,64,A4,0C,
62102476,00000107,false,Rx,0,8,00,00,F8,0B,01,00,58,CB,
62102626,000000AF,false,Rx,0,4,83,7D,00,00,00,00,00,00,
62102886,00000120,false,Rx,0,8,39,0E,00,02,01,08,FF,01,
62103121,00000121,false,Rx,0,8,CB,0E,00,40,36,50,7E,FE,
62103366,00000147,false,Rx,0,8,00,00,00,00,F0,BF,00,1D,
62103601,00000391,false,Rx,0,8,16,89,23,59,00,27,00,22,
62103834,000003BE,false,Rx,0,8,29,03,E6,00,C8,80,00,80,
62104090,000003C7,false,Rx,0,8,32,10,24,00,00,40,80,00,
62108236,00000086,false,Rx,0,8,F5,0B,04,20,00,00,00,00,
62109382,000000B2,false,Rx,0,8,00,00,00,00,00,00,00,00,
62109617,000000AD,false,Rx,0,8,74,E5,BF,FF,00,14,00,00,
62109851,00000101,false,Rx,0,8,1C,0D,80,01,A2,04,00,00,
62110086,000000AE,false,Rx,0,8,E1,05,00,00,FF,3C,01,02,
62110353,00000106,false,Rx,0,8,A2,0D,63,00,02,00,00,00,
62110489,00000128,false,Rx,0,3,80,00,00,00,00,00,00,00,
62110723,0000011E,false,Rx,0,8,5E,0D,00,00,00,00,00,00,
62110952,0000012D,false,Rx,0,8,60,8B,7F,00,00,00,FE,3F,
62111225,0000012B,false,Rx,0,8,B7,46,40,28,00,00,00,00,
62117229,00000040,false,Rx,0,8,55,0F,00,44,C1,00,00,00,
62117234,000000A7,false,Rx,0,8,35,5D,20,81,FD,11,68,3D,
62117239,000000A8,false,Rx,0,8,B7,6D,3D,61,83,64,B0,0C,
62117245,000000AF,false,Rx,0,4,83,7E,00,00,00,00,00,00,
62118229,00000086,false,Rx,0,8,E6,0C,04,20,00,00,00,00,
62119296,000000B2,false,Rx,0,8,00,00,00,00,00,00,00,00,
62119513,000000AD,false,Rx,0,8,6A,E6,BF,FF,00,14,00,00,
62119774,000000FD,false,Rx,0,8,19,DD,1F,80,00,00,00,00,
62120009,000000AE,false,Rx,0,8,BA,06,00,00,FF,3C,01,02,
62120253,00000116,false,Rx,0,8,E3,0D,01,04,00,00,00,FF,
62121254,00000462,false,Rx,0,8,00,00,38,00,00,01,00,00,
62122089,000000A7,false,Rx,0,8,BE,5E,20,81,FD,11,68,3D,
62122316,000000A8,false,Rx,0,8,05,6E,3D,61,83,64,B0,0C,
62122479,000000AF,false,Rx,0,4,83,7F,00,00,00,00,00,00,
62122714,00000107,false,Rx,0,8,00,00,F8,0B,01,00,58,CB,
62122949,00000120,false,Rx,0,8,EC,0F,00,02,01,08,FF,01,
62123178,00000121,false,Rx,0,8,7D,0F,00,40,36,50,7E,FE,
62123434,00000147,false,Rx,0,8,00,00,00,00,F0,BF,00,1D,
62126434,0000031E,false,Rx,0,8,FB,F0,3F,00,00,00,00,40,
62126668,0000032C,false,Rx,0,8,00,0F,00,00,98,24,00,00,
62126923,0000032F,false,Rx,0,8,00,FF,00,00,00,00,5E,01,
62128227,00000086,false,Rx,0,8,82,0D,04,20,00,00,00,00,
62129356,000000B2,false,Rx,0,8,00,00,00,00,00,00,00,00,
62129591,000000AD,false,Rx,0,8,35,E7,BF,FF,00,14,00,00,
62129824,00000101,false,Rx,0,8,05,0E,80,01,A2,05,00,00,
62130059,000000AE,false,Rx,0,8,28,07,00,00,FF,3C,01,02,
62130308,00000106,false,Rx,0,8,0E,0E,63,00,02,00,00,00,
62130451,00000128,false,Rx,0,3,84,DA,38,00,00,00,00,00,
62130706,0000011E,false,Rx,0,8,F2,0E,00,00,00,00,00,00,
62130941,0000012D,false,Rx,0,8,52,8C,7F,00,00,00,FE,3F,
62131090,000003C0,false,Rx,0,4,4B,05,03,00,00,00,00,00,
62136067,000003D6,false,Rx,0,8,01,00,00,00,00,00,30,00,
62136072,000000A7,false,Rx,0,8,D8,5F,E0,80,FD,0D,68,3D,
62136077,000000A8,false,Rx,0,8,F1,6F,1D,61,83,64,A0,0C,
62136083,000000AF,false,Rx,0,4,83,70,00,00,00,00,00,00,
62136088,1B000053,true,Rx,0,8,53,00,04,01,01,00,00,00,
62136093,000005F0,false,Rx,0,8,FD,00,64,00,00,64,00,00,
62136099,00000365,false,Rx,0,8,B0,06,21,00,91,0F,98,7A,
62138237,00000086,false,Rx,0,8,2E,0E,04,20,00,00,00,00,
62139391,000000B2,false,Rx,0,8,00,00,00,00,00,00,00,00,
62139605,000000AD,false,Rx,0,8,A2,E8,BF,FF,00,14,00,00,
62139860,000000FD,false,Rx,0,8,E6,DE,1F,80,00,00,00,00,
62140095,000000AE,false,Rx,0,8,5F,08,00,00,FF,3C,01,02,
62140323,00000116,false,Rx,0,8,4F,0E,01,04,00,00,00,FF,
62140586,0000012B,false,Rx,0,8,92,47,40,28,00,00,00,00,
62142047,000000A7,false,Rx,0,8,D6,50,E0,80,FD,11,68,3D,
62142275,000000A8,false,Rx,0,8,40,60,3D,21,83,64,98,0C,
62142519,00000107,false,Rx,0,8,00,00,F8,0B,01,00,69,CB,
62142674,000000AF,false,Rx,0,4,83,71,E2,01,00,00,00,00,
62142930,00000120,false,Rx,0,8,26,00,00,02,01,08,FF,01,
62143164,00000121,false,Rx,0,8,B3,00,00,40,36,50,7E,FE,
62143418,00000147,false,Rx,0,8,00,00,00,00,F0,BF,00,1D,
62145034,0000030B,false,Rx,0,8,10,20,00,00,08,00,00,10,
62145983,000005AC,false,Rx,0,8,00,00,FF,FE,FE,F7,07,00,
62147993,1B000015,true,Rx,0,8,15,00,04,02,01,00,00,00,
62148255,00000086,false,Rx,0,8,4A,0F,04,20,00,00,00,00,
62149374,000000B2,false,Rx,0,8,00,00,00,00,00,00,00,00,
62149608,000000AD,false,Rx,0,8,A6,E9,BF,FF,00,14,00,00,
62149843,00000101,false,Rx,0,8,61,0F,80,01,A2,05,00,00,
62150076,000000AE,false,Rx,0,8,B7,09,00,00,FF,3C,01,02,
62150324,00000106,false,Rx,0,8,6A,0F,63,00,02,00,00,00,
62150468,00000128,false,Rx,0,3,80,00,00,00,00,00,00,00,
62150723,0000011E,false,Rx,0,8,96,0F,00,00,00,00,00,00,
62150956,0000012D,false,Rx,0,8,3E,8D,7F,00,00,00,FE,3F,
62151195,000003B5,false,Rx,0,8,86,FE,12,3B,0C,87,20,00,
62157245,1B000076,true,Rx,0,8,76,00,04,01,01,00,0A,00,
62157250,000000AF,false,Rx,0,4,83,72,E2,01,00,00,00,00,
62157255,000000A7,false,Rx,0,8,5E,51,E0,80,FD,11,68,3D,
62157261,000000A8,false,Rx,0,8,79,61,1D,21,83,64,8C,0C,
62157266,1B000010,true,Rx,0,8,10,00,04,05,11,00,00,00,
62157271,16A95414,true,Rx,0,8,00,60,7E,C3,0F,00,00,00,
62158227,00000086,false,Rx,0,8,08,00,04,20,00,00,00,00,
62159378,000000B2,false,Rx,0,8,00,00,00,00,00,00,00,00,
62159613,000000AD,false,Rx,0,8,F7,EA,BF,FF,00,14,00,00,
62159846,000000FD,false,Rx,0,8,71,DF,1F,80,00,00,00,00,
62160102,000000AE,false,Rx,0,8,CB,0A,00,00,FF,3C,01,02,
62160326,00000116,false,Rx,0,8,2B,0F,01,04,00,00,00,FF,
62160589,00000392,false,Rx,0,8,13,2C,00,00,00,00,00,04,
62161941,00000040,false,Rx,0,8,17,00,00,44,C1,00,00,00,
62162181,000000A7,false,Rx,0,8,55,52,20,81,FD,11,68,3D,
62162408,000000A8,false,Rx,0,8,3D,62,1D,21,83,64,90,0C,
62162589,000000AF,false,Rx,0,4,83,73,00,00,00,00,00,00,
62162822,00000107,false,Rx,0,8,00,00,F8,0B,01,00,69,CB,
62163057,00000120,false,Rx,0,8,D3,01,00,02,01,08,FF,01,
62163305,00000121,false,Rx,0,8,DF,01,00,40,36,50,7E,FE,
62163547,00000147,false,Rx,0,8,00,00,00,00,F0,BF,00,1D,
62163802,000003D8,false,Rx,0,8,00,00,08,00,00,00,00,00,
62164986,00000520,false,Rx,0,8,A5,0E,00,08,00,0A,00,0A,
62165974,000003DB,false,Rx,0,8,50,10,01,04,07,24,01,A2,
62168224,00000086,false,Rx,0,8,6C,01,04,20,00,00,00,00,
62169366,000000B2,false,Rx,0,8,00,00,00,00,00,00,00,00,
62169601,000000AD,false,Rx,0,8,42,EB,BF,FF,00,14,00,00,
62169836,00000101,false,Rx,0,8,A9,00,80,01,A2,01,00,00,
62170069,000000AE,false,Rx,0,8,69,0B,00,00,FF,3C,01,02,
62170316,00000106,false,Rx,0,8,28,00,63,00,02,00,00,00,
62170460,00000128,false,Rx,0,3,84,DA,C7,00,00,00,00,00,
62170713,0000011E,false,Rx,0,8,D4,00,00,00,00,00,00,00,
62170948,0000012D,false,Rx,0,8,0E,8E,7F,00,00,00,FE,3F,
62171182,0000012B,false,Rx,0,8,47,48,40,28,00,00,00,00,
62177253,00000463,false,Rx,0,8,00,E0,3F,00,00,00,00,00,
62177258,000000A7,false,Rx,0,8,D4,53,20,81,FD,11,68,3D,
62177263,000000A8,false,Rx,0,8,46,63,3D,21,83,64,A0,0C,
62177269,000000AF,false,Rx,0,4,83,74,00,00,00,00,00,00,
62177274,000003DD,false,Rx,0,8,48,04,10,00,FE,49,00,00,
62177279,0000031E,false,Rx,0,8,31,F1,3F,00,00,00,00,40,
62177285,0000032C,false,Rx,0,8,00,0F,00,00,98,24,00,00,
62177290,0000032F,false,Rx,0,8,00,FF,00,00,00,00,5E,01,
62178231,00000086,false,Rx,0,8,C0,02,04,20,00,00,00,00,
62179375,000000B2,false,Rx,0,8,00,00,00,00,00,00,00,00,
62179630,000000AD,false,Rx,0,8,2F,EC,BF,FF,00,14,00,00,
62179864,000000FD,false,Rx,0,8,0B,D0,1F,80,00,00,00,00,
62180098,000000AE,false,Rx,0,8,D1,0C,00,00,FF,3C,01,02,
62180356,00000116,false,Rx,0,8,69,00,01,04,00,00,00,FF,
62180590,000000B1,false,Rx,0,8,85,27,00,00,00,00,00,00,
62181081,000003E5,false,Rx,0,8,28,2E,00,00,00,00,00,00,
62182066,000000A7,false,Rx,0,8,EE,54,20,81,FD,11,68,3D,
62182296,000000A8,false,Rx,0,8,9F,64,3D,61,83,64,AC,0C,
62182461,000000AF,false,Rx,0,4,83,75,1D,01,00,00,00,00,
62182695,00000107,false,Rx,0,8,00,00,F8,0B,01,00,7A,CB,
62182929,00000120,false,Rx,0,8,2B,02,00,02,01,08,FF,01,
62183158,00000121,false,Rx,0,8,50,02,00,40,36,50,7E,FE,
