Time Stamp,ID,Extended,Dir,Bus,LEN,D1,D2,D3,D4,D5,D6,D7,D8
94061171,000003D8,false,Rx,0,8,00,00,08,00,00,00,00,00,
94061176,00000086,false,Rx,0,8,2A,06,01,20,00,00,00,00,
94061182,000000B2,false,Rx,0,8,00,00,00,00,00,00,00,00,
94061188,000000FD,false,Rx,0,8,26,DA,1F,80,00,00,00,00,
94061194,00000116,false,Rx,0,8,F0,0A,01,04,00,00,00,FF,
94061201,00000392,false,Rx,0,8,00,2B,00,00,00,00,00,04,
94061403,000000AD,false,Rx,0,8,48,E0,BF,FF,00,14,00,00,
94061659,000000AE,false,Rx,0,8,DF,00,00,00,FF,3C,01,02,
94061835,000000AF,false,Rx,0,4,83,79,7C,01,00,00,00,00,
94062638,000000A7,false,Rx,0,8,CD,E8,5F,7F,FD,F5,B7,3D,
94062874,000000A8,false,Rx,0,8,AB,B8,1D,61,82,64,30,0E,
94063108,00000107,false,Rx,0,8,00,00,F8,2C,01,00,A5,83,
94063363,00000120,false,Rx,0,8,E2,0C,00,02,01,08,FF,01,
94063597,00000121,false,Rx,0,8,DF,0C,00,80,37,5A,7E,FE,
94063832,00000147,false,Rx,0,8,00,00,00,00,F0,93,60,1D,
94065034,000003DB,false,Rx,0,8,50,00,01,04,07,24,01,A3,
94068745,00000086,false,Rx,0,8,4E,07,01,20,00,00,00,00,
94069594,000000B2,false,Rx,0,8,00,00,00,00,00,00,00,00,
94069874,00000101,false,Rx,0,8,6B,0B,80,01,A2,04,00,00,
94070148,00000106,false,Rx,0,8,D5,0B,63,00,02,00,00,00,
94070397,0000011E,false,Rx,0,8,29,0B,00,00,00,00,00,00,
94070652,000001AB,false,Rx,0,8,ED,00,04,02,18,00,04,00,
94071422,000000AD,false,Rx,0,8,86,E1,BF,FF,00,14,00,00,
94071677,000000AE,false,Rx,0,8,30,01,00,00,FF,3C,01,02,
94071832,000000AF,false,Rx,0,4,83,7A,7C,01,00,00,00,00,
94071988,00000128,false,Rx,0,3,80,00,00,00,00,00,00,00,
94072253,00000462,false,Rx,0,8,00,00,38,00,00,01,00,00,
94072477,0000012D,false,Rx,0,8,F2,89,7F,00,00,00,FE,3F,
94072711,000000A7,false,Rx,0,8,1D,E9,5F,7F,FD,F5,B7,3D,
94072925,000000A8,false,Rx,0,8,D9,B9,1D,61,82,64,30,0E,
94075033,000003DD,false,Rx,0,8,48,04,10,08,FE,4F,07,00,
94081163,0000031E,false,Rx,0,8,68,FF,3F,00,00,00,00,40,
94081169,0000032C,false,Rx,0,8,00,0F,00,00,98,24,00,00,
94081174,0000032F,false,Rx,0,8,00,FF,00,00,00,00,08,01,
94081180,00000086,false,Rx,0,8,0C,08,01,20,00,00,00,00,
94081186,000000B2,false,Rx,0,8,00,00,00,00,00,00,00,00,
94081192,0000012B,false,Rx,0,8,8B,43,40,28,00,00,00,00,
94081198,000000FD,false,Rx,0,8,09,DB,1F,80,00,00,00,00,
94081204,00000116,false,Rx,0,8,94,0B,01,04,00,00,00,FF,
94081210,000001A2,false,Rx,0,8,35,0D,00,00,00,00,00,00,
94081413,000000AD,false,Rx,0,8,62,E2,BF,FF,00,14,00,00,
94081668,000000AE,false,Rx,0,8,31,02,00,00,FF,3C,01,02,
94081823,000000AF,false,Rx,0,4,83,7B,00,00,00,00,00,00,
94082057,000000B1,false,Rx,0,8,76,26,00,00,00,00,00,00,
94082686,000000A7,false,Rx,0,8,1B,EA,5F,7F,FD,F5,B7,3D,
94082922,000000A8,false,Rx,0,8,16,BA,1D,61,82,64,28,0E,
94083156,00000107,false,Rx,0,8,00,00,F8,2C,01,00,A5,83,
94083391,00000120,false,Rx,0,8,52,0D,00,02,01,08,FF,01,
94083632,00000121,false,Rx,0,8,CC,0D,00,80,37,5A,7E,FE,
94083866,00000147,false,Rx,0,8,00,00,00,00,F0,93,60,1D,
94085027,00000365,false,Rx,0,8,AD,06,13,00,8E,0F,88,7A,
94088756,00000086,false,Rx,0,8,68,09,01,20,00,00,00,00,
94089561,000000B2,false,Rx,0,8,00,00,00,00,00,00,00,00,
94089816,00000101,false,Rx,0,8,B7,0C,80,01,A2,02,00,00,
94090070,00000106,false,Rx,0,8,C6,0C,63,00,02,00,00,00,
94090343,0000011E,false,Rx,0,8,3A,0C,00,00,00,00,00,00,
94091422,000000AD,false,Rx,0,8,E3,E3,BF,FF,00,14,00,00,
94091676,000000AE,false,Rx,0,8,14,03,00,00,FF,3C,01,02,
94091831,000000AF,false,Rx,0,4,83,7C,00,00,00,00,00,00,
94091988,00000128,false,Rx,0,3,84,49,CA,00,00,00,00,00,
94092277,0000012D,false,Rx,0,8,7B,8A,7F,00,00,00,FE,3F,
94092520,000003C8,false,Rx,0,8,00,00,54,24,00,60,11,94,
94092754,000000A7,false,Rx,0,8,75,EB,5F,7F,FD,F5,B7,3D,
94092989,000000A8,false,Rx,0,8,D4,BB,1D,61,82,64,18,0E,
94093277,17F00077,true,Rx,0,8,20,77,00,00,00,00,00,00,
94095043,000003DE,false,Rx,0,8,FE,00,00,00,00,00,00,00,
94101188,0000030B,false,Rx,0,8,10,2F,00,00,08,00,00,10,
94101194,0000065E,false,Rx,0,8,00,00,0A,A1,23,00,00,00,
94101200,000003E5,false,Rx,0,8,AA,2D,00,00,00,00,00,00,
94101206,00000086,false,Rx,0,8,C4,0A,01,20,00,00,00,00,
94101212,000000B2,false,Rx,0,8,00,00,00,00,00,00,00,00,
94101217,000000FD,false,Rx,0,8,90,DC,1F,80,00,00,00,00,
94101222,00000116,false,Rx,0,8,87,0C,01,04,00,00,00,FF,
94101378,000000AD,false,Rx,0,8,41,E4,BF,FF,00,14,00,00,
94101634,000000AE,false,Rx,0,8,1A,04,00,00,FF,3C,01,02,
94101810,000000AF,false,Rx,0,4,83,7D,83,01,00,00,00,00,
94102683,000000A7,false,Rx,0,8,7B,EC,5F,7F,FD,F9,B7,3D,
94102917,000000A8,false,Rx,0,8,62,BC,1D,61,82,64,04,0E,
94103152,00000107,false,Rx,0,8,00,00,F8,2C,01,00,B1,83,
94103396,00000120,false,Rx,0,8,39,0E,00,02,01,08,FF,01,
94103631,00000121,false,Rx,0,8,5F,0E,00,80,37,5A,7E,FE,
94103864,00000147,false,Rx,0,8,00,00,00,00,F0,93,60,1D,
94104099,00000391,false,Rx,0,8,11,90,22,44,00,27,00,22,
94104355,00000040,false,Rx,0,8,55,0F,00,44,C1,00,00,00,
94104590,000003BE,false,Rx,0,8,29,03,E6,00,C8,80,00,80,
94104824,000003C7,false,Rx,0,8,82,10,24,00,00,40,80,00,
94108770,00000086,false,Rx,0,8,A0,0B,01,20,00,00,00,00,
94109556,0000012B,false,Rx,0,8,0B,44,40,28,00,00,00,00,
94109810,000000B2,false,Rx,0,8,00,00,00,00,00,00,00,00,
94110066,00000101,false,Rx,0,8,27,0D,81,01,A2,02,00,00,
94110309,00000106,false,Rx,0,8,A2,0D,63,00,02,00,00,00,
94110550,0000011E,false,Rx,0,8,5E,0D,00,00,00,00,00,00,
94111415,000000AD,false,Rx,0,8,74,E5,BF,FF,00,14,00,00,
94111643,000000AE,false,Rx,0,8,E1,05,00,00,FF,3C,01,02,
94111825,000000AF,false,Rx,0,4,83,7E,83,01,00,00,00,00,
94111980,00000128,false,Rx,0,3,80,00,00,00,00,00,00,00,
94112214,0000012D,false,Rx,0,8,60,8B,7F,00,00,00,FE,3F,
94112654,000000A7,false,Rx,0,8,A0,ED,9F,7F,FD,F9,B7,3D,
94112894,000000A8,false,Rx,0,8,49,BD,1D,61,82,64,00,0E,
94121159,00000086,false,Rx,0,8,B3,0C,01,20,00,00,00,00,
94121165,000000B2,false,Rx,0,8,00,00,00,00,00,00,00,00,
94121170,000000FD,false,Rx,0,8,19,DD,1F,80,00,00,00,00,
94121175,00000116,false,Rx,0,8,E3,0D,01,04,00,00,00,FF,
94121404,000000AD,false,Rx,0,8,6A,E6,BF,FF,00,14,00,00,
94121633,000000AE,false,Rx,0,8,BA,06,00,00,FF,3C,01,02,
94121813,000000AF,false,Rx,0,4,83,7F,00,00,00,00,00,00,
94122680,000000A7,false,Rx,0,8,2B,EE,9F,7F,FD,F9,B7,3D,
94122915,000000A8,false,Rx,0,8,8B,BE,1D,61,82,64,08,0E,
94123149,00000107,false,Rx,0,8,00,00,F8,2C,01,00,BC,83,
94123397,00000120,false,Rx,0,8,EC,0F,00,02,01,08,FF,01,
94123632,00000121,false,Rx,0,8,D4,0F,00,C0,37,5A,7E,FE,
94123867,00000147,false,Rx,0,8,00,00,00,00,F0,93,60,1D,
94124121,00000463,false,Rx,0,8,00,E0,3F,00,00,00,00,00,
94127056,0000031E,false,Rx,0,8,FB,F0,3F,00,00,00,00,40,
94127304,0000032C,false,Rx,0,8,00,0F,00,00,98,24,00,00,
94127547,0000032F,false,Rx,0,8,00,FF,00,00,00,00,08,01,
94128770,00000086,false,Rx,0,8,D7,0D,01,20,00,00,00,00,
94129580,000000B2,false,Rx,0,8,00,00,00,00,00,00,00,00,
94129833,00000101,false,Rx,0,8,F1,0E,81,01,A2,05,00,00,
94130148,00000106,false,Rx,0,8,0E,0E,63,00,02,00,00,00,
94130397,0000011E,false,Rx,0,8,F2,0E,00,00,00,00,00,00,
94131401,000000AD,false,Rx,0,8,35,E7,BF,FF,00,14,00,00,
94131656,000000AE,false,Rx,0,8,28,07,00,00,FF,3C,01,02,
94131832,000000AF,false,Rx,0,4,83,70,00,00,00,00,00,00,
94131967,00000128,false,Rx,0,3,84,FF,09,00,00,00,00,00,
94132142,000003C0,false,Rx,0,4,4B,05,03,00,00,00,00,00,
94132394,0000012D,false,Rx,0,8,52,8C,7F,00,00,00,FE,3F,
94132629,000003D6,false,Rx,0,8,01,00,00,00,00,00,30,00,
94132864,000000A7,false,Rx,0,8,F5,EF,9F,7F,FD,F9,B7,3D,
94133098,000000A8,false,Rx,0,8,3C,BF,1D,61,82,64,0C,0E,
94133389,1B000053,true,Rx,0,8,53,00,04,01,01,00,00,00,
94133919,000005F0,false,Rx,0,8,FD,00,64,00,00,64,00,00,
94134997,00000365,false,Rx,0,8,AD,06,13,00,8D,0F,88,7A,
94141177,00000086,false,Rx,0,8,7B,0E,01,20,00,00,00,00,
94141183,000003B5,false,Rx,0,8,87,FE,12,3E,0C,A6,20,00,
94141189,000000B2,false,Rx,0,8,00,00,00,00,00,00,00,00,
94141195,0000012B,false,Rx,0,8,AE,45,40,28,00,00,00,00,
94141202,000000FD,false,Rx,0,8,E6,DE,1F,80,00,00,00,00,
94141207,1B000015,true,Rx,0,8,15,00,04,02,01,00,00,00,
94141213,00000116,false,Rx,0,8,4F,0E,01,04,00,00,00,FF,
94141415,000000AD,false,Rx,0,8,A2,E8,BF,FF,00,14,00,00,
94141649,000000AE,false,Rx,0,8,5F,08,00,00,FF,3C,01,02,
94141826,000000AF,false,Rx,0,4,83,71,41,01,00,00,00,00,
94142670,000000A7,false,Rx,0,8,3C,E0,9F,7F,FD,F9,B7,3D,
94142905,000000A8,false,Rx,0,8,C4,B0,1D,61,82,64,14,0E,
94143140,00000107,false,Rx,0,8,00,00,F8,2C,01,00,BC,83,
94143387,00000120,false,Rx,0,8,26,00,00,02,01,08,FF,01,
94143622,00000121,false,Rx,0,8,1A,00,00,C0,37,5A,7E,FE,
94143852,00000147,false,Rx,0,8,00,00,00,00,F0,93,60,1D,
94145021,000005AC,false,Rx,0,8,00,00,FF,FE,FE,F7,07,00,
94145612,0000030B,false,Rx,0,8,10,20,00,00,08,00,00,10,
94148763,00000086,false,Rx,0,8,1F,0F,01,20,00,00,00,00,
94149573,000000B2,false,Rx,0,8,00,00,00,00,00,00,00,00,
94149825,00000101,false,Rx,0,8,61,0F,80,01,A2,05,00,00,
94150159,00000106,false,Rx,0,8,6A,0F,63,00,02,00,00,00,
94150388,0000011E,false,Rx,0,8,96,0F,00,00,00,00,00,00,
94151415,000000AD,false,Rx,0,8,A6,E9,BF,FF,00,14,00,00,
94151643,000000AE,false,Rx,0,8,B7,09,00,00,FF,3C,01,02,
94151824,000000AF,false,Rx,0,4,83,72,41,01,00,00,00,00,
94151980,00000128,false,Rx,0,3,80,00,00,00,00,00,00,00,
94152264,1B000076,true,Rx,0,8,76,00,04,01,01,00,0A,00,
94152507,0000012D,false,Rx,0,8,3E,8D,7F,00,00,00,FE,3F,
94152721,000000A7,false,Rx,0,8,B4,E1,9F,7F,FD,F9,B7,3D,
94152955,000000A8,false,Rx,0,8,BE,B1,1D,61,82,64,14,0E,
94153265,1B000010,true,Rx,0,8,10,00,04,05,11,00,00,00,
94154265,00000040,false,Rx,0,8,17,00,00,44,C1,00,00,00,
94155060,16A95414,true,Rx,0,8,00,30,7E,C3,0F,00,00,00,
94161209,000003D8,false,Rx,0,8,00,00,08,00,00,00,00,00,
94161214,00000520,false,Rx,0,8,A5,0E,00,08,00,0A,00,0A,
94161220,00000086,false,Rx,0,8,5D,00,01,20,00,00,00,00,
94161225,000000B2,false,Rx,0,8,00,00,00,00,00,00,00,00,
94161230,000000FD,false,Rx,0,8,71,DF,1F,80,00,00,00,00,
94161236,00000116,false,Rx,0,8,2B,0F,01,04,00,00,00,FF,
94161241,00000392,false,Rx,0,8,13,2C,00,00,00,00,00,04,
94161399,000000AD,false,Rx,0,8,F7,EA,BF,FF,00,14,00,00,
94161653,000000AE,false,Rx,0,8,CB,0A,00,00,FF,3C,01,02,
94161808,000000AF,false,Rx,0,4,83,73,00,00,00,00,00,00,
94162691,000000A7,false,Rx,0,8,C0,E2,9F,7F,FD,F9,B7,3D,
94162900,000000A8,false,Rx,0,8,1A,B2,1D,61,82,64,18,0E,
94163160,00000107,false,Rx,0,8,00,00,F8,2C,01,00,C7,83,
94163387,00000120,false,Rx,0,8,D3,01,00,02,01,08,FF,01,
94163621,00000121,false,Rx,0,8,76,01,00,C0,37,5A,7E,FE,
94163877,00000147,false,Rx,0,8,00,00,00,00,F0,93,60,1D,
94165022,000003DB,false,Rx,0,8,50,00,01,04,07,24,01,A3,
94168769,00000086,false,Rx,0,8,39,01,01,20,00,00,00,00,
94169557,000000B2,false,Rx,0,8,00,00,00,00,00,00,00,00,
94169790,0000012B,false,Rx,0,8,B7,46,40,28,00,00,00,00,
94170045,00000101,false,Rx,0,8,23,00,80,01,A2,05,00,00,
94170287,00000106,false,Rx,0,8,28,00,63,00,02,00,00,00,
94170551,0000011E,false,Rx,0,8,D4,00,00,00,00,00,00,00,
94171415,000000AD,false,Rx,0,8,42,EB,BF,FF,00,14,00,00,
94171648,000000AE,false,Rx,0,8,69,0B,00,00,FF,3C,01,02,
94171825,000000AF,false,Rx,0,4,83,74,00,00,00,00,00,00,
94171980,00000128,false,Rx,0,3,80,00,00,00,00,00,00,00,
94172222,00000464,false,Rx,0,8,08,4C,00,00,00,00,00,00,
94172465,0000012D,false,Rx,0,8,0E,8E,7F,00,00,00,FE,3F,
94172700,000000A7,false,Rx,0,8,41,E3,9F,7F,FD,F9,B7,3D,
94172909,000000A8,false,Rx,0,8,F5,B3,1D,61,82,64,18,0E,
94175021,000003DD,false,Rx,0,8,48,04,10,08,FE,4F,07,00,
94181252,0000031E,false,Rx,0,8,31,F1,3F,00,00,00,00,40,
94181257,0000032C,false,Rx,0,8,00,0F,00,00,98,24,00,00,
94181263,0000032F,false,Rx,0,8,00,FF,00,00,00,00,08,01,
94181268,00000086,false,Rx,0,8,95,02,01,20,00,00,00,00,
94181273,000000B2,false,Rx,0,8,00,00,00,00,00,00,00,00,
94181279,000000FD,false,Rx,0,8,0B,D0,1F,80,00,00,00,00,
94181284,00000116,false,Rx,0,8,69,00,01,04,00,00,00,FF,
94181408,000000AD,false,Rx,0,8,2F,EC,BF,FF,00,14,00,00,
94181663,000000AE,false,Rx,0,8,D1,0C,00,00,FF,3C,01,02,
94181818,000000AF,false,Rx,0,4,83,75,00,00,00,00,00,00,
94182074,000000B1,false,Rx,0,8,85,27,00,00,00,00,00,00,
94182680,000000A7,false,Rx,0,8,7B,E4,9F,7F,FD,F9,B7,3D,
94182914,000000A8,false,Rx,0,8,14,B4,1D,21,82,64,10,0E,
94183148,00000107,false,Rx,0,8,00,00,F8,2C,01,00,C7,83,
94183397,00000120,false,Rx,0,8,2B,02,00,02,01,08,FF,01,
94183632,00000121,false,Rx,0,8,C4,02,00,80,37,5A,7E,FE,
94183865,00000147,false,Rx,0,8,00,00,00,00,F0,93,60,1D,
94185026,00000365,false,Rx,0,8,AD,06,13,00,8E,0F,88,7A,
94188769,00000086,false,Rx,0,8,F1,03,01,20,00,00,00,00,
94189547,000000B2,false,Rx,0,8,00,00,00,00,00,00,00,00,
94189827,00000101,false,Rx,0,8,B3,01,81,01,A2,05,00,00,
94190062,000006B2,false,Rx,0,8,75,D1,9D,A3,29,FD,C6,37,
94190308,00000106,false,Rx,0,8,4C,01,63,00,02,00,00,00,
94190550,0000011E,false,Rx,0,8,B0,01,00,00,00,00,00,00,
94191415,000000AD,false,Rx,0,8,5E,ED,BF,FF,00,14,00,00,
94191644,000000AE,false,Rx,0,8,B2,0D,00,00,FF,3C,01,02,
94191825,000000AF,false,Rx,0,4,83,76,00,00,00,00,00,00,
94191959,00000128,false,Rx,0,3,84,F3,3A,00,00,00,00,00,
94192227,0000012D,false,Rx,0,8,F9,8F,7F,00,00,00,FE,3F,
94192470,000003C8,false,Rx,0,8,00,00,54,24,00,60,11,94,
94192704,000000A7,false,Rx,0,8,00,E5,9F,7F,FD,F9,B7,3D,
94192939,000000A8,false,Rx,0,8,7E,B5,1D,21,82,64,10,0E,
94193227,1B000077,true,Rx,0,8,77,00,04,02,01,00,00,00,
94195021,000003DE,false,Rx,0,8,FE,00,00,00,00,00,00,00,
94201258,0000030B,false,Rx,0,8,10,21,00,00,08,00,00,10,
94201263,000003E5,false,Rx,0,8,28,2E,00,00,00,00,00,00,
94201268,00000086,false,Rx,0,8,E2,04,01,20,00,00,00,00,
94201274,000000B2,false,Rx,0,8,00,00,00,00,00,00,00,00,
94201279,0000012B,false,Rx,0,8,92,47,40,28,00,00,00,00,
94201284,000000FD,false,Rx,0,8,01,D1,1F,80,00,00,00,00,
94201290,00000116,false,Rx,0,8,0D,01,01,04,00,00,00,FF,
94201387,000000AD,false,Rx,0,8,84,EE,BF,FF,00,14,00,00,
94201647,000000AE,false,Rx,0,8,8A,0E,00,00,FF,3C,01,02,
94201823,000000AF,false,Rx,0,4,83,77,C9,01,00,00,00,00,
94202056,00000394,false,Rx,0,8,93,11,00,1A,00,00,00,00,
94202746,000000A7,false,Rx,0,8,93,E6,9F,7F,FD,F9,B7,3D,
94202954,000000A8,false,Rx,0,8,E6,B6,1D,21,82,64,0C,0E,
94203227,00000107,false,Rx,0,8,00,00,F8,2C,01,00,D2,83,
94203450,00000120,false,Rx,0,8,F9,03,00,02,01,08,FF,01,
94203685,00000121,false,Rx,0,8,0B,03,00,C0,37,5A,7E,FE,
94203919,00000147,false,Rx,0,8,00,00,00,00,F0,93,60,1D,
94204154,00000391,false,Rx,0,8,11,90,21,43,00,27,00,22,
94204410,00000040,false,Rx,0,8,73,01,00,44,C1,00,00,00,
94204645,000003BE,false,Rx,0,8,DE,04,E6,00,C8,80,00,80,
94204878,000003C7,false,Rx,0,8,01,10,24,00,00,40,80,00,
94208760,00000086,false,Rx,0,8,86,05,01,20,00,00,00,00,
94209711,000000B2,false,Rx,0,8,00,00,00,00,00,00,00,00,
94209984,00000101,false,Rx,0,8,1F,02,81,01,A2,05,00,00,
94210243,00000106,false,Rx,0,8,E0,02,63,00,02,00,00,00,
94210507,0000011E,false,Rx,0,8,1C,02,00,00,00,00,00,00,
94211077,000006B4,false,Rx,0,8,00,91,97,71,29,33,56,57,
94211450,000000AD,false,Rx,0,8,D5,EF,BF,FF,00,14,00,00,
94211683,000000AE,false,Rx,0,8,68,0F,00,00,FF,3C,01,02,
94211860,000000AF,false,Rx,0,4,83,78,C9,01,00,00,00,00,
94212016,00000128,false,Rx,0,3,80,00,00,00,00,00,00,00,
94212284,0000012D,false,Rx,0,8,5D,80,7F,00,00,00,FE,3F,
94212646,000000A7,false,Rx,0,8,1A,E7,9F,7F,FD,F9,B7,3D,
94212881,000000A8,false,Rx,0,8,5B,B7,1D,21,82,64,10,0E,
94221248,00000086,false,Rx,0,8,2A,06,01,20,00,00,00,00,
94221253,000000B2,false,Rx,0,8,00,00,00,00,00,00,00,00,
94221258,000000FD,false,Rx,0,8,CE,D2,1F,80,00,00,00,00,
94221264,00000116,false,Rx,0,8,A1,02,01,04,00,00,00,FF,
94221401,000000AD,false,Rx,0,8,48,E0,BF,FF,00,14,00,00,
94221635,000000AE,false,Rx,0,8,DF,00,00,00,FF,3C,01,02,
94221811,000000AF,false,Rx,0,4,83,79,00,00,00,00,00,00,
94222065,00000462,false,Rx,0,8,00,00,38,00,00,01,00,00,
94222730,000000A7,false,Rx,0,8,57,E8,9F,7F,FD,F9,B7,3D,
94222965,000000A8,false,Rx,0,8,99,B8,1D,21,82,64,00,0E,
94223206,00000107,false,Rx,0,8,00,00,F8,2C,01,00,DD,83,
94223449,00000120,false,Rx,0,8,AF,04,00,02,01,08,FF,01,
94223683,00000121,false,Rx,0,8,B6,04,00,C0,37,5A,7E,FE,
94223918,00000147,false,Rx,0,8,00,00,00,00,F0,93,60,1D,
94227033,0000031E,false,Rx,0,8,8B,F2,3F,00,00,00,00,40,
94227296,0000032C,false,Rx,0,8,00,0F,00,00,98,24,00,00,
94227538,0000032F,false,Rx,0,8,00,FF,00,00,00,00,04,01,
94228758,00000086,false,Rx,0,8,4E,07,01,20,00,00,00,00,
94229549,000000B2,false,Rx,0,8,00,00,00,00,00,00,00,00,
94229804,0000012B,false,Rx,0,8,47,48,40,28,00,00,00,00,
94230038,00000101,false,Rx,0,8,05,03,80,01,A2,01,00,00,
94230287,00000106,false,Rx,0,8,84,03,63,00,02,00,00,00,
94230550,0000011E,false,Rx,0,8,78,03,00,00,00,00,00,00,
94231389,000000AD,false,Rx,0,8,86,E1,BF,FF,00,14,00,00,
94231569,000003C0,false,Rx,0,4,BB,06,03,00,00,00,00,00,
94231798,000000AE,false,Rx,0,8,30,01,00,00,FF,3C,01,02,
94231979,000000AF,false,Rx,0,4,83,7A,00,00,00,00,00,00,
94232135,00000128,false,Rx,0,3,84,F3,C5,00,00,00,00,00,
94232371,000003D6,false,Rx,0,8,02,00,00,00,00,00,30,00,
94232606,0000012D,false,Rx,0,8,0A,81,7F,00,00,00,FE,3F,
94232841,000000A7,false,Rx,0,8,0D,E9,9F,7F,FD,FD,B7,3D,
94233077,000000A8,false,Rx,0,8,BC,B9,1D,21,82,64,F8,0D,
94235026,00000365,false,Rx,0,8,AD,06,13,00,8E,0F,88,7A,
94241277,00000086,false,Rx,0,8,0C,08,01,20,00,00,00,00,
94241282,000003B5,false,Rx,0,8,87,FE,12,3E,0C,A3,20,00,
94241287,000000B2,false,Rx,0,8,00,00,00,00,00,00,00,00,
94241293,000000FD,false,Rx,0,8,BB,D3,1F,80,00,00,00,00,
94241298,00000569,false,Rx,0,8,00,00,00,3E,F8,10,00,00,
94241303,00000116,false,Rx,0,8,C5,03,01,04,00,00,00,FF,
94241407,000000AD,false,Rx,0,8,62,E2,BF,FF,00,14,00,00,
94241661,000000AE,false,Rx,0,8,31,02,00,00,FF,3C,01,02,
94241837,000000AF,false,Rx,0,4,83,7B,36,01,00,00,00,00,
94242718,000000A7,false,Rx,0,8,0B,EA,9F,7F,FD,FD,B7,3D,
94242953,000000A8,false,Rx,0,8,93,BA,1D,21,82,64,F0,0D,
94243189,00000107,false,Rx,0,8,00,00,F8,2C,01,00,DD,83,
94243421,00000120,false,Rx,0,8,AD,05,00,02,01,08,FF,01,
94243656,00000121,false,Rx,0,8,81,05,00,C0,37,5A,7E,FE,
94243885,00000147,false,Rx,0,8,00,00,00,00,F0,93,60,1D,
94245013,000005AC,false,Rx,0,8,00,00,FF,FE,FE,F7,07,00,
94245620,0000030B,false,Rx,0,8,10,22,00,00,08,00,00,10,
94248770,00000086,false,Rx,0,8,68,09,01,20,00,00,00,00,
94249575,000000B2,false,Rx,0,8,00,00,00,00,00,00,00,00,
94249850,00000101,false,Rx,0,8,A3,04,80,01,A2,00,00,00,
94250143,00000106,false,Rx,0,8,97,04,63,00,02,00,00,00,
94250382,0000011E,false,Rx,0,8,6B,04,00,00,00,00,00,00,
94251388,000000AD,false,Rx,0,8,E3,E3,BF,FF,00,14,00,00,
94251668,000000AE,false,Rx,0,8,14,03,00,00,FF,3C,01,02,
94251818,000000AF,false,Rx,0,4,83,7C,36,01,00,00,00,00,
94251978,00000128,false,Rx,0,3,80,00,00,00,00,00,00,00,
94252240,0000012D,false,Rx,0,8,18,82,7F,00,00,00,FE,3F,
94252720,000000A7,false,Rx,0,8,65,EB,9F,7F,FD,FD,B7,3D,
94252955,000000A8,false,Rx,0,8,2E,BB,1D,21,82,64,F8,0D,
94253193,00000641,false,Rx,0,8,02,17,42,13,14,12,7D,14,
94253441,00000676,false,Rx,0,8,00,00,00,80,00,C0,20,01,
94254214,00000040,false,Rx,0,8,DF,02,00,44,C1,00,00,00,
94255069,16A95414,true,Rx,0,8,00,30,7E,C3,0F,00,00,00,
94255316,000003D8,false,Rx,0,8,00,00,08,00,00,00,00,00,
94261311,16A95415,true,Rx,0,8,00,00,00,00,14,00,98,00,
94261316,00000086,false,Rx,0,8,C4,0A,01,20,00,00,00,00,
94261321,000000B2,false,Rx,0,8,00,00,00,00,00,00,00,00,
94261327,0000012B,false,Rx,0,8,4F,49,40,28,00,00,00,00,
94261340,000000FD,false,Rx,0,8,2D,D4,1F,80,00,00,00,00,
94261346,00000116,false,Rx,0,8,D6,04,01,04,00,00,00,FF,
94261351,00000392,false,Rx,0,8,77,2D,00,00,00,00,00,04,
94261427,000000AD,false,Rx,0,8,41,E4,BF,FF,00,14,00,00,
94261661,000000AE,false,Rx,0,8,1A,04,00,00,FF,3C,01,02,
94261837,000000AF,false,Rx,0,4,83,7D,00,00,00,00,00,00,
94262700,000000A7,false,Rx,0,8,C3,EC,DF,7F,FD,FD,B7,3D,
94262934,000000A8,false,Rx,0,8,5F,BC,1D,21,82,64,04,0E,
94263168,00000107,false,Rx,0,8,00,00,F8,2C,01,00,E8,83,
94263422,00000120,false,Rx,0,8,42,06,00,02,01,08,FF,01,
94263657,00000121,false,Rx,0,8,86,06,00,C0,37,5A,7E,FE,
94263890,00000147,false,Rx,0,8,00,00,00,00,F0,97,60,1D,
94265008,000003DB,false,Rx,0,8,50,00,01,04,07,24,01,A3,
94268752,00000086,false,Rx,0,8,A0,0B,01,20,00,00,00,00,
94269613,000000B2,false,Rx,0,8,00,00,00,00,00,00,00,00,
94269893,00000101,false,Rx,0,8,36,05,80,01,A2,00,40,00,
94270168,00000106,false,Rx,0,8,F3,05,63,00,02,00,00,00,
94270422,0000011E,false,Rx,0,8,0F,05,00,00,00,00,00,00,
94270655,000001AB,false,Rx,0,8,0A,01,04,02,18,00,04,00,
94271423,000000AD,false,Rx,0,8,74,E5,BF,FF,00,14,00,00,
94271656,000000AE,false,Rx,0,8,E1,05,00,00,FF,3C,01,02,
94271832,000000AF,false,Rx,0,4,83,7E,00,00,00,00,00,00,
94271987,00000128,false,Rx,0,3,84,FF,0A,00,00,00,00,00,
94272224,00000463,false,Rx,0,8,00,E0,3F,00,00,00,00,00,
94272468,0000012D,false,Rx,0,8,89,83,7F,00,00,00,FE,3F,
94272703,000000A7,false,Rx,0,8,33,ED,DF,7F,FD,FD,B7,3D,
94272937,000000A8,false,Rx,0,8,94,BD,1D,21,82,64,10,0E,
94275026,000003DD,false,Rx,0,8,48,04,10,08,FE,4F,07,00,
94281405,0000031E,false,Rx,0,8,C9,F3,3F,00,00,00,00,40,
94281410,0000032C,false,Rx,0,8,00,0F,00,00,98,24,00,00,
94281415,0000032F,false,Rx,0,8,00,FF,00,00,00,00,02,01,
94281421,00000086,false,Rx,0,8,B3,0C,01,20,00,00,00,00,
94281426,000000B2,false,Rx,0,8,00,00,00,00,00,00,00,00,
94281431,000000FD,false,Rx,0,8,B7,D5,1F,80,00,00,00,00,
94281437,00000116,false,Rx,0,8,B2,05,01,04,00,00,00,FF,
94281442,000001A2,false,Rx,0,8,9E,0E,00,00,00,00,00,00,
94281447,000000AD,false,Rx,0,8,6A,E6,BF,FF,00,14,00,00,
94281666,000000AE,false,Rx,0,8,BA,06,00,00,FF,3C,01,02,
94281820,000000AF,false,Rx,0,4,83,7F,20,01,00,00,00,00,
94282075,000000B1,false,Rx,0,8,30,28,00,00,00,00,00,00,
94282726,000000A7,false,Rx,0,8,B8,EE,DF,7F,FD,FD,B7,3D,
94282960,000000A8,false,Rx,0,8,1E,BE,1D,21,82,64,14,0E,
94283228,00000107,false,Rx,0,8,00,00,F8,2C,01,00,E8,83,
94283450,00000120,false,Rx,0,8,40,07,00,02,01,08,FF,01,
94283685,00000121,false,Rx,0,8,D5,07,00,C0,37,5A,7E,FE,
94283919,00000147,false,Rx,0,8,00,00,00,00,F0,97,60,1D,
94285026,00000365,false,Rx,0,8,AD,06,13,00,8E,0F,88,7A,
94288770,00000086,false,Rx,0,8,D7,0D,01,20,00,00,00,00,
94289555,000000B2,false,Rx,0,8,00,00,00,00,00,00,00,00,
94289811,0000012B,false,Rx,0,8,5F,4A,40,28,00,00,00,00,
94290040,00000101,false,Rx,0,8,6B,06,80,01,A2,00,00,00,
94290307,00000106,false,Rx,0,8,5F,06,63,00,02,00,00,00,
94290570,0000011E,false,Rx,0,8,A3,06,00,00,00,00,00,00,
94291434,000000AD,false,Rx,0,8,35,E7,BF,FF,00,14,00,00,
94291689,000000AE,false,Rx,0,8,28,07,00,00,FF,3C,01,02,
94291843,000000AF,false,Rx,0,4,83,70,20,01,00,00,00,00,
94292000,00000128,false,Rx,0,3,80,00,00,00,00,00,00,00,
94292289,0000012D,false,Rx,0,8,06,84,7F,00,00,00,FE,3F,
94292531,000003C8,false,Rx,0,8,00,00,54,24,00,60,11,94,
94292767,000000A7,false,Rx,0,8,66,EF,DF,7F,FD,FD,B7,3D,
94293001,000000A8,false,Rx,0,8,D9,BF,1D,21,82,64,18,0E,
94295034,000003DE,false,Rx,0,8,FE,00,00,00,00,00,00,00,
94301410,0000030B,false,Rx,0,8,10,23,00,00,08,00,00,10,
94301415,000003E5,false,Rx,0,8,18,2F,00,00,00,00,00,00,
94301420,00000086,false,Rx,0,8,7B,0E,01,20,00,00,00,00,
94301426,000000B2,false,Rx,0,8,00,00,00,00,00,00,00,00,
94301431,000000FD,false,Rx,0,8,A5,D6,1F,80,00,00,00,00,
94301436,00000116,false,Rx,0,8,1E,06,01,04,00,00,00,FF,
94301442,000000AD,false,Rx,0,8,A2,E8,BF,FF,00,14,00,00,
94301656,000000AE,false,Rx,0,8,5F,08,00,00,FF,3C,01,02,
94301832,000000AF,false,Rx,0,4,83,71,00,00,00,00,00,00,
94302657,000000A7,false,Rx,0,8,25,E0,DF,7F,FD,F9,B7,3D,
94302892,000000A8,false,Rx,0,8,66,B0,1D,E1,81,64,14,0E,
94303148,00000107,false,Rx,0,8,00,00,F8,2C,01,00,F3,83,
94303382,00000120,false,Rx,0,8,19,08,00,02,01,08,FF,01,
94303617,00000121,false,Rx,0,8,16,08,00,C0,37,5A,7E,FE,
94303850,00000147,false,Rx,0,8,00,00,00,00,F0,97,60,1D,
94304080,00000391,false,Rx,0,8,10,90,21,42,00,27,00,22,
94304330,00000040,false,Rx,0,8,BB,03,00,44,C1,00,00,00,
94304573,000003BE,false,Rx,0,8,A1,05,E6,00,C8,80,00,80,
94304803,000003C7,false,Rx,0,8,82,10,24,00,00,40,80,00,
94308786,00000086,false,Rx,0,8,1F,0F,01,20,00,00,00,00,
94309632,000000B2,false,Rx,0,8,00,00,00,00,00,00,00,00,
94309906,00000101,false,Rx,0,8,FF,07,80,01,A2,03,00,00,
94310160,00000106,false,Rx,0,8,3B,07,63,00,02,00,00,00,
94310414,0000011E,false,Rx,0,8,C7,07,00,00,00,00,00,00,
94311415,000000AD,false,Rx,0,8,A6,E9,BF,FF,00,14,00,00,
94311670,000000AE,false,Rx,0,8,B7,09,00,00,FF,3C,01,02,
94311824,000000AF,false,Rx,0,4,83,72,00,00,00,00,00,00,
94311979,00000128,false,Rx,0,3,80,00,00,00,00,00,00,00,
94312246,0000012D,false,Rx,0,8,79,85,7F,00,00,00,FE,3F,
94312681,000000A7,false,Rx,0,8,B4,E1,9F,7F,FD,F9,B7,3D,
94312920,000000A8,false,Rx,0,8,B4,B1,1D,E1,81,64,08,0E,
94321397,00000086,false,Rx,0,8,5D,00,01,20,00,00,00,00,
94321402,000000B2,false,Rx,0,8,00,00,00,00,00,00,00,00,
94321407,0000012B,false,Rx,0,8,FA,4B,40,28,00,00,00,00,
94321413,000000FD,false,Rx,0,8,9F,D7,1F,80,00,00,00,00,
94321418,00000116,false,Rx,0,8,7A,07,01,04,00,00,00,FF,
94321423,000000AD,false,Rx,0,8,F7,EA,BF,FF,00,14,00,00,
94321659,000000AE,false,Rx,0,8,CB,0A,00,00,FF,3C,01,02,
94321809,000000AF,false,Rx,0,4,83,73,00,00,00,00,00,00,
94322068,00000464,false,Rx,0,8,08,4C,00,00,00,00,00,00,
94322717,000000A7,false,Rx,0,8,C0,E2,9F,7F,FD,F9,B7,3D,
94322952,000000A8,false,Rx,0,8,28,B2,1D,E1,81,64,00,0E,
94323183,00000107,false,Rx,0,8,00,00,F8,2C,01,00,FE,83,
94323440,00000120,false,Rx,0,8,4F,09,00,02,01,08,FF,01,
94323674,00000121,false,Rx,0,8,E9,09,00,C0,37,5A,7E,FE,
94323909,00000147,false,Rx,0,8,00,00,00,00,F0,97,60,1D,
94327059,0000031E,false,Rx,0,8,64,F4,3F,00,00,00,00,40,
94327328,0000032C,false,Rx,0,8,00,0F,00,00,98,24,00,00,
94327571,0000032F,false,Rx,0,8,00,FF,00,00,00,00,02,01,
94328770,00000086,false,Rx,0,8,39,01,01,20,00,00,00,00,
94329557,000000B2,false,Rx,0,8,00,00,00,00,00,00,00,00,
94329812,00000101,false,Rx,0,8,C7,08,80,01,A2,04,00,00,
94330124,00000106,false,Rx,0,8,79,08,63,00,02,00,00,00,
94330382,0000011E,false,Rx,0,8,85,08,00,00,00,00,00,00,
94331402,000000AD,false,Rx,0,8,42,EB,BF,FF,00,14,00,00,
94331578,000003C0,false,Rx,0,4,0E,07,03,00,00,00,00,00,
94331811,000000AE,false,Rx,0,8,69,0B,00,00,FF,3C,01,02,
94331988,000000AF,false,Rx,0,4,83,74,00,00,00,00,00,00,
94332122,00000128,false,Rx,0,3,84,15,38,00,00,00,00,00,
94332395,000003D6,false,Rx,0,8,03,00,00,00,00,00,30,00,
94332608,0000012D,false,Rx,0,8,C9,86,7F,00,00,00,FE,3F,
94332864,000000A7,false,Rx,0,8,41,E3,9F,7F,FD,F9,B7,3D,
94333078,000000A8,false,Rx,0,8,C7,B3,1D,E1,81,64,00,0E,
94333366,1B000053,true,Rx,0,8,53,00,04,01,01,00,00,00,
94333837,000005F0,false,Rx,0,8,FD,00,64,00,00,64,00,00,
94335015,00000365,false,Rx,0,8,AD,06,13,00,8E,0F,88,7A,
94341421,00000086,false,Rx,0,8,95,02,01,20,00,00,00,00,
94341426,000003B5,false,Rx,0,8,87,FE,12,40,0C,A3,20,00,
94341431,000000B2,false,Rx,0,8,00,00,00,00,00,00,00,00,
94341437,000000FD,false,Rx,0,8,58,D8,1F,80,00,00,00,00,
94341442,00000570,false,Rx,0,8,FF,00,00,00,00,00,00,00,
94341447,1B000015,true,Rx,0,8,15,00,04,02,01,00,00,00,
94341453,00000116,false,Rx,0,8,38,08,01,04,00,00,00,FF,
94341458,17331F10,true,Rx,0,3,37,CF,00,00,00,00,00,00,
94341463,000000AD,false,Rx,0,8,2F,EC,BF,FF,00,14,00,00,
94341653,000000AE,false,Rx,0,8,D1,0C,00,00,FF,3C,01,02,
94341834,000000AF,false,Rx,0,4,83,75,2D,01,00,00,00,00,
94342678,000000A7,false,Rx,0,8,F1,E4,9F,7F,FD,FD,B7,3D,
94342887,000000A8,false,Rx,0,8,53,B4,1D,E1,81,64,04,0E,
94343148,00000107,false,Rx,0,8,00,00,F8,2C,01,00,FE,83,
94343382,00000120,false,Rx,0,8,94,0A,00,02,01,08,FF,01,
94343617,00000121,false,Rx,0,8,8C,0A,00,C0,37,5A,7E,FE,
94343851,00000147,false,Rx,0,8,00,00,00,00,F0,97,60,1D,
94345014,000005AC,false,Rx,0,8,00,00,FF,FE,FE,F7,07,00,
94345607,0000030B,false,Rx,0,8,10,24,00,00,08,00,00,10,
94348757,00000086,false,Rx,0,8,F1,03,01,20,00,00,00,00,
94349580,000000B2,false,Rx,0,8,00,00,00,00,00,00,00,00,
94349834,0000012B,false,Rx,0,8,BF,4C,40,28,00,00,00,00,
94350068,00000101,false,Rx,0,8,16,09,80,01,A2,05,00,00,
94350314,00000106,false,Rx,0,8,1D,09,63,00,02,00,00,00,
94350578,0000011E,false,Rx,0,8,E1,09,00,00,00,00,00,00,
94351423,000000AD,false,Rx,0,8,5E,ED,BF,FF,00,14,00,00,
94351677,000000AE,false,Rx,0,8,B2,0D,00,00,FF,3C,01,02,
94351833,000000AF,false,Rx,0,4,83,76,2D,01,00,00,00,00,
94351988,00000128,false,Rx,0,3,80,00,00,00,00,00,00,00,
94352277,1B000076,true,Rx,0,8,76,00,04,01,01,00,0A,00,
94352499,0000012D,false,Rx,0,8,98,87,7F,00,00,00,FE,3F,
94352734,000000A7,false,Rx,0,8,93,E5,DF,7F,FD,FD,B7,3D,
94352970,000000A8,false,Rx,0,8,71,B5,1D,E1,81,64,08,0E,
94353271,1B000010,true,Rx,0,8,10,00,04,05,11,00,00,00,
94354208,00000040,false,Rx,0,8,A8,04,00,44,C1,00,00,00,
94355065,16A95414,true,Rx,0,8,00,30,7E,C3,0F,00,00,00,
94355308,00000041,false,Rx,0,8,C5,09,00,00,00,00,00,00,
94361423,000003D8,false,Rx,0,8,00,00,08,00,00,00,00,00,
94361428,00000520,false,Rx,0,8,C1,0F,00,08,00,0A,00,0A,
94361434,17F00015,true,Rx,0,8,00,15,00,00,00,00,00,80,
94361439,00000086,false,Rx,0,8,E2,04,01,20,00,00,00,00,
94361444,000000B2,false,Rx,0,8,00,00,00,00,00,00,00,00,
94361450,000000FD,false,Rx,0,8,6A,D9,1F,80,00,00,00,00,
94361455,00000116,false,Rx,0,8,5C,09,01,04,00,00,00,FF,
94361460,00000392,false,Rx,0,8,DB,2E,00,00,00,00,00,04,
94361466,000000AD,false,Rx,0,8,84,EE,BF,FF,00,14,00,00,
94361660,000000AE,false,Rx,0,8,8A,0E,00,00,FF,3C,01,02,
94361836,000000AF,false,Rx,0,4,83,77,00,00,00,00,00,00,
94362070,00000394,false,Rx,0,8,DD,12,00,1A,00,00,00,00,
94362679,000000A7,false,Rx,0,8,19,E6,9F,7F,FD,FD,B7,3D,
94362915,000000A8,false,Rx,0,8,DE,B6,1D,21,82,64,08,0E,
94363148,00000107,false,Rx,0,8,00,00,F8,2C,01,00,09,84,
94363397,00000120,false,Rx,0,8,38,0B,00,02,01,08,FF,01,
94363632,00000121,false,Rx,0,8,27,0B,00,C0,37,5A,7E,FE,
94363865,00000147,false,Rx,0,8,00,00,00,00,F0,97,60,1D,
94365026,000003DB,false,Rx,0,8,50,00,01,04,07,24,01,A3,
94368769,00000086,false,Rx,0,8,86,05,01,20,00,00,00,00,
94369571,000000B2,false,Rx,0,8,00,00,00,00,00,00,00,00,
94369846,00000101,false,Rx,0,8,BA,0A,80,01,A2,05,00,00,
94370159,00000106,false,Rx,0,8,B1,0A,63,00,02,00,00,00,
94370382,0000011E,false,Rx,0,8,4D,0A,00,00,00,00,00,00,
94371435,000000AD,false,Rx,0,8,D5,EF,BF,FF,00,14,00,00,
94371668,000000AE,false,Rx,0,8,68,0F,00,00,FF,3C,01,02,
94371845,000000AF,false,Rx,0,4,83,78,00,00,00,00,00,00,
94372001,00000128,false,Rx,0,3,84,15,C7,00,00,00,00,00,
94372240,00000462,false,Rx,0,8,00,00,38,00,00,01,00,00,
94372484,0000012D,false,Rx,0,8,57,88,7F,00,00,00,FE,3F,
94372712,00000465,false,Rx,0,8,00,00,00,00,00,00,00,80,
94372952,000000A7,false,Rx,0,8,70,E7,9F,7F,FD,FD,A7,3D,
94373189,000000A8,false,Rx,0,8,F6,A7,1D,E1,81,64,08,0E,
94375023,000003DD,false,Rx,0,8,48,04,10,08,FE,4F,07,00,
94381420,0000031E,false,Rx,0,8,1B,F5,3F,00,00,00,00,40,
94381426,0000032C,false,Rx,0,8,00,0F,00,00,98,24,00,00,
94381431,0000032F,false,Rx,0,8,00,FF,00,00,00,00,00,01,
94381436,00000086,false,Rx,0,8,2A,06,01,20,00,00,00,00,
94381442,000000B2,false,Rx,0,8,00,00,00,00,00,00,00,00,
94381447,0000012B,false,Rx,0,8,EB,4D,40,28,00,00,00,00,
94381452,000000FD,false,Rx,0,8,26,DA,1F,80,00,00,00,00,
94381458,00000116,false,Rx,0,8,F0,0A,01,04,00,00,00,FF,
94381463,000000AD,false,Rx,0,8,48,E0,BF,FF,00,14,00,00,
94381652,000000AE,false,Rx,0,8,DF,00,00,00,FF,3C,01,02,
94381834,000000AF,false,Rx,0,4,83,79,D2,01,00,00,00,00,
94382067,000000B1,false,Rx,0,8,ED,29,00,00,00,00,00,00,
94382679,000000A7,false,Rx,0,8,24,E8,DF,7F,FD,FD,A7,3D,
94382914,000000A8,false,Rx,0,8,EC,A8,1D,E1,81,64,0C,0E,
94383149,00000107,false,Rx,0,8,00,00,F8,2C,01,00,09,84,
94383396,00000120,false,Rx,0,8,E2,0C,00,02,01,08,FF,01,
94383631,00000121,false,Rx,0,8,DF,0C,00,80,37,5A,7E,FE,
94383866,00000147,false,Rx,0,8,00,00,00,00,F0,97,60,1D,
94385005,00000365,false,Rx,0,8,AD,06,13,00,8E,0F,88,7A,
94388743,00000086,false,Rx,0,8,4E,07,01,20,00,00,00,00,
94389553,000000B2,false,Rx,0,8,00,00,00,00,00,00,00,00,
94389807,00000101,false,Rx,0,8,2A,0B,81,01,A2,05,00,00,
94390115,00000106,false,Rx,0,8,D5,0B,63,00,02,00,00,00,
94390393,0000011E,false,Rx,0,8,29,0B,00,00,00,00,00,00,
94391415,000000AD,false,Rx,0,8,86,E1,BF,FF,00,14,00,00,
94391668,000000AE,false,Rx,0,8,30,01,00,00,FF,3C,01,02,
94391845,000000AF,false,Rx,0,4,83,7A,D2,01,00,00,00,00,
94392001,00000128,false,Rx,0,3,80,00,00,00,00,00,00,00,
94392240,0000012D,false,Rx,0,8,F2,89,7F,00,00,00,FE,3F,
94392483,000003C8,false,Rx,0,8,00,00,54,24,00,60,11,94,
94392719,000000A7,false,Rx,0,8,F4,E9,DF,7F,FD,FD,A7,3D,
94392954,000000A8,false,Rx,0,8,A6,A9,1D,E1,81,64,08,0E,
94393230,1B000077,true,Rx,0,8,77,00,04,02,01,00,00,00,
94395034,000003DE,false,Rx,0,8,FE,00,00,00,00,00,00,00,
94401421,0000030B,false,Rx,0,8,10,25,00,00,08,00,00,10,
94401426,000003E5,false,Rx,0,8,F3,20,00,00,00,00,00,00,
94401432,00000086,false,Rx,0,8,0C,08,01,20,00,00,00,00,
94401437,000000B2,false,Rx,0,8,00,00,00,00,00,00,00,00,
94401442,000000FD,false,Rx,0,8,09,DB,1F,80,00,00,00,00,
94401448,00000116,false,Rx,0,8,94,0B,01,04,00,00,00,FF,
94401453,000000AD,false,Rx,0,8,62,E2,BF,FF,00,14,00,00,
94401647,000000AE,false,Rx,0,8,31,02,00,00,FF,3C,01,02,
94401823,000000AF,false,Rx,0,4,83,7B,00,00,00,00,00,00,
94402691,000000A7,false,Rx,0,8,F2,EA,DF,7F,FD,FD,A7,3D,
94402900,000000A8,false,Rx,0,8,B1,AA,1D,E1,81,64,04,0E,
94403160,00000107,false,Rx,0,8,00,00,F8,2C,01,00,14,84,
94403387,00000120,false,Rx,0,8,52,0D,00,02,01,08,FF,01,
94403622,00000121,false,Rx,0,8,CC,0D,00,80,37,5A,7E,FE,
94403852,00000147,false,Rx,0,8,00,00,00,00,F0,97,60,1D,
94404086,00000391,false,Rx,0,8,10,90,22,42,00,27,00,22,
94404342,00000040,false,Rx,0,8,CC,05,00,44,C1,00,00,00,
94404577,000003BE,false,Rx,0,8,BC,06,E6,00,C8,80,00,80,
94404832,000003C7,false,Rx,0,8,01,10,24,00,00,40,80,00,
94408776,00000086,false,Rx,0,8,68,09,01,20,00,00,00,00,
94409560,0000012B,false,Rx,0,8,A4,4E,40,28,00,00,00,00,
94409815,000000B2,false,Rx,0,8,00,00,00,00,00,00,00,00,
94410049,00000101,false,Rx,0,8,CD,0C,80,01,A2,05,00,00,
94410297,00000106,false,Rx,0,8,C6,0C,63,00,02,00,00,00,
94410533,0000011E,false,Rx,0,8,3A,0C,00,00,00,00,00,00,
94410807,000006B4,false,Rx,0,8,01,48,31,37,41,55,30,48,
94411418,000000AD,false,Rx,0,8,E3,E3,BF,FF,00,14,00,00,
94411677,000000AE,false,Rx,0,8,14,03,00,00,FF,3C,01,02,
94411853,000000AF,false,Rx,0,4,83,7C,00,00,00,00,00,00,
94412009,00000128,false,Rx,0,3,84,FF,0B,00,00,00,00,00,
94412247,0000012D,false,Rx,0,8,7B,8A,7F,00,00,00,FE,3F,
94412629,000000A7,false,Rx,0,8,85,EB,9F,7F,FD,FD,A7,3D,
94412842,000000A8,false,Rx,0,8,B4,AB,1D,21,82,64,FC,0D,
94421421,00000086,false,Rx,0,8,C4,0A,01,20,00,00,00,00,
94421426,000000B2,false,Rx,0,8,00,00,00,00,00,00,00,00,
94421431,000000FD,false,Rx,0,8,90,DC,1F,80,00,00,00,00,
94421437,00000116,false,Rx,0,8,87,0C,01,04,00,00,00,FF,
94421442,000000AD,false,Rx,0,8,41,E4,BF,FF,00,14,00,00,
94421636,000000AE,false,Rx,0,8,1A,04,00,00,FF,3C,01,02,
94421813,000000AF,false,Rx,0,4,83,7D,20,01,00,00,00,00,
94422041,00000463,false,Rx,0,8,00,E0,3F,00,00,00,00,00,
94422658,000000A7,false,Rx,0,8,23,EC,DF,7F,FD,FD,A7,3D,
94422893,000000A8,false,Rx,0,8,92,AC,1D,21,82,64,F8,0D,
94423148,00000107,false,Rx,0,8,00,00,F8,2C,01,00,1F,84,
94423381,00000120,false,Rx,0,8,39,0E,00,02,01,08,FF,01,
94423617,00000121,false,Rx,0,8,62,0E,00,C0,37,5A,7E,FE,
94423851,00000147,false,Rx,0,8,00,00,00,00,F0,97,60,1D,
94427045,0000031E,false,Rx,0,8,9C,F6,3F,00,00,00,00,40,
94427291,0000032C,false,Rx,0,8,00,0F,00,00,98,24,00,00,
94427529,0000032F,false,Rx,0,8,00,FF,00,00,00,00,00,01,
94428778,00000086,false,Rx,0,8,A0,0B,01,20,00,00,00,00,
94429600,000000B2,false,Rx,0,8,00,00,00,00,00,00,00,00,
94429854,00000101,false,Rx,0,8,59,0D,80,01,A2,06,00,00,
94430129,00000106,false,Rx,0,8,A2,0D,63,00,02,00,00,00,
94430370,0000011E,false,Rx,0,8,5E,0D,00,00,00,00,00,00,
94431423,000000AD,false,Rx,0,8,74,E5,BF,FF,00,14,00,00,
94431573,000003C0,false,Rx,0,4,4F,08,03,00,00,00,00,00,
94431833,000000AE,false,Rx,0,8,E1,05,00,00,FF,3C,01,02,
94431989,000000AF,false,Rx,0,4,83,7E,20,01,00,00,00,00,
94432144,00000128,false,Rx,0,3,80,00,00,00,00,00,00,00,
94432389,000003D6,false,Rx,0,8,04,00,00,00,00,00,30,00,
94432624,0000012D,false,Rx,0,8,60,8B,7F,00,00,00,FE,3F,
94432859,000000A7,false,Rx,0,8,D3,ED,DF,7F,FD,FD,A7,3D,
94433093,000000A8,false,Rx,0,8,81,AD,1D,21,82,64,F8,0D,
94434997,00000365,false,Rx,0,8,AD,06,13,00,8D,0F,88,7A,
94441432,00000086,false,Rx,0,8,B3,0C,01,20,00,00,00,00,
94441437,000003B5,false,Rx,0,8,87,FE,12,40,0C,A3,20,00,
94441443,000000B2,false,Rx,0,8,00,00,00,00,00,00,00,00,
94441448,000000FD,false,Rx,0,8,19,DD,1F,80,00,00,00,00,
94441454,0000012B,false,Rx,0,8,8E,4F,40,28,00,00,00,00,
94441459,00000116,false,Rx,0,8,E3,0D,01,04,00,00,00,FF,
94441464,000000AD,false,Rx,0,8,6A,E6,BF,FF,00,14,00,00,
94441660,000000AE,false,Rx,0,8,BA,06,00,00,FF,3C,01,02,
94441835,000000AF,false,Rx,0,4,83,7F,00,00,00,00,00,00,
94442679,000000A7,false,Rx,0,8,58,EE,DF,7F,FD,FD,A7,3D,
94442914,000000A8,false,Rx,0,8,33,AE,1D,21,82,64,F8,0D,
94443148,00000107,false,Rx,0,8,00,00,F8,2C,01,00,1F,84,
94443397,00000120,false,Rx,0,8,EC,0F,00,02,01,08,FF,01,
94443611,00000121,false,Rx,0,8,E9,0F,00,80,37,5A,7E,FE,
94443866,00000147,false,Rx,0,8,00,00,00,00,F0,97,60,1D,
94445026,000005AC,false,Rx,0,8,00,00,FF,FE,FE,F7,07,00,
94445616,0000030B,false,Rx,0,8,10,26,00,00,08,00,00,10,
94448770,00000086,false,Rx,0,8,D7,0D,01,20,00,00,00,00,
94449577,000000B2,false,Rx,0,8,00,00,00,00,00,00,00,00,
94449851,00000101,false,Rx,0,8,44,0E,81,01,A2,04,00,00,
94450145,00000106,false,Rx,0,8,0E,0E,63,00,02,00,00,00,
94450397,0000011E,false,Rx,0,8,F2,0E,00,00,00,00,00,00,
94451424,000000AD,false,Rx,0,8,35,E7,BF,FF,00,14,00,00,
94451678,000000AE,false,Rx,0,8,28,07,00,00,FF,3C,01,02,
94451827,000000AF,false,Rx,0,4,83,70,00,00,00,00,00,00,
94451988,00000128,false,Rx,0,3,80,00,00,00,00,00,00,00,
94452250,0000012D,false,Rx,0,8,52,8C,7F,00,00,00,FE,3F,
94453249,000000A7,false,Rx,0,8,86,EF,DF,7F,FD,FD,A7,3D,
94453472,000000A8,false,Rx,0,8,BC,AF,1D,21,82,64,F8,0D,
94454167,00000040,false,Rx,0,8,60,06,00,44,C1,00,00,00,
94455053,16A95414,true,Rx,0,8,00,30,7E,C3,0F,00,00,00,
94455303,000003D8,false,Rx,0,8,00,00,08,00,00,00,00,00,
94461428,00000086,false,Rx,0,8,7B,0E,01,20,00,00,00,00,
94461434,000000B2,false,Rx,0,8,00,00,00,00,00,00,00,00,
94461439,000000FD,false,Rx,0,8,E6,DE,1F,80,00,00,00,00,
94461444,00000116,false,Rx,0,8,4F,0E,01,04,00,00,00,FF,
94461450,00000392,false,Rx,0,8,BF,2F,00,00,00,00,00,04,
94461455,000000AD,false,Rx,0,8,A2,E8,BF,FF,00,14,00,00,
94461649,000000AE,false,Rx,0,8,5F,08,00,00,FF,3C,01,02,
94461826,000000AF,false,Rx,0,4,83,71,00,00,00,00,00,00,
94462730,000000A7,false,Rx,0,8,4F,E0,DF,7F,FD,FD,A7,3D,
94462965,000000A8,false,Rx,0,8,D4,A0,1D,21,82,64,F8,0D,
94463202,00000107,false,Rx,0,8,00,00,F8,2C,01,00,2A,84,
94463447,00000120,false,Rx,0,8,26,00,00,02,01,08,FF,01,
94463682,00000121,false,Rx,0,8,27,00,00,80,37,5A,7E,FE,
94463916,00000147,false,Rx,0,8,00,00,00,00,F0,97,60,1D,
94465023,000003DB,false,Rx,0,8,50,00,01,04,07,24,01,A3,
94468790,00000086,false,Rx,0,8,1F,0F,01,20,00,00,00,00,
94469612,000000B2,false,Rx,0,8,00,00,00,00,00,00,00,00,
94469841,0000012B,false,Rx,0,8,05,40,40,28,00,00,00,00,
94470101,00000101,false,Rx,0,8,61,0F,80,01,A2,05,00,00,
94470354,00000106,false,Rx,0,8,6A,0F,63,00,02,00,00,00,
94470609,0000011E,false,Rx,0,8,96,0F,00,00,00,00,00,00,
94470843,000001AB,false,Rx,0,8,91,02,04,02,18,00,04,00,
94471434,000000AD,false,Rx,0,8,A6,E9,BF,FF,00,14,00,00,
94471689,000000AE,false,Rx,0,8,B7,09,00,00,FF,3C,01,02,
94471843,000000AF,false,Rx,0,4,83,72,00,00,00,00,00,00,
94471999,00000128,false,Rx,0,3,84,21,38,00,00,00,00,00,
94472258,00000464,false,Rx,0,8,08,4C,00,00,00,00,00,00,
94472480,0000012D,false,Rx,0,8,3E,8D,7F,00,00,00,FE,3F,
94472971,000000A7,false,Rx,0,8,C7,E1,DF,7F,FD,FD,A7,3D,
94473212,000000A8,false,Rx,0,8,96,A1,1D,21,82,64,FC,0D,
94475012,000003DD,false,Rx,0,8,48,04,10,08,FE,4F,07,00,
94481448,0000031E,false,Rx,0,8,9A,F7,3F,00,00,00,00,40,
94481453,0000032C,false,Rx,0,8,00,0F,00,00,98,24,00,00,
94481459,0000032F,false,Rx,0,8,00,FF,00,00,00,00,00,01,
94481464,00000086,false,Rx,0,8,5D,00,01,20,00,00,00,00,
94481469,000000B2,false,Rx,0,8,00,00,00,00,00,00,00,00,
94481475,000000FD,false,Rx,0,8,71,DF,1F,80,00,00,00,00,
94481480,00000116,false,Rx,0,8,2B,0F,01,04,00,00,00,FF,
94481485,000001A2,false,Rx,0,8,D5,0F,00,00,00,00,00,00,
94481491,000000AD,false,Rx,0,8,F7,EA,BF,FF,00,14,00,00,
94481685,000000AE,false,Rx,0,8,CB,0A,00,00,FF,3C,01,02,
94481841,000000AF,false,Rx,0,4,83,73,19,01,00,00,00,00,
94482075,000000B1,false,Rx,0,8,42,2A,00,00,00,00,00,00,
94482706,000000A7,false,Rx,0,8,B3,E2,DF,7F,FD,FD,A7,3D,
94482940,000000A8,false,Rx,0,8,7A,A2,1D,21,82,64,FC,0D,
94483175,00000107,false,Rx,0,8,00,00,F8,2C,01,00,2A,84,
94483409,00000120,false,Rx,0,8,D3,01,00,02,01,08,FF,01,
94483644,00000121,false,Rx,0,8,4B,01,00,80,37,5A,7E,FE,
94483873,00000147,false,Rx,0,8,00,00,00,00,F0,9B,60,1D,
94484996,00000365,false,Rx,0,8,AD,06,13,00,8E,0F,88,7A,
94488769,00000086,false,Rx,0,8,39,01,01,20,00,00,00,00,
94489571,000000B2,false,Rx,0,8,00,00,00,00,00,00,00,00,
94489846,00000101,false,Rx,0,8,23,00,80,01,A2,05,00,00,
94490140,00000106,false,Rx,0,8,28,00,63,00,02,00,00,00,
94490387,0000011E,false,Rx,0,8,D4,00,00,00,00,00,00,00,
94491414,000000AD,false,Rx,0,8,42,EB,BF,FF,00,14,00,00,
94491668,000000AE,false,Rx,0,8,69,0B,00,00,FF,3C,01,02,
94491844,000000AF,false,Rx,0,4,83,74,19,01,00,00,00,00,
94491974,00000128,false,Rx,0,3,80,00,00,00,00,00,00,00,
94492242,0000012D,false,Rx,0,8,0E,8E,7F,00,00,00,FE,3F,
94492486,000003C8,false,Rx,0,8,00,00,54,24,00,60,11,94,
94492720,000000A7,false,Rx,0,8,32,E3,DF,7F,FD,FD,A7,3D,
94492955,000000A8,false,Rx,0,8,FA,A3,1D,21,82,64,00,0E,
94495021,000003DE,false,Rx,0,8,FE,00,00,00,00,00,00,00,
94501440,0000030B,false,Rx,0,8,10,27,00,00,08,00,00,10,
94501446,000003E5,false,Rx,0,8,B2,21,00,00,00,00,00,00,
94501451,00000086,false,Rx,0,8,95,02,01,20,00,00,00,00,
94501456,000000B2,false,Rx,0,8,00,00,00,00,00,00,00,00,
94501462,0000012B,false,Rx,0,8,77,41,40,28,00,00,00,00,
94501467,000000FD,false,Rx,0,8,0B,D0,1F,80,00,00,00,00,
94501472,00000116,false,Rx,0,8,69,00,01,04,00,00,00,FF,
94501478,000000AD,false,Rx,0,8,2F,EC,BF,FF,00,14,00,00,
94501652,000000AE,false,Rx,0,8,D1,0C,00,00,FF,3C,01,02,
94501829,000000AF,false,Rx,0,4,83,75,00,00,00,00,00,00,
94502891,000000A7,false,Rx,0,8,08,E4,DF,7F,FD,FD,A7,3D,
94503127,000000A8,false,Rx,0,8,26,A4,1D,21,82,64,08,0E,
94503374,00000107,false,Rx,0,8,00,00,F8,2C,01,00,36,84,
94503608,00000120,false,Rx,0,8,2B,02,00,02,01,08,FF,01,
94503842,00000121,false,Rx,0,8,F9,02,00,C0,37,5A,7E,FE,
94504075,00000147,false,Rx,0,8,00,00,00,00,F0,9B,60,1D,
94504323,00000040,false,Rx,0,8,04,07,00,44,C1,00,00,00,
94504566,000002C2,false,Rx,0,8,00,00,00,00,00,00,00,00,
94504795,00000391,false,Rx,0,8,11,90,22,44,00,27,00,22,
94505056,000003BE,false,Rx,0,8,30,07,E6,00,C8,80,00,80,
94505279,000003C7,false,Rx,0,8,82,10,24,00,00,40,80,00,
94505594,17F00076,true,Rx,0,8,20,76,00,00,00,00,00,80,
94505809,00000640,false,Rx,0,8,E0,92,9D,CC,7D,A0,0F,44,
94506065,00000647,false,Rx,0,8,B8,FD,FF,7F,00,00,00,12,
94506308,0000065F,false,Rx,0,8,2E,20,00,00,00,00,2E,7F,
94506550,00000670,false,Rx,0,8,19,10,00,00,00,03,00,88,
94508756,00000086,false,Rx,0,8,F1,03,01,20,00,00,00,00,
94509658,000000B2,false,Rx,0,8,00,00,00,00,00,00,00,00,
94509934,00000101,false,Rx,0,8,47,01,80,01,A2,05,00,00,
94510213,00000106,false,Rx,0,8,4C,01,63,00,02,00,00,00,
94510456,0000011E,false,Rx,0,8,B0,01,00,00,00,00,00,00,
94511441,000000AD,false,Rx,0,8,5E,ED,BF,FF,00,14,00,00,
94511696,000000AE,false,Rx,0,8,B2,0D,00,00,FF,3C,01,02,
94511850,000000AF,false,Rx,0,4,83,76,00,00,00,00,00,00,
94512007,00000128,false,Rx,0,3,84,21,C7,00,00,00,00,00,
94512249,0000012D,false,Rx,0,8,F9,8F,7F,00,00,00,FE,3F,
94512644,000000A7,false,Rx,0,8,73,E5,DF,7F,FD,FD,A7,3D,
94512884,000000A8,false,Rx,0,8,4C,A5,1D,21,82,64,08,0E,
94522633,00000086,false,Rx,0,8,E2,04,01,20,00,00,00,00,
94522639,000000B2,false,Rx,0,8,00,00,00,00,00,00,00,00,
94522644,000000FD,false,Rx,0,8,01,D1,1F,80,00,00,00,00,
94522649,00000116,false,Rx,0,8,0D,01,01,04,00,00,00,FF,
94522655,000000AD,false,Rx,0,8,84,EE,BF,FF,00,14,00,00,
94522660,000000AE,false,Rx,0,8,8A,0E,00,00,FF,3C,01,02,
94522665,000000AF,false,Rx,0,4,83,77,E6,01,00,00,00,00,
94522670,00000394,false,Rx,0,8,36,13,00,1A,00,00,00,00,
94522722,00000462,false,Rx,0,8,00,00,38,00,00,01,00,00,
94522727,000000A7,false,Rx,0,8,E0,E6,DF,7F,FD,FD,A7,3D,
94522967,000000A8,false,Rx,0,8,34,A6,1D,21,82,64,04,0E,
94523201,00000107,false,Rx,0,8,00,00,F8,2C,01,00,41,84,
94523450,00000120,false,Rx,0,8,F9,03,00,02,01,08,FF,01,
94523684,00000121,false,Rx,0,8,0B,03,00,C0,37,5A,7E,FE,
94523914,00000147,false,Rx,0,8,00,00,00,00,F0,9B,60,1D,
94527074,0000031E,false,Rx,0,8,D3,F8,3F,00,00,00,00,40,
94527316,0000032C,false,Rx,0,8,00,0F,00,00,98,24,00,00,
94527559,0000032F,false,Rx,0,8,00,FF,00,00,00,00,00,01,
94528757,00000086,false,Rx,0,8,86,05,01,20,00,00,00,00,
94529560,000000B2,false,Rx,0,8,00,00,00,00,00,00,00,00,
94529794,0000012B,false,Rx,0,8,D3,42,40,28,00,00,00,00,
94530050,00000101,false,Rx,0,8,1F,02,81,01,A2,05,00,00,
94530296,00000106,false,Rx,0,8,E0,02,63,00,02,00,00,00,
94530560,0000011E,false,Rx,0,8,1C,02,00,00,00,00,00,00,
94531442,000000AD,false,Rx,0,8,D5,EF,BF,FF,00,14,00,00,
94531696,000000AE,false,Rx,0,8,68,0F,00,00,FF,3C,01,02,
94531851,000000AF,false,Rx,0,4,83,78,E6,01,00,00,00,00,
94532008,00000128,false,Rx,0,3,80,00,00,00,00,00,00,00,
94532255,00000366,false,Rx,0,8,00,00,00,20,80,03,00,00,
94532499,0000012D,false,Rx,0,8,5D,80,7F,00,00,00,FE,3F,
94532733,000000A7,false,Rx,0,8,69,E7,DF,7F,FD,FD,A7,3D,
94532968,000000A8,false,Rx,0,8,21,A7,1D,21,82,64,04,0E,
94533122,000003C0,false,Rx,0,4,FA,09,03,00,00,00,00,00,
94533414,1B000053,true,Rx,0,8,53,00,04,01,01,00,00,00,
94533669,000003D6,false,Rx,0,8,05,00,00,00,00,00,30,00,
94535006,00000365,false,Rx,0,8,AD,06,13,00,8D,0F,88,7A,
94535248,000005F0,false,Rx,0,8,FD,00,64,00,00,64,00,00,
94541472,0000065A,false,Rx,0,8,00,00,02,10,00,00,3C,00,
94541478,00000086,false,Rx,0,8,2A,06,01,20,00,00,00,00,
94541483,000003B5,false,Rx,0,8,87,FE,12,40,0C,A3,20,00,
94541488,000000B2,false,Rx,0,8,00,00,00,00,00,00,00,00,
94541494,000000FD,false,Rx,0,8,CE,D2,1F,80,00,00,00,00,
94541499,1B000015,true,Rx,0,8,15,00,04,02,01,00,00,00,
94541504,00000116,false,Rx,0,8,A1,02,01,04,00,00,00,FF,
94541510,000000AD,false,Rx,0,8,48,E0,BF,FF,00,14,00,00,
94541685,000005EA,false,Rx,0,8,00,00,00,36,F8,FE,FB,FF,
94541918,000000AE,false,Rx,0,8,DF,00,00,00,FF,3C,01,02,
94542095,000000AF,false,Rx,0,4,83,79,00,00,00,00,00,00,
94542707,000000A7,false,Rx,0,8,24,E8,DF,7F,FD,FD,A7,3D,
94542916,000000A8,false,Rx,0,8,4B,A8,1D,21,82,64,08,0E,
94543177,00000107,false,Rx,0,8,00,00,F8,2C,01,00,41,84,
94543415,00000120,false,Rx,0,8,AF,04,00,02,01,08,FF,01,
94543650,00000121,false,Rx,0,8,B6,04,00,C0,37,5A,7E,FE,
94543884,00000147,false,Rx,0,8,00,00,00,00,F0,9B,60,1D,
94544180,1A55552B,true,Rx,0,8,00,00,00,00,00,FE,F8,03,
94545006,000005AC,false,Rx,0,8,00,00,FF,FE,FE,F7,07,00,
94545695,0000030B,false,Rx,0,8,10,28,00,00,08,00,00,10,
94545949,00000643,false,Rx,0,8,85,02,13,00,00,00,00,00,
94548770,00000086,false,Rx,0,8,4E,07,01,20,00,00,00,00,
94549576,000000B2,false,Rx,0,8,00,00,00,00,00,00,00,00,
94549830,00000101,false,Rx,0,8,7B,03,81,01,A2,05,00,00,
94550145,00000106,false,Rx,0,8,84,03,63,00,02,00,00,00,
94550390,0000011E,false,Rx,0,8,78,03,00,00,00,00,00,00,
94551434,000000AD,false,Rx,0,8,86,E1,BF,FF,00,14,00,00,
94551688,000000AE,false,Rx,0,8,30,01,00,00,FF,3C,01,02,
94551864,000000AF,false,Rx,0,4,83,7A,00,00,00,00,00,00,
94551999,00000128,false,Rx,0,3,84,FF,0C,00,00,00,00,00,
94552289,1B000076,true,Rx,0,8,76,00,04,01,01,00,0A,00,
94552532,0000012D,false,Rx,0,8,0A,81,7F,00,00,00,FE,3F,
94552827,1B000010,true,Rx,0,8,10,00,04,05,11,00,00,00,
94553552,000000A7,false,Rx,0,8,F4,E9,DF,7F,FD,FD,A7,3D,
94553786,000000A8,false,Rx,0,8,01,A9,1D,21,82,64,0C,0E,
94554160,00000040,false,Rx,0,8,46,08,00,44,C1,00,00,00,
94555040,16A95414,true,Rx,0,8,00,30,7E,C3,0F,00,00,00,
94555309,000003D8,false,Rx,0,8,00,00,08,00,00,00,00,00,
94562732,00000520,false,Rx,0,8,83,00,00,08,00,0A,00,0A,
94562737,00000585,false,Rx,0,8,0F,3C,00,7F,11,00,00,00,
94562743,00000086,false,Rx,0,8,0C,08,01,20,00,00,00,00,
94562748,000000B2,false,Rx,0,8,00,00,00,00,00,00,00,00,
94562753,0000012B,false,Rx,0,8,8B,43,40,28,00,00,00,00,
94562759,000000FD,false,Rx,0,8,BB,D3,1F,80,00,00,00,00,
94562764,00000116,false,Rx,0,8,C5,03,01,04,00,00,00,FF,
94562769,00000392,false,Rx,0,8,FD,20,00,00,00,00,00,04,
94562775,000000AD,false,Rx,0,8,62,E2,BF,FF,00,14,00,00,
94562780,000000AE,false,Rx,0,8,31,02,00,00,FF,3C,01,02,
94562785,000000AF,false,Rx,0,4,83,7B,20,01,00,00,00,00,
94562790,000000A7,false,Rx,0,8,F2,EA,DF,7F,FD,FD,A7,3D,
94562971,000000A8,false,Rx,0,8,F6,AA,1D,21,82,64,10,0E,
94563207,00000107,false,Rx,0,8,00,00,F8,2C,01,00,4C,84,
94563456,00000120,false,Rx,0,8,AD,05,00,02,01,08,FF,01,
94563691,00000121,false,Rx,0,8,81,05,00,C0,37,5A,7E,FE,
94563924,00000147,false,Rx,0,8,00,00,00,00,F0,9B,60,1D,
94565000,000003DB,false,Rx,0,8,50,00,01,04,07,24,01,A3,
94566363,00000385,false,Rx,0,8,20,00,22,00,00,00,02,00,
94566617,000003E8,false,Rx,0,8,00,02,00,00,00,20,00,00,
94566871,000003FE,false,Rx,0,8,00,00,00,00,00,00,00,00,
94568765,00000086,false,Rx,0,8,68,09,01,20,00,00,00,00,
94569551,000000B2,false,Rx,0,8,00,00,00,00,00,00,00,00,
94569827,00000101,false,Rx,0,8,9C,04,80,01,A2,05,00,00,
94570139,00000106,false,Rx,0,8,97,04,63,00,02,00,00,00,
94570387,0000011E,false,Rx,0,8,6B,04,00,00,00,00,00,00,
94571453,000000AD,false,Rx,0,8,E3,E3,BF,FF,00,14,00,00,
94571687,000000AE,false,Rx,0,8,14,03,00,00,FF,3C,01,02,
94571864,000000AF,false,Rx,0,4,83,7C,20,01,00,00,00,00,
94572019,00000128,false,Rx,0,3,80,00,00,00,00,00,00,00,
94572268,00000463,false,Rx,0,8,00,E0,3F,00,00,00,00,00,
94572511,0000012D,false,Rx,0,8,18,82,7F,00,00,00,FE,3F,
94572720,000000A7,false,Rx,0,8,16,EB,DF,7F,FD,F9,A7,3D,
94572954,000000A8,false,Rx,0,8,3B,AB,1D,21,82,64,10,0E,
94575014,000003DD,false,Rx,0,8,48,04,10,08,FE,4F,07,00,
94581463,17331110,true,Rx,0,3,34,4F,00,00,00,00,00,00,
94581468,0000031E,false,Rx,0,8,EC,F9,3F,00,00,00,00,40,
94581473,0000032C,false,Rx,0,8,00,0F,00,00,98,24,00,00,
94581478,0000032F,false,Rx,0,8,00,FF,00,00,00,00,00,01,
94581484,00000086,false,Rx,0,8,C4,0A,01,20,00,00,00,00,
94581489,000000B2,false,Rx,0,8,00,00,00,00,00,00,00,00,
94581494,000000FD,false,Rx,0,8,2D,D4,1F,80,00,00,00,00,
94581500,00000116,false,Rx,0,8,D6,04,01,04,00,00,00,FF,
94581505,000000AD,false,Rx,0,8,41,E4,BF,FF,00,14,00,00,
94581679,000000AE,false,Rx,0,8,1A,04,00,00,FF,3C,01,02,
94581856,000000AF,false,Rx,0,4,83,7D,00,00,00,00,00,00,
94582085,000000B1,false,Rx,0,8,C2,2B,00,00,00,00,00,00,
94582757,000000A7,false,Rx,0,8,B0,EC,9F,7F,FD,F9,A7,3D,
94582992,000000A8,false,Rx,0,8,1D,AC,1D,21,82,64,14,0E,
94583236,00000107,false,Rx,0,8,00,00,F8,2C,01,00,4C,84,
94583480,00000120,false,Rx,0,8,42,06,00,02,01,08,FF,01,
94583715,00000121,false,Rx,0,8,BB,06,00,80,37,5A,7E,FE,
94583949,00000147,false,Rx,0,8,00,00,00,00,F0,9B,60,1D,
94585014,00000365,false,Rx,0,8,AD,06,13,00,8D,0F,88,7A,
94588778,00000086,false,Rx,0,8,A0,0B,01,20,00,00,00,00,
94589561,000000B2,false,Rx,0,8,00,00,00,00,00,00,00,00,
94589816,0000012B,false,Rx,0,8,0B,44,40,28,00,00,00,00,
94590071,00000101,false,Rx,0,8,0C,05,81,01,A2,05,00,00,
94590317,00000106,false,Rx,0,8,F3,05,63,00,02,00,00,00,
94590559,0000011E,false,Rx,0,8,0F,05,00,00,00,00,00,00,
94591421,000000AD,false,Rx,0,8,74,E5,BF,FF,00,14,00,00,
94591676,000000AE,false,Rx,0,8,E1,05,00,00,FF,3C,01,02,
94591852,000000AF,false,Rx,0,4,83,7E,00,00,00,00,00,00,
94592008,00000128,false,Rx,0,3,80,00,00,00,00,00,00,00,
94592255,0000012D,false,Rx,0,8,89,83,7F,00,00,00,FE,3F,
94592499,000003C8,false,Rx,0,8,00,00,54,24,00,60,11,94,
94592734,000000A7,false,Rx,0,8,40,ED,9F,7F,FD,F9,A7,3D,
94592969,000000A8,false,Rx,0,8,36,AD,1D,21,82,64,10,0E,
94593255,17F00077,true,Rx,0,8,20,77,00,00,00,00,00,00,
94593532,1B000077,true,Rx,0,8,77,00,04,02,01,00,00,00,
94595009,000003DE,false,Rx,0,8,FE,00,00,00,00,00,00,00,
94601470,0000030B,false,Rx,0,8,10,29,00,00,08,00,00,10,
94601475,0000065E,false,Rx,0,8,00,00,0A,A1,23,00,00,00,
94601481,000003E5,false,Rx,0,8,6F,22,00,00,00,00,00,00,
94601486,00000086,false,Rx,0,8,B3,0C,01,20,00,00,00,00,
94601491,000000B2,false,Rx,0,8,00,00,00,00,00,00,00,00,
94601497,000000FD,false,Rx,0,8,B7,D5,1F,80,00,00,00,00,
94601502,00000116,false,Rx,0,8,B2,05,01,04,00,00,00,FF,
94601507,000000AD,false,Rx,0,8,6A,E6,BF,FF,00,14,00,00,
94601662,000000AE,false,Rx,0,8,BA,06,00,00,FF,3C,01,02,
94601839,000000AF,false,Rx,0,4,83,7F,00,00,00,00,00,00,
94602963,000000A7,false,Rx,0,8,CB,EE,9F,7F,FD,F9,A7,3D,
94603202,000000A8,false,Rx,0,8,1B,AE,1D,E1,81,64,10,0E,
94603425,00000107,false,Rx,0,8,00,00,F8,2C,01,00,57,84,
94603680,00000120,false,Rx,0,8,40,07,00,02,01,08,FF,01,
94603894,00000121,false,Rx,0,8,D5,07,00,C0,37,5A,7E,FE,
94604150,00000040,false,Rx,0,8,22,09,00,44,C1,00,00,00,
94604396,00000147,false,Rx,0,8,00,00,00,00,F0,97,60,1D,
94604631,00000391,false,Rx,0,8,11,90,22,43,00,27,00,22,
94604866,000003BE,false,Rx,0,8,CA,08,E6,00,C8,80,00,80,
94605098,000003C7,false,Rx,0,8,01,10,24,00,00,40,80,00,
94608789,00000086,false,Rx,0,8,D7,0D,01,20,00,00,00,00,
94609671,000000B2,false,Rx,0,8,00,00,00,00,00,00,00,00,
94609924,00000101,false,Rx,0,8,54,06,80,01,A2,05,00,00,
94610234,00000106,false,Rx,0,8,5F,06,63,00,02,00,00,00,
94610477,0000011E,false,Rx,0,8,A3,06,00,00,00,00,00,00,
94610771,000006B4,false,Rx,0,8,00,91,97,71,29,33,56,57,
94611442,000000AD,false,Rx,0,8,35,E7,BF,FF,00,14,00,00,
94611698,000000AE,false,Rx,0,8,28,07,00,00,FF,3C,01,02,
94611873,000000AF,false,Rx,0,4,83,70,00,00,00,00,00,00,
94612008,00000128,false,Rx,0,3,84,0E,38,00,00,00,00,00,
94612277,0000012D,false,Rx,0,8,06,84,7F,00,00,00,FE,3F,
94612716,000000A7,false,Rx,0,8,15,EF,9F,7F,FD,F9,A7,3D,
94612951,000000A8,false,Rx,0,8,94,AF,1D,E1,81,64,10,0E,
94621478,00000086,false,Rx,0,8,7B,0E,01,20,00,00,00,00,
94621484,000000B2,false,Rx,0,8,00,00,00,00,00,00,00,00,
94621489,0000012B,false,Rx,0,8,AE,45,40,28,00,00,00,00,
94621494,000000FD,false,Rx,0,8,A5,D6,1F,80,00,00,00,00,
94621500,00000116,false,Rx,0,8,1E,06,01,04,00,00,00,FF,
94621505,000000AD,false,Rx,0,8,A2,E8,BF,FF,00,14,00,00,
94621660,000000AE,false,Rx,0,8,5F,08,00,00,FF,3C,01,02,
94621836,000000AF,false,Rx,0,4,83,71,36,01,00,00,00,00,
94622070,00000464,false,Rx,0,8,08,4C,00,00,00,00,00,00,
94622720,000000A7,false,Rx,0,8,DC,E0,9F,7F,FD,F9,A7,3D,
94622955,000000A8,false,Rx,0,8,C4,A0,1D,E1,81,64,14,0E,
94623189,00000107,false,Rx,0,8,00,00,F8,2C,01,00,62,84,
94623442,00000120,false,Rx,0,8,19,08,00,02,01,08,FF,01,
94623676,00000121,false,Rx,0,8,16,08,00,C0,37,5A,7E,FE,
94623910,00000147,false,Rx,0,8,00,00,00,00,F0,97,60,1D,
94626288,17331110,true,Rx,0,5,44,51,0F,23,30,00,00,00,
94627143,0000031E,false,Rx,0,8,D8,FA,3F,00,00,00,00,40,
94627389,0000032C,false,Rx,0,8,00,0F,00,00,98,24,00,00,
94627617,0000032F,false,Rx,0,8,00,FF,00,00,00,00,00,01,
94628783,00000086,false,Rx,0,8,1F,0F,01,20,00,00,00,00,
94629553,000000B2,false,Rx,0,8,00,00,00,00,00,00,00,00,
94629827,00000101,false,Rx,0,8,30,07,80,01,A2,05,00,00,
94630141,00000106,false,Rx,0,8,3B,07,63,00,02,00,00,00,
94630388,0000011E,false,Rx,0,8,C7,07,00,00,00,00,00,00,
94631365,000003C0,false,Rx,0,4,0A,0A,03,00,00,00,00,00,
94631600,000000AD,false,Rx,0,8,A6,E9,BF,FF,00,14,00,00,
94631856,000000AE,false,Rx,0,8,B7,09,00,00,FF,3C,01,02,
94632010,000000AF,false,Rx,0,4,83,72,36,01,00,00,00,00,
94632167,00000128,false,Rx,0,3,80,00,00,00,00,00,00,00,
94632402,000003D6,false,Rx,0,8,06,00,00,00,00,00,30,00,
94632657,0000012D,false,Rx,0,8,79,85,7F,00,00,00,FE,3F,
94632870,000000A7,false,Rx,0,8,54,E1,9F,7F,FD,F9,A7,3D,
94633105,000000A8,false,Rx,0,8,69,A1,1D,21,82,64,18,0E,
94635010,00000365,false,Rx,0,8,AD,06,13,00,8E,0F,88,7A,
94641478,000003B5,false,Rx,0,8,87,FE,12,3E,0C,A3,20,00,
94641484,00000086,false,Rx,0,8,5D,00,01,20,00,00,00,00,
94641489,000000B2,false,Rx,0,8,00,00,00,00,00,00,00,00,
94641494,000000FD,false,Rx,0,8,9F,D7,1F,80,00,00,00,00,
94641500,00000116,false,Rx,0,8,7A,07,01,04,00,00,00,FF,
94641505,000000AD,false,Rx,0,8,F7,EA,BF,FF,00,14,00,00,
94641679,000000AE,false,Rx,0,8,CB,0A,00,00,FF,3C,01,02,
94641856,000000AF,false,Rx,0,4,83,73,00,00,00,00,00,00,
94642678,000000A7,false,Rx,0,8,20,E2,9F,7F,FD,F9,A7,3D,
94642913,000000A8,false,Rx,0,8,85,A2,1D,21,82,64,18,0E,
94643143,00000107,false,Rx,0,8,00,00,F8,2C,01,00,62,84,
94643397,00000120,false,Rx,0,8,4F,09,00,02,01,08,FF,01,
94643632,00000121,false,Rx,0,8,D4,09,00,80,37,5A,7E,FE,
94643865,00000147,false,Rx,0,8,00,00,00,00,F0,97,60,1D,
94645005,000005AC,false,Rx,0,8,00,00,FF,FE,FE,F7,07,00,
94645612,0000030B,false,Rx,0,8,10,2A,00,00,08,00,00,10,
94646363,000006B7,false,Rx,0,8,D1,9D,53,04,00,11,00,9E,
94646637,000006B8,false,Rx,0,8,B8,07,84,F8,1B,6C,00,00,
94648765,00000086,false,Rx,0,8,39,01,01,20,00,00,00,00,
94649591,000000B2,false,Rx,0,8,00,00,00,00,00,00,00,00,
94649847,0000012B,false,Rx,0,8,B7,46,40,28,00,00,00,00,
94650075,00000101,false,Rx,0,8,86,08,81,01,A2,05,00,00,
94650322,00000106,false,Rx,0,8,79,08,63,00,02,00,00,00,
94650590,0000011E,false,Rx,0,8,85,08,00,00,00,00,00,00,
94651435,000000AD,false,Rx,0,8,42,EB,BF,FF,00,14,00,00,
94651689,000000AE,false,Rx,0,8,69,0B,00,00,FF,3C,01,02,
94651844,000000AF,false,Rx,0,4,83,74,00,00,00,00,00,00,
94652000,00000128,false,Rx,0,3,84,0E,C7,00,00,00,00,00,
94652258,0000012D,false,Rx,0,8,C9,86,7F,00,00,00,FE,3F,
94653303,000000A7,false,Rx,0,8,A1,E3,9F,7F,FD,F9,A7,3D,
94653548,000000A8,false,Rx,0,8,52,A3,1D,21,82,64,1C,0E,
94654097,00000040,false,Rx,0,8,8E,0A,00,44,C1,00,00,00,
94655046,16A95414,true,Rx,0,8,00,30,7E,C3,0F,00,00,00,
94655295,000003D8,false,Rx,0,8,00,00,08,00,00,00,00,00,
94661496,00000086,false,Rx,0,8,95,02,01,20,00,00,00,00,
94661502,000000B2,false,Rx,0,8,00,00,00,00,00,00,00,00,
94661507,000000FD,false,Rx,0,8,58,D8,1F,80,00,00,00,00,
94661512,00000116,false,Rx,0,8,38,08,01,04,00,00,00,FF,
94661518,00000392,false,Rx,0,8,99,21,00,00,00,00,00,04,
94661523,000000AD,false,Rx,0,8,2F,EC,BF,FF,00,14,00,00,
94661679,000000AE,false,Rx,0,8,D1,0C,00,00,FF,3C,01,02,
94661835,000000AF,false,Rx,0,4,83,75,C9,01,00,00,00,00,
94662658,000000A7,false,Rx,0,8,9B,E4,9F,7F,FD,F9,A7,3D,
94662893,000000A8,false,Rx,0,8,FE,A4,1D,21,82,64,1C,0E,
94663149,00000107,false,Rx,0,8,00,00,F8,2C,01,00,6D,84,
94663382,00000120,false,Rx,0,8,94,0A,00,02,01,08,FF,01,
94663618,00000121,false,Rx,0,8,B1,0A,00,80,37,5A,7E,FE,
94663852,00000147,false,Rx,0,8,00,00,00,00,F0,97,60,1D,
94665014,000003DB,false,Rx,0,8,50,00,01,04,07,24,01,A3,
94668757,00000086,false,Rx,0,8,F1,03,01,20,00,00,00,00,
94669580,000000B2,false,Rx,0,8,00,00,00,00,00,00,00,00,
94669855,00000101,false,Rx,0,8,16,09,80,01,A2,05,00,00,
94670128,00000106,false,Rx,0,8,1D,09,63,00,02,00,00,00,
94670382,0000011E,false,Rx,0,8,E1,09,00,00,00,00,00,00,
94670637,000001AB,false,Rx,0,8,02,03,04,02,18,00,04,00,
94671441,000000AD,false,Rx,0,8,5E,ED,BF,FF,00,14,00,00,
94671697,000000AE,false,Rx,0,8,B2,0D,00,00,FF,3C,01,02,
94671851,000000AF,false,Rx,0,4,83,76,C9,01,00,00,00,00,
94672007,00000128,false,Rx,0,3,80,00,00,00,00,00,00,00,
94672273,00000462,false,Rx,0,8,00,00,38,00,00,01,00,00,
94672496,0000012D,false,Rx,0,8,98,87,7F,00,00,00,FE,3F,
94672987,000000A7,false,Rx,0,8,00,E5,9F,7F,FD,F9,B7,3D,
94673209,000000A8,false,Rx,0,8,EA,B5,3D,21,82,64,20,0E,
94675016,000003DD,false,Rx,0,8,48,04,10,08,FE,4F,07,00,
94680362,0000031E,false,Rx,0,8,FE,FB,3F,00,00,00,00,40,
94680367,0000032C,false,Rx,0,8,00,0F,00,00,98,24,00,00,
94680373,0000032F,false,Rx,0,8,00,FF,00,00,00,00,00,01,
94680378,00000086,false,Rx,0,8,E2,04,01,20,00,00,00,00,
94680383,0000012B,false,Rx,0,8,92,47,40,28,00,00,00,00,
94680389,000000B2,false,Rx,0,8,00,00,00,00,00,00,00,00,
94680394,000000FD,false,Rx,0,8,6A,D9,1F,80,00,00,00,00,
94680399,00000116,false,Rx,0,8,5C,09,01,04,00,00,00,FF,
94680574,000001A2,false,Rx,0,8,02,00,00,00,00,00,00,00,
94681441,000000AD,false,Rx,0,8,84,EE,BF,FF,00,14,00,00,
94681696,000000AE,false,Rx,0,8,8A,0E,00,00,FF,3C,01,02,
94681846,000000AF,false,Rx,0,4,83,77,00,00,00,00,00,00,
94682105,000000B1,false,Rx,0,8,E0,2C,00,00,00,00,00,00,
94682367,00000394,false,Rx,0,8,E1,14,00,1A,00,00,00,00,
94682700,000000A7,false,Rx,0,8,93,E6,9F,7F,FD,F9,B7,3D,
94682935,000000A8,false,Rx,0,8,9D,B6,3D,21,82,64,1C,0E,
94683164,00000107,false,Rx,0,8,00,00,F8,2C,01,00,6D,84,
94683422,00000120,false,Rx,0,8,38,0B,00,02,01,08,FF,01,
94683658,00000121,false,Rx,0,8,1A,0B,00,80,37,5A,7E,FE,
94683891,00000147,false,Rx,0,8,00,00,00,00,F0,97,60,1D,
94684147,000003D4,false,Rx,0,8,BC,0A,80,06,00,04,00,00,
94684993,00000365,false,Rx,0,8,AD,06,13,00,8D,0F,88,7A,
94688766,00000086,false,Rx,0,8,86,05,01,20,00,00,00,00,
94689532,000000B2,false,Rx,0,8,00,00,00,00,00,00,00,00,
94689807,00000101,false,Rx,0,8,C4,0A,81,01,A2,01,00,00,
94690141,00000106,false,Rx,0,8,B1,0A,63,00,02,00,00,00,
94690388,0000011E,false,Rx,0,8,4D,0A,00,00,00,00,00,00,
94691434,000000AD,false,Rx,0,8,D5,EF,BF,FF,00,14,00,00,
94691687,000000AE,false,Rx,0,8,68,0F,00,00,FF,3C,01,02,
94691862,000000AF,false,Rx,0,4,83,78,00,00,00,00,00,00,
94692019,00000128,false,Rx,0,3,84,FF,0D,00,00,00,00,00,
94692268,0000012D,false,Rx,0,8,57,88,7F,00,00,00,FE,3F,
94692511,000003C8,false,Rx,0,8,00,00,54,24,00,60,11,94,
94692746,000000A7,false,Rx,0,8,1A,E7,9F,7F,FD,F9,B7,3D,
94692981,000000A8,false,Rx,0,8,F8,B7,3D,21,82,64,14,0E,
94695013,000003DE,false,Rx,0,8,FE,00,00,00,00,00,00,00,
94695579,0000030B,false,Rx,0,8,10,2B,00,00,08,00,00,10,
94702763,00000086,false,Rx,0,8,2A,06,01,20,00,00,00,00,
94702768,000003E5,false,Rx,0,8,3B,23,00,00,00,00,00,00,
94702774,000000B2,false,Rx,0,8,00,00,00,00,00,00,00,00,
94702779,000000FD,false,Rx,0,8,26,DA,1F,80,00,00,00,00,
94702784,00000116,false,Rx,0,8,F0,0A,01,04,00,00,00,FF,
94702790,000000AD,false,Rx,0,8,48,E0,BF,FF,00,14,00,00,
94702795,000000AE,false,Rx,0,8,DF,00,00,00,FF,3C,01,02,
94702800,000000AF,false,Rx,0,4,83,79,56,01,00,00,00,00,
94702805,000000A7,false,Rx,0,8,57,E8,9F,7F,FD,F9,B7,3D,
94702960,000000A8,false,Rx,0,8,D1,B8,1D,21,82,64,0C,0E,
94703224,00000107,false,Rx,0,8,00,00,F8,2C,01,00,79,84,
94703446,00000120,false,Rx,0,8,E2,0C,00,02,01,08,FF,01,
94703681,00000121,false,Rx,0,8,DF,0C,00,80,37,5A,7E,FE,
94703937,00000147,false,Rx,0,8,00,00,00,00,F0,97,60,1D,
94704172,00000040,false,Rx,0,8,EA,0B,00,44,C1,00,00,00,
94704401,00000391,false,Rx,0,8,11,90,22,44,00,27,00,22,
94704635,000003BE,false,Rx,0,8,E9,09,E6,00,C8,80,00,80,
94704891,000003C7,false,Rx,0,8,82,10,24,00,00,40,80,00,
94708777,00000086,false,Rx,0,8,4E,07,01,20,00,00,00,00,
94709561,0000012B,false,Rx,0,8,47,48,40,28,00,00,00,00,
94709815,000000B2,false,Rx,0,8,00,00,00,00,00,00,00,00,
94710070,00000101,false,Rx,0,8,9F,0B,81,01,A2,04,00,00,
94710291,00000106,false,Rx,0,8,D5,0B,63,00,02,00,00,00,
94710559,0000011E,false,Rx,0,8,29,0B,00,00,00,00,00,00,
94711461,000000AD,false,Rx,0,8,86,E1,BF,FF,00,14,00,00,
94711715,000000AE,false,Rx,0,8,30,01,00,00,FF,3C,01,02,
94711870,000000AF,false,Rx,0,4,83,7A,56,01,00,00,00,00,
94712026,00000128,false,Rx,0,3,80,00,00,00,00,00,00,00,
94712268,0000012D,false,Rx,0,8,F2,89,7F,00,00,00,FE,3F,
94712651,000000A7,false,Rx,0,8,87,E9,9F,7F,FD,F9,B7,3D,
94712885,000000A8,false,Rx,0,8,A6,B9,1D,61,82,64,08,0E,
94721580,00000086,false,Rx,0,8,0C,08,01,20,00,00,00,00,
94721585,000000B2,false,Rx,0,8,00,00,00,00,00,00,00,00,
94721590,000000FD,false,Rx,0,8,09,DB,1F,80,00,00,00,00,
94721596,00000116,false,Rx,0,8,94,0B,01,04,00,00,00,FF,
94721647,000000AD,false,Rx,0,8,62,E2,BF,FF,00,14,00,00,
94721652,000000AE,false,Rx,0,8,31,02,00,00,FF,3C,01,02,
94721834,000000AF,false,Rx,0,4,83,7B,00,00,00,00,00,00,
94722066,00000463,false,Rx,0,8,00,E0,3F,00,00,00,00,00,
94722678,000000A7,false,Rx,0,8,81,EA,9F,7F,FD,F9,B7,3D,
94722914,000000A8,false,Rx,0,8,C1,BA,1D,61,82,64,0C,0E,
94723148,00000107,false,Rx,0,8,00,00,F8,2C,01,00,84,84,
94723396,00000120,false,Rx,0,8,52,0D,00,02,01,08,FF,01,
94723631,00000121,false,Rx,0,8,CC,0D,00,80,37,5A,7E,FE,
94723866,00000147,false,Rx,0,8,00,00,00,00,F0,97,60,1D,
94727061,0000031E,false,Rx,0,8,5D,FC,3F,00,00,00,00,40,
94727307,0000032C,false,Rx,0,8,00,0F,00,00,98,24,00,00,
94727550,0000032F,false,Rx,0,8,00,FF,00,00,00,00,00,01,
94728770,00000086,false,Rx,0,8,68,09,01,20,00,00,00,00,
94729560,000000B2,false,Rx,0,8,00,00,00,00,00,00,00,00,
94729834,00000101,false,Rx,0,8,8C,0C,81,01,A2,04,00,00,
94730128,00000106,false,Rx,0,8,C6,0C,63,00,02,00,00,00,
94730381,0000011E,false,Rx,0,8,3A,0C,00,00,00,00,00,00,
94731421,000000AD,false,Rx,0,8,E3,E3,BF,FF,00,14,00,00,
94731598,000003C0,false,Rx,0,4,BF,0B,03,00,00,00,00,00,
94731832,000000AE,false,Rx,0,8,14,03,00,00,FF,3C,01,02,
94732008,000000AF,false,Rx,0,4,83,7C,00,00,00,00,00,00,
94732164,00000128,false,Rx,0,3,80,00,00,00,00,00,00,00,
94732388,000003D6,false,Rx,0,8,07,00,00,00,00,00,30,00,
94732649,0000012D,false,Rx,0,8,7B,8A,7F,00,00,00,FE,3F,
94732863,000000A7,false,Rx,0,8,EF,EB,9F,7F,FD,F9,B7,3D,
94733098,000000A8,false,Rx,0,8,A4,BB,1D,61,82,64,10,0E,
94733389,1B000053,true,Rx,0,8,53,00,04,01,01,00,00,00,
94733841,000005F0,false,Rx,0,8,FD,00,64,00,00,64,00,00,
94735003,00000365,false,Rx,0,8,AD,06,13,00,8D,0F,88,7A,
94741588,000003B5,false,Rx,0,8,87,FE,12,3E,0C,A3,20,00,
94741593,00000086,false,Rx,0,8,C4,0A,01,20,00,00,00,00,
94741599,000000B2,false,Rx,0,8,00,00,00,00,00,00,00,00,
94741604,0000012B,false,Rx,0,8,4F,49,40,28,00,00,00,00,
94741609,1B000015,true,Rx,0,8,15,00,04,02,01,00,00,00,
94741615,000000FD,false,Rx,0,8,90,DC,1F,80,00,00,00,00,
94741620,00000116,false,Rx,0,8,87,0C,01,04,00,00,00,FF,
94741625,00000569,false,Rx,0,8,00,00,00,3E,F8,10,00,00,
94741631,000000AD,false,Rx,0,8,41,E4,BF,FF,00,14,00,00,
94741707,000000AE,false,Rx,0,8,1A,04,00,00,FF,3C,01,02,
94741862,000000AF,false,Rx,0,4,83,7D,00,00,00,00,00,00,
94742670,000000A7,false,Rx,0,8,50,EC,9F,7F,FD,F9,B7,3D,
94742904,000000A8,false,Rx,0,8,82,BC,1D,61,82,64,14,0E,
94743160,00000107,false,Rx,0,8,00,00,F8,2C,01,00,84,84,
94743387,00000120,false,Rx,0,8,39,0E,00,02,01,08,FF,01,
94743622,00000121,false,Rx,0,8,5F,0E,00,80,37,5A,7E,FE,
94743878,00000147,false,Rx,0,8,00,00,00,00,F0,97,60,1D,
94745003,000005AC,false,Rx,0,8,00,00,FF,FE,FE,F7,07,00,
94745632,0000030B,false,Rx,0,8,10,2C,00,00,08,00,00,10,
94748785,00000086,false,Rx,0,8,A0,0B,01,20,00,00,00,00,
94749571,000000B2,false,Rx,0,8,00,00,00,00,00,00,00,00,
94749846,00000101,false,Rx,0,8,5D,0D,81,01,A2,05,00,00,
94750140,00000106,false,Rx,0,8,A2,0D,63,00,02,00,00,00,
94750388,0000011E,false,Rx,0,8,5E,0D,00,00,00,00,00,00,
94751428,000000AD,false,Rx,0,8,74,E5,BF,FF,00,14,00,00,
94751708,000000AE,false,Rx,0,8,E1,05,00,00,FF,3C,01,02,
94751863,000000AF,false,Rx,0,4,83,7E,00,00,00,00,00,00,
94752020,00000128,false,Rx,0,3,84,1A,38,00,00,00,00,00,
94752295,1B000076,true,Rx,0,8,76,00,04,01,01,00,0A,00,
94752541,0000012D,false,Rx,0,8,60,8B,7F,00,00,00,FE,3F,
94752809,1B000010,true,Rx,0,8,10,00,04,05,11,00,00,00,
94753413,000000A7,false,Rx,0,8,A0,ED,9F,7F,FD,F9,B7,3D,
94753649,000000A8,false,Rx,0,8,A9,BD,1D,61,82,64,10,0E,
94754104,00000040,false,Rx,0,8,F9,0C,00,44,C1,00,00,00,
94755045,16A95414,true,Rx,0,8,00,30,7E,C3,0F,00,00,00,
94755288,000003D8,false,Rx,0,8,00,00,08,00,00,00,00,00,
94761655,00000520,false,Rx,0,8,E7,01,00,08,00,0A,00,0A,
94761660,16A95415,true,Rx,0,8,00,00,00,00,14,00,98,00,
94761666,00000086,false,Rx,0,8,B3,0C,01,20,00,00,00,00,
94761671,000000B2,false,Rx,0,8,00,00,00,00,00,00,00,00,
94761676,000000FD,false,Rx,0,8,19,DD,1F,80,00,00,00,00,
94761682,00000116,false,Rx,0,8,E3,0D,01,04,00,00,00,FF,
94761687,00000392,false,Rx,0,8,35,22,00,00,00,00,00,04,
94761692,000000AD,false,Rx,0,8,6A,E6,BF,FF,00,14,00,00,
94761698,000000AE,false,Rx,0,8,BA,06,00,00,FF,3C,01,02,
94761809,000000AF,false,Rx,0,4,83,7F,22,01,00,00,00,00,
94762673,000000A7,false,Rx,0,8,2B,EE,9F,7F,FD,F9,B7,3D,
94762907,000000A8,false,Rx,0,8,B3,BE,1D,61,82,64,0C,0E,
94763168,00000107,false,Rx,0,8,00,00,F8,2C,01,00,8F,84,
94763401,00000120,false,Rx,0,8,EC,0F,00,02,01,08,FF,01,
94763637,00000121,false,Rx,0,8,E9,0F,00,80,37,5A,7E,FE,
94763871,00000147,false,Rx,0,8,00,00,00,00,F0,97,60,1D,
94765014,000003DB,false,Rx,0,8,50,00,01,04,07,24,01,A3,
94768769,00000086,false,Rx,0,8,D7,0D,01,20,00,00,00,00,
94769572,000000B2,false,Rx,0,8,00,00,00,00,00,00,00,00,
94769800,0000012B,false,Rx,0,8,5F,4A,40,28,00,00,00,00,
94770061,00000101,false,Rx,0,8,B0,0E,80,01,A2,04,00,00,
94770307,00000106,false,Rx,0,8,0E,0E,63,00,02,00,00,00,
94770570,0000011E,false,Rx,0,8,F2,0E,00,00,00,00,00,00,
94771453,000000AD,false,Rx,0,8,35,E7,BF,FF,00,14,00,00,
94771709,000000AE,false,Rx,0,8,28,07,00,00,FF,3C,01,02,
94771864,000000AF,false,Rx,0,4,83,70,22,01,00,00,00,00,
94772019,00000128,false,Rx,0,3,80,00,00,00,00,00,00,00,
94772268,00000464,false,Rx,0,8,08,4C,00,00,00,00,00,00,
94772511,0000012D,false,Rx,0,8,52,8C,7F,00,00,00,FE,3F,
94773003,000000A7,false,Rx,0,8,F5,EF,9F,7F,FD,F9,B7,3D,
94773250,000000A8,false,Rx,0,8,04,BF,1D,61,82,64,08,0E,
94775016,000003DD,false,Rx,0,8,48,04,10,08,FE,4F,07,00,
94781674,0000031E,false,Rx,0,8,F4,FD,3F,00,00,00,00,40,
94781679,0000032C,false,Rx,0,8,00,0F,00,00,98,24,00,00,
94781685,0000032F,false,Rx,0,8,00,FF,00,00,00,00,00,01,
94781690,00000086,false,Rx,0,8,7B,0E,01,20,00,00,00,00,
94781695,000000B2,false,Rx,0,8,00,00,00,00,00,00,00,00,
94781701,000000FD,false,Rx,0,8,E6,DE,1F,80,00,00,00,00,
94781706,00000116,false,Rx,0,8,4F,0E,01,04,00,00,00,FF,
94781711,000000AD,false,Rx,0,8,A2,E8,BF,FF,00,14,00,00,
94781717,000000AE,false,Rx,0,8,5F,08,00,00,FF,3C,01,02,
94781854,000000AF,false,Rx,0,4,83,71,00,00,00,00,00,00,
94782087,000000B1,false,Rx,0,8,6E,2D,00,00,00,00,00,00,
94782757,000000A7,false,Rx,0,8,3C,E0,9F,7F,FD,F9,B7,3D,
94782992,000000A8,false,Rx,0,8,24,B0,1D,61,82,64,04,0E,
94783253,00000107,false,Rx,0,8,00,00,F8,2C,01,00,8F,84,
94783475,00000120,false,Rx,0,8,26,00,00,02,01,08,FF,01,
94783705,00000121,false,Rx,0,8,27,00,00,80,37,5A,7E,FE,
94783966,00000147,false,Rx,0,8,00,00,00,00,F0,97,60,1D,
94785007,00000365,false,Rx,0,8,AD,06,13,00,8E,0F,88,7A,
94788789,00000086,false,Rx,0,8,1F,0F,01,20,00,00,00,00,
94789587,000000B2,false,Rx,0,8,00,00,00,00,00,00,00,00,
94789866,00000101,false,Rx,0,8,61,0F,80,01,A2,05,00,00,
94790122,00000106,false,Rx,0,8,6A,0F,63,00,02,00,00,00,
94790374,0000011E,false,Rx,0,8,96,0F,00,00,00,00,00,00,
94791434,000000AD,false,Rx,0,8,A6,E9,BF,FF,00,14,00,00,
94791683,000000AE,false,Rx,0,8,B7,09,00,00,FF,3C,01,02,
94791865,000000AF,false,Rx,0,4,83,72,00,00,00,00,00,00,
94792020,00000128,false,Rx,0,3,84,1A,C7,00,00,00,00,00,
94792262,0000012D,false,Rx,0,8,3E,8D,7F,00,00,00,FE,3F,
94792503,000003C8,false,Rx,0,8,00,00,54,24,00,60,11,94,
94792739,000000A7,false,Rx,0,8,B4,E1,9F,7F,FD,F9,B7,3D,
94792974,000000A8,false,Rx,0,8,66,B1,1D,61,82,64,00,0E,
94793258,1B000077,true,Rx,0,8,77,00,04,02,01,00,00,00,
94795022,000003DE,false,Rx,0,8,FE,00,00,00,00,00,00,00,
94795631,0000030B,false,Rx,0,8,10,2D,00,00,08,00,00,10,
94801685,00000086,false,Rx,0,8,5D,00,01,20,00,00,00,00,
94801690,000003E5,false,Rx,0,8,6A,24,00,00,00,00,00,00,
94801696,000000B2,false,Rx,0,8,00,00,00,00,00,00,00,00,
94801701,0000012B,false,Rx,0,8,FA,4B,40,28,00,00,00,00,
94801706,000000FD,false,Rx,0,8,71,DF,1F,80,00,00,00,00,
94801712,00000116,false,Rx,0,8,2B,0F,01,04,00,00,00,FF,
94801717,000000AD,false,Rx,0,8,F7,EA,BF,FF,00,14,00,00,
94801722,000000AE,false,Rx,0,8,CB,0A,00,00,FF,3C,01,02,
94801817,000000AF,false,Rx,0,4,83,73,DD,01,00,00,00,00,
94803062,000000A7,false,Rx,0,8,4A,E2,9F,7F,FD,FD,B7,3D,
94803288,000000A8,false,Rx,0,8,E5,B2,1D,61,82,64,FC,0D,
94803530,00000107,false,Rx,0,8,00,00,F8,2C,01,00,9B,84,
94803765,00000120,false,Rx,0,8,D3,01,00,02,01,08,FF,01,
94804000,00000121,false,Rx,0,8,4B,01,00,80,37,5A,7E,FE,
94804248,00000040,false,Rx,0,8,9D,0D,00,44,C1,00,00,00,
94804469,00000147,false,Rx,0,8,00,00,00,00,F0,97,60,1D,
94804704,00000391,false,Rx,0,8,11,90,21,45,00,27,00,22,
94804960,000003BE,false,Rx,0,8,22,0A,E6,00,C8,80,00,80,
94805196,000003C7,false,Rx,0,8,01,10,24,00,00,40,80,00,
94808797,00000086,false,Rx,0,8,39,01,01,20,00,00,00,00,
94809680,000000B2,false,Rx,0,8,00,00,00,00,00,00,00,00,
94809935,00000101,false,Rx,0,8,D7,00,81,01,A2,05,00,00,
94810243,00000106,false,Rx,0,8,28,00,63,00,02,00,00,00,
94810465,0000011E,false,Rx,0,8,D4,00,00,00,00,00,00,00,
94810779,000006B4,false,Rx,0,8,02,4D,35,33,31,32,37,37,
94811449,000000AD,false,Rx,0,8,42,EB,BF,FF,00,14,00,00,
94811705,000000AE,false,Rx,0,8,69,0B,00,00,FF,3C,01,02,
94811860,000000AF,false,Rx,0,4,83,74,DD,01,00,00,00,00,
94812015,00000128,false,Rx,0,3,80,00,00,00,00,00,00,00,
94812265,0000012D,false,Rx,0,8,0E,8E,7F,00,00,00,FE,3F,
94812646,000000A7,false,Rx,0,8,D2,E3,DF,7F,FD,FD,B7,3D,
94812882,000000A8,false,Rx,0,8,0A,B3,1D,61,82,64,FC,0D,
94821696,00000086,false,Rx,0,8,95,02,01,20,00,00,00,00,
94821701,000000B2,false,Rx,0,8,00,00,00,00,00,00,00,00,
94821706,000000FD,false,Rx,0,8,0B,D0,1F,80,00,00,00,00,
94821712,00000116,false,Rx,0,8,69,00,01,04,00,00,00,FF,
94821717,000000AD,false,Rx,0,8,2F,EC,BF,FF,00,14,00,00,
94821722,000000AE,false,Rx,0,8,D1,0C,00,00,FF,3C,01,02,
94821858,000000AF,false,Rx,0,4,83,75,00,00,00,00,00,00,
94822092,00000462,false,Rx,0,8,00,00,38,00,00,01,00,00,
94822363,00000465,false,Rx,0,8,00,00,00,00,00,00,00,80,
94822734,000000A7,false,Rx,0,8,E8,E4,DF,7F,FD,FD,B7,3D,
94822969,000000A8,false,Rx,0,8,C9,B4,1D,61,82,64,00,0E,
94823209,00000107,false,Rx,0,8,00,00,F8,2C,01,00,A6,84,
94823453,00000120,false,Rx,0,8,2B,02,00,02,01,08,FF,01,
94823688,00000121,false,Rx,0,8,F9,02,00,C0,37,5A,7E,FE,
94823922,00000147,false,Rx,0,8,00,00,00,00,F0,97,60,1D,
94827120,0000031E,false,Rx,0,8,81,FE,3F,00,00,00,00,40,
94827395,0000032C,false,Rx,0,8,00,0F,00,00,98,24,00,00,
94827629,0000032F,false,Rx,0,8,00,FF,00,00,00,00,00,01,
94828768,00000086,false,Rx,0,8,F1,03,01,20,00,00,00,00,
94829572,000000B2,false,Rx,0,8,00,00,00,00,00,00,00,00,
94829828,0000012B,false,Rx,0,8,BF,4C,40,28,00,00,00,00,
94830056,00000101,false,Rx,0,8,C9,01,81,01,A2,02,00,00,
94830328,00000106,false,Rx,0,8,4C,01,63,00,02,00,00,00,
94830590,0000011E,false,Rx,0,8,B0,01,00,00,00,00,00,00,
94831453,000000AD,false,Rx,0,8,5E,ED,BF,FF,00,14,00,00,
94831608,000003C0,false,Rx,0,4,C5,0C,03,00,00,00,00,00,
94831842,000000AE,false,Rx,0,8,B2,0D,00,00,FF,3C,01,02,
94832019,000000AF,false,Rx,0,4,83,76,00,00,00,00,00,00,
94832174,00000128,false,Rx,0,3,84,FF,0E,00,00,00,00,00,
94832411,000003D6,false,Rx,0,8,08,00,00,00,00,00,30,00,
94832644,0000012D,false,Rx,0,8,F9,8F,7F,00,00,00,FE,3F,
94832880,000000A7,false,Rx,0,8,93,E5,DF,7F,FD,FD,B7,3D,
94833115,000000A8,false,Rx,0,8,9B,B5,1D,61,82,64,04,0E,
94835006,00000365,false,Rx,0,8,AD,06,13,00,8D,0F,88,7A,
94841709,000003B5,false,Rx,0,8,87,FE,12,40,0C,A3,20,00,
94841714,00000086,false,Rx,0,8,E2,04,01,20,00,00,00,00,
94841719,000000B2,false,Rx,0,8,00,00,00,00,00,00,00,00,
94841725,000000FD,false,Rx,0,8,01,D1,1F,80,00,00,00,00,
94841730,00000116,false,Rx,0,8,0D,01,01,04,00,00,00,FF,
94841735,000000AD,false,Rx,0,8,84,EE,BF,FF,00,14,00,00,
94841741,000000AE,false,Rx,0,8,8A,0E,00,00,FF,3C,01,02,
94841856,000000AF,false,Rx,0,4,83,77,4C,01,00,00,00,00,
94842112,00000394,false,Rx,0,8,70,15,00,1A,00,00,00,00,
94842758,000000A7,false,Rx,0,8,00,E6,DF,7F,FD,FD,B7,3D,
94842972,000000A8,false,Rx,0,8,AB,B6,1D,61,82,64,04,0E,
94843216,00000107,false,Rx,0,8,00,00,F8,2C,01,00,A6,84,
94843465,00000120,false,Rx,0,8,F9,03,00,02,01,08,FF,01,
94843700,00000121,false,Rx,0,8,0B,03,00,C0,37,5A,7E,FE,
94843935,00000147,false,Rx,0,8,00,00,00,00,F0,97,60,1D,
94845014,000005AC,false,Rx,0,8,00,00,FF,FE,FE,F7,07,00,
94845619,0000030B,false,Rx,0,8,10,2E,00,00,08,00,00,10,
94848770,00000086,false,Rx,0,8,86,05,01,20,00,00,00,00,
94849557,000000B2,false,Rx,0,8,00,00,00,00,00,00,00,00,
94849810,00000101,false,Rx,0,8,65,02,81,01,A2,02,00,00,
94850124,00000106,false,Rx,0,8,E0,02,63,00,02,00,00,00,
94850393,0000011E,false,Rx,0,8,1C,02,00,00,00,00,00,00,
94851453,000000AD,false,Rx,0,8,D5,EF,BF,FF,00,14,00,00,
94851709,000000AE,false,Rx,0,8,68,0F,00,00,FF,3C,01,02,
94851859,000000AF,false,Rx,0,4,83,78,4C,01,00,00,00,00,
94852019,00000128,false,Rx,0,3,80,00,00,00,00,00,00,00,
94852268,0000012D,false,Rx,0,8,5D,80,7F,00,00,00,FE,3F,
94853679,000000A7,false,Rx,0,8,89,E7,DF,7F,FD,FD,B7,3D,
94853913,000000A8,false,Rx,0,8,BE,B7,1D,61,82,64,04,0E,
94854146,00000040,false,Rx,0,8,31,0E,00,44,C1,00,00,00,
94855053,16A95414,true,Rx,0,8,00,30,7E,C3,0F,00,00,00,
94855296,000003D8,false,Rx,0,8,00,00,08,00,00,00,00,00,
94861705,17F00015,true,Rx,0,8,00,15,00,00,00,00,00,80,
94861710,00000086,false,Rx,0,8,2A,06,01,20,00,00,00,00,
94861716,0000012B,false,Rx,0,8,EB,4D,40,28,00,00,00,00,
94861721,000000B2,false,Rx,0,8,00,00,00,00,00,00,00,00,
94861726,000000FD,false,Rx,0,8,CE,D2,1F,80,00,00,00,00,
94861732,00000116,false,Rx,0,8,A1,02,01,04,00,00,00,FF,
94861737,00000392,false,Rx,0,8,51,23,00,00,00,00,00,04,
94861742,0000065D,false,Rx,0,8,BD,2B,2B,12,00,40,82,7B,
94861748,000000AD,false,Rx,0,8,48,E0,BF,FF,00,14,00,00,
94861753,000000AE,false,Rx,0,8,DF,00,00,00,FF,3C,01,02,
94861848,000000AF,false,Rx,0,4,83,79,00,00,00,00,00,00,
94862733,000000A7,false,Rx,0,8,C4,E8,DF,7F,FD,FD,B7,3D,
94862968,000000A8,false,Rx,0,8,99,B8,1D,21,82,64,00,0E,
94863209,00000107,false,Rx,0,8,00,00,F8,2C,01,00,B1,84,
94863453,00000120,false,Rx,0,8,AF,04,00,02,01,08,FF,01,
94863688,00000121,false,Rx,0,8,8B,04,00,80,37,5A,7E,FE,
94863922,00000147,false,Rx,0,8,00,00,00,00,F0,97,60,1D,
94865007,000003DB,false,Rx,0,8,50,00,01,04,07,24,01,A3,
94868768,00000086,false,Rx,0,8,4E,07,01,20,00,00,00,00,
94869592,000000B2,false,Rx,0,8,00,00,00,00,00,00,00,00,
94869867,00000101,false,Rx,0,8,3A,03,80,01,A2,04,00,00,
94870119,00000106,false,Rx,0,8,84,03,63,00,02,00,00,00,
94870395,0000011E,false,Rx,0,8,78,03,00,00,00,00,00,00,
94870629,000001AB,false,Rx,0,8,C9,04,04,02,18,00,04,00,
94871474,000000AD,false,Rx,0,8,86,E1,BF,FF,00,14,00,00,
94871703,000000AE,false,Rx,0,8,30,01,00,00,FF,3C,01,02,
94871883,000000AF,false,Rx,0,4,83,7A,00,00,00,00,00,00,
94872040,00000128,false,Rx,0,3,80,00,00,00,00,00,00,00,
94872289,00000463,false,Rx,0,8,00,E0,3F,00,00,00,00,00,
94872532,0000012D,false,Rx,0,8,0A,81,7F,00,00,00,FE,3F,
94872767,000000A7,false,Rx,0,8,ED,E9,9F,7F,FD,FD,A7,3D,
94872976,000000A8,false,Rx,0,8,26,A9,1D,21,82,64,FC,0D,
94875014,000003DD,false,Rx,0,8,48,04,10,08,FE,4F,07,00,
94881708,0000031E,false,Rx,0,8,68,FF,3F,00,00,00,00,40,
94881713,0000032C,false,Rx,0,8,00,0F,00,00,98,24,00,00,
94881718,0000032F,false,Rx,0,8,00,FF,00,00,00,00,00,01,
94881724,00000086,false,Rx,0,8,0C,08,01,20,00,00,00,00,
94881729,000000B2,false,Rx,0,8,00,00,00,00,00,00,00,00,
94881734,000000FD,false,Rx,0,8,BB,D3,1F,80,00,00,00,00,
94881740,00000116,false,Rx,0,8,C5,03,01,04,00,00,00,FF,
94881745,000001A2,false,Rx,0,8,6E,01,00,00,00,00,00,00,
94881750,000000AD,false,Rx,0,8,62,E2,BF,FF,00,14,00,00,
94881756,000000AE,false,Rx,0,8,31,02,00,00,FF,3C,01,02,
94881852,000000AF,false,Rx,0,4,83,7B,00,00,00,00,00,00,
94882086,000000B1,false,Rx,0,8,71,2E,00,00,00,00,00,00,
94882778,000000A7,false,Rx,0,8,F2,EA,DF,7F,FD,FD,A7,3D,
94883013,000000A8,false,Rx,0,8,41,AA,1D,21,82,64,F8,0D,
94883253,00000107,false,Rx,0,8,00,00,F8,2C,01,00,B1,84,
94883475,00000120,false,Rx,0,8,AD,05,00,02,01,08,FF,01,
94883709,00000121,false,Rx,0,8,BC,05,00,80,37,5A,7E,FE,
94883965,00000147,false,Rx,0,8,00,00,00,00,F0,97,60,1D,
94885006,00000365,false,Rx,0,8,AD,06,13,00,8E,0F,88,7A,
94888769,00000086,false,Rx,0,8,68,09,01,20,00,00,00,00,
94889572,000000B2,false,Rx,0,8,00,00,00,00,00,00,00,00,
94889828,0000012B,false,Rx,0,8,A4,4E,40,28,00,00,00,00,
94890062,00000101,false,Rx,0,8,9C,04,80,01,A2,05,00,00,
94890328,00000106,false,Rx,0,8,97,04,63,00,02,00,00,00,
94890569,0000011E,false,Rx,0,8,6B,04,00,00,00,00,00,00,
94890823,000005F5,false,Rx,0,8,FE,07,F8,1F,00,FF,DF,FF,
94891453,000000AD,false,Rx,0,8,E3,E3,BF,FF,00,14,00,00,
94891707,000000AE,false,Rx,0,8,14,03,00,00,FF,3C,01,02,
94891884,000000AF,false,Rx,0,4,83,7C,00,00,00,00,00,00,
94892014,00000128,false,Rx,0,3,84,02,38,00,00,00,00,00,
94892289,0000012D,false,Rx,0,8,18,82,7F,00,00,00,FE,3F,
94892532,000003C8,false,Rx,0,8,00,00,54,24,00,60,11,94,
94892741,000000A7,false,Rx,0,8,9C,EB,DF,7F,FD,FD,A7,3D,
94892980,000000A8,false,Rx,0,8,B4,AB,1D,21,82,64,FC,0D,
94895013,000003DE,false,Rx,0,8,FE,00,00,00,00,00,00,00,
94895578,0000030B,false,Rx,0,8,10,2F,00,00,08,00,00,10,
94901719,00000086,false,Rx,0,8,C4,0A,01,20,00,00,00,00,
94901724,000003E5,false,Rx,0,8,2B,25,00,00,00,00,00,00,
94901730,000000B2,false,Rx,0,8,00,00,00,00,00,00,00,00,
94901735,000000FD,false,Rx,0,8,2D,D4,1F,80,00,00,00,00,
94901740,00000116,false,Rx,0,8,D6,04,01,04,00,00,00,FF,
94901746,000000AD,false,Rx,0,8,41,E4,BF,FF,00,14,00,00,
94901751,000000AE,false,Rx,0,8,1A,04,00,00,FF,3C,01,02,
94901847,000000AF,false,Rx,0,4,83,7D,3A,01,00,00,00,00,
94903143,000000A7,false,Rx,0,8,23,EC,DF,7F,FD,FD,A7,3D,
94903392,000000A8,false,Rx,0,8,AA,AC,1D,21,82,64,FC,0D,
94903627,00000107,false,Rx,0,8,00,00,F8,2C,01,00,BC,84,
94903860,00000120,false,Rx,0,8,42,06,00,02,01,08,FF,01,
94904095,00000040,false,Rx,0,8,55,0F,00,44,C1,00,00,00,
94904351,00000121,false,Rx,0,8,BB,06,00,80,37,5A,7E,FE,
94904585,00000147,false,Rx,0,8,00,00,00,00,F0,97,60,1D,
94904820,00000391,false,Rx,0,8,11,90,22,44,00,27,00,22,
94905055,000003BE,false,Rx,0,8,54,0B,E6,00,C8,80,00,80,
94905304,000003C7,false,Rx,0,8,80,10,24,00,00,40,80,00,
94908786,00000086,false,Rx,0,8,A0,0B,01,20,00,00,00,00,
94909651,000000B2,false,Rx,0,8,00,00,00,00,00,00,00,00,
94909904,00000101,false,Rx,0,8,08,05,81,01,A2,08,00,00,
94910179,00000106,false,Rx,0,8,F3,05,63,00,02,00,00,00,
94910434,0000011E,false,Rx,0,8,0F,05,00,00,00,00,00,00,
94911454,000000AD,false,Rx,0,8,74,E5,BF,FF,00,14,00,00,
94911708,000000AE,false,Rx,0,8,E1,05,00,00,FF,3C,01,02,
94911884,000000AF,false,Rx,0,4,83,7E,3A,01,00,00,00,00,
94912018,00000128,false,Rx,0,3,80,00,00,00,00,00,00,00,
94912267,0000012D,false,Rx,0,8,89,83,7F,00,00,00,FE,3F,
94912688,000000A7,false,Rx,0,8,D3,ED,DF,7F,FD,FD,A7,3D,
94912924,000000A8,false,Rx,0,8,B9,AD,1D,21,82,64,FC,0D,
94920517,00000086,false,Rx,0,8,B3,0C,01,20,00,00,00,00,
94920522,000000B2,false,Rx,0,8,00,00,00,00,00,00,00,00,
94920527,0000012B,false,Rx,0,8,8E,4F,40,28,00,00,00,00,
94920533,000000FD,false,Rx,0,8,B7,D5,1F,80,00,00,00,00,
94920538,00000116,false,Rx,0,8,B2,05,01,04,00,00,00,FF,
94921423,000000AD,false,Rx,0,8,6A,E6,BF,FF,00,14,00,00,
94921677,000000AE,false,Rx,0,8,BA,06,00,00,FF,3C,01,02,
94921827,000000AF,false,Rx,0,4,83,7F,00,00,00,00,00,00,
94922087,00000464,false,Rx,0,8,08,4C,00,00,00,00,00,00,
94922679,000000A7,false,Rx,0,8,58,EE,DF,7F,FD,FD,A7,3D,
94922914,000000A8,false,Rx,0,8,33,AE,1D,21,82,64,F8,0D,
94923149,00000107,false,Rx,0,8,00,00,F8,2C,01,00,C7,84,
94923397,00000120,false,Rx,0,8,40,07,00,02,01,08,FF,01,
94923611,00000121,false,Rx,0,8,D5,07,00,C0,37,5A,7E,FE,
94923866,00000147,false,Rx,0,8,00,00,00,00,F0,97,60,1D,
94927122,0000031E,false,Rx,0,8,FB,F0,3F,00,00,00,00,40,
94927366,0000032C,false,Rx,0,8,00,0F,00,00,98,24,00,00,
94927620,0000032F,false,Rx,0,8,00,FF,00,00,00,00,00,01,
94928778,00000086,false,Rx,0,8,D7,0D,01,20,00,00,00,00,
94929562,000000B2,false,Rx,0,8,00,00,00,00,00,00,00,00,
94929815,00000101,false,Rx,0,8,2E,06,81,01,A2,0C,00,00,
94930130,00000106,false,Rx,0,8,5F,06,63,00,02,00,00,00,
94930381,0000011E,false,Rx,0,8,A3,06,00,00,00,00,00,00,
94931462,000000AD,false,Rx,0,8,35,E7,BF,FF,00,14,00,00,
94931716,000000AE,false,Rx,0,8,28,07,00,00,FF,3C,01,02,
94931901,000000AF,false,Rx,0,4,83,70,00,00,00,00,00,00,
94932036,00000128,false,Rx,0,3,84,02,C7,00,00,00,00,00,
94932224,000003C0,false,Rx,0,4,70,0D,03,00,00,00,00,00,
94932447,0000012D,false,Rx,0,8,06,84,7F,00,00,00,FE,3F,
94932681,000003D6,false,Rx,0,8,09,00,00,00,00,00,30,00,
94932915,000000A7,false,Rx,0,8,86,EF,DF,7F,FD,FD,A7,3D,
94933151,000000A8,false,Rx,0,8,6B,AF,1D,E1,81,64,F4,0D,
94933442,1B000053,true,Rx,0,8,53,00,04,01,01,00,00,00,
94933873,000005F0,false,Rx,0,8,FD,00,64,00,00,64,00,00,
94934995,00000365,false,Rx,0,8,AD,06,13,00,8E,0F,88,7A,
94941723,000003B5,false,Rx,0,8,87,FE,12,40,0C,A3,20,00,
94941729,00000086,false,Rx,0,8,7B,0E,01,20,00,00,00,00,
94941734,000000B2,false,Rx,0,8,00,00,00,00,00,00,00,00,
94941739,000000FD,false,Rx,0,8,A5,D6,1F,80,00,00,00,00,
94941745,1B000015,true,Rx,0,8,15,00,04,02,01,00,00,00,
94941750,000005F7,false,Rx,0,8,00,FF,FB,DF,FF,FE,FF,FF,
94941755,00000116,false,Rx,0,8,1E,06,01,04,00,00,00,FF,
94941761,000000AD,false,Rx,0,8,A2,E8,BF,FF,00,14,00,00,
94941766,000000AE,false,Rx,0,8,5F,08,00,00,FF,3C,01,02,
94941863,000000AF,false,Rx,0,4,83,71,C5,01,00,00,00,00,
94942691,000000A7,false,Rx,0,8,4F,E0,DF,7F,FD,FD,A7,3D,
94942926,000000A8,false,Rx,0,8,4B,A0,1D,E1,81,64,F8,0D,
94943161,00000107,false,Rx,0,8,00,00,F8,2C,01,00,C7,84,
94943382,00000120,false,Rx,0,8,19,08,00,02,01,08,FF,01,
94943642,00000121,false,Rx,0,8,16,08,00,C0,37,5A,7E,FE,
94943876,00000147,false,Rx,0,8,00,00,00,00,F0,9B,60,1D,
94945003,000005AC,false,Rx,0,8,00,00,FF,FE,FE,F7,07,00,
94945631,0000030B,false,Rx,0,8,10,20,00,00,08,00,00,10,
94948797,00000086,false,Rx,0,8,1F,0F,01,20,00,00,00,00,
94949560,000000B2,false,Rx,0,8,00,00,00,00,00,00,00,00,
94949815,0000012B,false,Rx,0,8,05,40,40,28,00,00,00,00,
94950069,00000101,false,Rx,0,8,71,07,80,01,A2,0A,00,00,
94950316,00000106,false,Rx,0,8,3B,07,63,00,02,00,00,00,
94950558,0000011E,false,Rx,0,8,C7,07,00,00,00,00,00,00,
94951461,000000AD,false,Rx,0,8,A6,E9,BF,FF,00,14,00,00,
94951716,000000AE,false,Rx,0,8,B7,09,00,00,FF,3C,01,02,
94951870,000000AF,false,Rx,0,4,83,72,C5,01,00,00,00,00,
94952027,00000128,false,Rx,0,3,80,00,00,00,00,00,00,00,
94952315,1B000010,true,Rx,0,8,10,00,04,05,11,00,00,00,
94952559,0000012D,false,Rx,0,8,79,85,7F,00,00,00,FE,3F,
94952832,1B000076,true,Rx,0,8,76,00,04,01,01,00,0A,00,
94953067,000000A7,false,Rx,0,8,C7,E1,DF,7F,FD,FD,A7,3D,
94953295,000000A8,false,Rx,0,8,31,A1,1D,E1,81,64,F8,0D,
94954054,00000040,false,Rx,0,8,17,00,00,44,C1,00,00,00,
94955054,16A95414,true,Rx,0,8,00,30,7E,C3,0F,00,00,00,
94955297,000003D8,false,Rx,0,8,00,00,08,00,00,00,00,00,
94961747,00000520,false,Rx,0,8,4B,02,00,08,00,0A,00,0A,
94961752,00000086,false,Rx,0,8,5D,00,01,20,00,00,00,00,
94961758,000000B2,false,Rx,0,8,00,00,00,00,00,00,00,00,
94961763,000000FD,false,Rx,0,8,9F,D7,1F,80,00,00,00,00,
94961768,00000116,false,Rx,0,8,7A,07,01,04,00,00,00,FF,
94961774,00000392,false,Rx,0,8,42,24,00,00,00,00,00,04,
94961779,000000AD,false,Rx,0,8,F7,EA,BF,FF,00,14,00,00,
94961784,000000AE,false,Rx,0,8,CB,0A,00,00,FF,3C,01,02,
94961881,000000AF,false,Rx,0,4,83,73,00,00,00,00,00,00,
94962672,000000A7,false,Rx,0,8,B3,E2,DF,7F,FD,FD,A7,3D,
94962906,000000A8,false,Rx,0,8,E5,A2,1D,E1,81,64,FC,0D,
94963141,00000107,false,Rx,0,8,00,00,F8,2C,01,00,D2,84,
94963369,00000120,false,Rx,0,8,4F,09,00,02,01,08,FF,01,
94963609,00000121,false,Rx,0,8,D4,09,00,80,37,5A,7E,FE,
94963852,00000147,false,Rx,0,8,00,00,00,00,F0,9B,60,1D,
94964993,000003DB,false,Rx,0,8,50,00,01,04,07,24,01,A3,
94968778,00000086,false,Rx,0,8,39,01,01,20,00,00,00,00,
94969521,000000B2,false,Rx,0,8,00,00,00,00,00,00,00,00,
94969777,00000101,false,Rx,0,8,72,08,80,01,A2,05,00,00,
94970130,00000106,false,Rx,0,8,79,08,63,00,02,00,00,00,
94970382,0000011E,false,Rx,0,8,85,08,00,00,00,00,00,00,
94971463,000000AD,false,Rx,0,8,42,EB,BF,FF,00,14,00,00,
94971718,000000AE,false,Rx,0,8,69,0B,00,00,FF,3C,01,02,
94971872,000000AF,false,Rx,0,4,83,74,00,00,00,00,00,00,
94972029,00000128,false,Rx,0,3,84,FF,0F,00,00,00,00,00,
94972276,00000462,false,Rx,0,8,00,00,38,00,00,01,00,00,
94972520,0000012D,false,Rx,0,8,C9,86,7F,00,00,00,FE,3F,
94972754,000000A7,false,Rx,0,8,32,E3,DF,7F,FD,FD,A7,3D,
94972988,000000A8,false,Rx,0,8,0A,A3,1D,E1,81,64,FC,0D,
94975003,000003DD,false,Rx,0,8,48,04,10,08,FE,4F,07,00,
94980560,0000031E,false,Rx,0,8,31,F1,3F,00,00,00,00,40,
94980565,0000032C,false,Rx,0,8,00,0F,00,00,98,24,00,00,
94980570,0000032F,false,Rx,0,8,00,FF,00,00,00,00,00,01,
94980576,00000086,false,Rx,0,8,95,02,01,20,00,00,00,00,
94980581,000000B2,false,Rx,0,8,00,00,00,00,00,00,00,00,
94980586,0000012B,false,Rx,0,8,77,41,40,28,00,00,00,00,
94980592,000000FD,false,Rx,0,8,58,D8,1F,80,00,00,00,00,
94980597,00000116,false,Rx,0,8,38,08,01,04,00,00,00,FF,
94981462,000000AD,false,Rx,0,8,2F,EC,BF,FF,00,14,00,00,
94981716,000000AE,false,Rx,0,8,D1,0C,00,00,FF,3C,01,02,
94981871,000000AF,false,Rx,0,4,83,75,34,01,00,00,00,00,
94982105,000000B1,false,Rx,0,8,4D,2F,00,00,00,00,00,00,
94982697,000000A7,false,Rx,0,8,08,E4,DF,7F,FD,FD,A7,3D,
94982932,000000A8,false,Rx,0,8,9E,A4,1D,E1,81,64,F8,0D,
94983166,00000107,false,Rx,0,8,00,00,F8,2C,01,00,D2,84,
94983401,00000120,false,Rx,0,8,94,0A,00,02,01,08,FF,01,
94983636,00000121,false,Rx,0,8,B1,0A,00,80,37,5A,7E,FE,
94983891,00000147,false,Rx,0,8,00,00,00,00,F0,9B,60,1D,
94985014,00000365,false,Rx,0,8,AD,06,13,00,8D,0F,88,7A,
94988777,00000086,false,Rx,0,8,F1,03,01,20,00,00,00,00,
94989560,000000B2,false,Rx,0,8,00,00,00,00,00,00,00,00,
94989815,00000101,false,Rx,0,8,A3,09,80,01,A2,04,00,00,
94990128,00000106,false,Rx,0,8,1D,09,63,00,02,00,00,00,
94990373,0000011E,false,Rx,0,8,E1,09,00,00,00,00,00,00,
94991473,000000AD,false,Rx,0,8,5E,ED,BF,FF,00,14,00,00,
94991727,000000AE,false,Rx,0,8,B2,0D,00,00,FF,3C,01,02,
94991883,000000AF,false,Rx,0,4,83,76,34,01,00,00,00,00,
94992039,00000128,false,Rx,0,3,80,00,00,00,00,00,00,00,
94992285,0000012D,false,Rx,0,8,98,87,7F,00,00,00,FE,3F,
94992528,000003C8,false,Rx,0,8,00,00,54,24,00,60,11,94,
94992762,000000A7,false,Rx,0,8,73,E5,DF,7F,FD,FD,A7,3D,
94992997,000000A8,false,Rx,0,8,BC,A5,1D,E1,81,64,F4,0D,
94993293,1B000077,true,Rx,0,8,77,00,04,02,01,00,00,00,
94995014,000003DE,false,Rx,0,8,FE,00,00,00,00,00,00,00,
94995574,0000030B,false,Rx,0,8,10,21,00,00,08,00,00,10,
95001754,00000086,false,Rx,0,8,E2,04,01,20,00,00,00,00,
95001759,000003E5,false,Rx,0,8,22,26,00,00,00,00,00,00,
95001765,000000B2,false,Rx,0,8,00,00,00,00,00,00,00,00,
95001770,000000FD,false,Rx,0,8,6A,D9,1F,80,00,00,00,00,
95001775,00000116,false,Rx,0,8,5C,09,01,04,00,00,00,FF,
95001781,000000AD,false,Rx,0,8,84,EE,BF,FF,00,14,00,00,
95001832,000000AE,false,Rx,0,8,8A,0E,00,00,FF,3C,01,02,
95001837,000000AF,false,Rx,0,4,83,77,00,00,00,00,00,00,
95002097,00000394,false,Rx,0,8,B5,16,00,1A,00,00,00,00,
95002705,000000A7,false,Rx,0,8,E0,E6,DF,7F,FD,FD,A7,3D,
95002941,000000A8,false,Rx,0,8,B4,A6,1D,E1,81,64,F0,0D,
95003176,00000107,false,Rx,0,8,00,00,F8,2C,01,00,DD,84,
95003409,00000120,false,Rx,0,8,38,0B,00,02,01,08,FF,01,
95003644,00000121,false,Rx,0,8,1A,0B,00,80,37,5A,7E,FE,
95003900,00000147,false,Rx,0,8,00,00,00,00,F0,9B,60,1D,
95004135,00000040,false,Rx,0,8,73,01,00,44,C1,00,00,00,
95004391,000002C2,false,Rx,0,8,00,00,00,00,00,00,00,00,
95004626,00000391,false,Rx,0,8,11,90,22,43,00,27,00,22,
95004861,000003BE,false,Rx,0,8,D1,0C,E6,00,C8,80,00,80,
95005094,000003C7,false,Rx,0,8,01,10,24,00,00,40,80,00,
95005405,17F00076,true,Rx,0,8,20,76,00,00,00,00,00,80,
95005618,00000640,false,Rx,0,8,E0,92,9D,CC,7D,A0,0F,44,
95005848,00000647,false,Rx,0,8,B8,FD,FF,7F,00,00,00,13,
95006107,0000065F,false,Rx,0,8,2E,20,00,00,00,00,2E,7F,
95006363,00000670,false,Rx,0,8,19,10,00,00,00,03,00,88,
95008785,00000086,false,Rx,0,8,86,05,01,20,00,00,00,00,
95009553,0000012B,false,Rx,0,8,D3,42,40,28,00,00,00,00,
95009807,000000B2,false,Rx,0,8,00,00,00,00,00,00,00,00,
95010062,00000101,false,Rx,0,8,34,0A,81,01,A2,02,00,00,
95010308,00000106,false,Rx,0,8,B1,0A,63,00,02,00,00,00,
95010551,0000011E,false,Rx,0,8,4D,0A,00,00,00,00,00,00,
95010824,000006B4,false,Rx,0,8,00,91,97,71,29,33,56,57,
95011493,000000AD,false,Rx,0,8,D5,EF,BF,FF,00,14,00,00,
95011726,000000AE,false,Rx,0,8,68,0F,00,00,FF,3C,01,02,
95011903,000000AF,false,Rx,0,4,83,78,00,00,00,00,00,00,
95012059,00000128,false,Rx,0,3,80,00,00,00,00,00,00,00,
95012356,0000012D,false,Rx,0,8,57,88,7F,00,00,00,FE,3F,
95012650,000000A7,false,Rx,0,8,69,E7,DF,7F,FD,FD,A7,3D,
95012884,000000A8,false,Rx,0,8,06,A7,1D,21,82,64,F4,0D,
95022956,00000086,false,Rx,0,8,2A,06,01,20,00,00,00,00,
95022961,000000B2,false,Rx,0,8,00,00,00,00,00,00,00,00,
95022967,000000FD,false,Rx,0,8,26,DA,1F,80,00,00,00,00,
95022972,00000116,false,Rx,0,8,F0,0A,01,04,00,00,00,FF,
95022977,000000AD,false,Rx,0,8,48,E0,BF,FF,00,14,00,00,
95022983,000000AE,false,Rx,0,8,DF,00,00,00,FF,3C,01,02,
95022988,000000AF,false,Rx,0,4,83,79,00,00,00,00,00,00,
95022993,00000463,false,Rx,0,8,00,E0,3F,00,00,00,00,00,
95022998,000000A7,false,Rx,0,8,24,E8,DF,7F,FD,FD,A7,3D,
95023004,000000A8,false,Rx,0,8,6C,A8,1D,21,82,64,F8,0D,
95023158,00000107,false,Rx,0,8,00,00,F8,2C,01,00,E8,84,
95023414,00000120,false,Rx,0,8,E2,0C,00,02,01,08,FF,01,
95023649,00000121,false,Rx,0,8,DF,0C,00,80,37,5A,7E,FE,
95023884,00000147,false,Rx,0,8,00,00,00,00,F0,9B,60,1D,
95027061,0000031E,false,Rx,0,8,8B,F2,3F,00,00,00,00,40,
95027307,0000032C,false,Rx,0,8,00,0F,00,00,98,24,00,00,
95027550,0000032F,false,Rx,0,8,00,FF,00,00,00,00,00,01,
95028769,00000086,false,Rx,0,8,4E,07,01,20,00,00,00,00,
95029597,000000B2,false,Rx,0,8,00,00,00,00,00,00,00,00,
95029850,00000101,false,Rx,0,8,E1,0B,80,01,A2,00,00,00,
95030099,00000106,false,Rx,0,8,D5,0B,63,00,02,00,00,00,
95030370,0000011E,false,Rx,0,8,29,0B,00,00,00,00,00,00,
95031453,000000AD,false,Rx,0,8,86,E1,BF,FF,00,14,00,00,
95031629,000003C0,false,Rx,0,4,80,0E,03,00,00,00,00,00,
95031857,000000AE,false,Rx,0,8,30,01,00,00,FF,3C,01,02,
95032038,000000AF,false,Rx,0,4,83,7A,00,00,00,00,00,00,
95032202,00000128,false,Rx,0,3,84,20,38,00,00,00,00,00,
95032445,000003D6,false,Rx,0,8,0A,00,00,00,00,00,30,00,
95032659,000000A7,false,Rx,0,8,F4,E9,DF,7F,FD,FD,A7,3D,
95032894,000000A8,false,Rx,0,8,1E,A9,1D,21,82,64,F8,0D,
95033138,0000012D,false,Rx,0,8,F2,89,7F,00,00,00,FE,3F,
95034993,00000365,false,Rx,0,8,AD,06,13,00,8E,0F,88,7A,
95041770,000003B5,false,Rx,0,8,87,FE,12,40,0C,A3,20,00,
95041775,00000086,false,Rx,0,8,0C,08,01,20,00,00,00,00,
95041781,000005EA,false,Rx,0,8,00,00,00,36,F8,FE,FB,FF,
95041786,000000B2,false,Rx,0,8,00,00,00,00,00,00,00,00,
95041791,000000FD,false,Rx,0,8,09,DB,1F,80,00,00,00,00,
95041797,00000116,false,Rx,0,8,94,0B,01,04,00,00,00,FF,
95041802,0000012B,false,Rx,0,8,8B,43,40,28,00,00,00,00,
95041853,1A55552B,true,Rx,0,8,00,00,00,00,00,FE,F8,03,
95041858,000000AD,false,Rx,0,8,62,E2,BF,FF,00,14,00,00,
95041864,000000AE,false,Rx,0,8,31,02,00,00,FF,3C,01,02,
95041869,000000AF,false,Rx,0,4,83,7B,18,01,00,00,00,00,
95042837,000000A7,false,Rx,0,8,F2,EA,DF,7F,FD,FD,A7,3D,
95043072,000000A8,false,Rx,0,8,41,AA,1D,21,82,64,F8,0D,
95043295,00000107,false,Rx,0,8,00,00,F8,2C,01,00,E8,84,
95043537,00000120,false,Rx,0,8,52,0D,00,02,01,08,FF,01,
95043772,00000121,false,Rx,0,8,CC,0D,00,80,37,5A,7E,FE,
95044002,00000147,false,Rx,0,8,00,00,00,00,F0,9B,60,1D,
95044994,000005AC,false,Rx,0,8,00,00,FF,FE,FE,F7,07,00,
95045648,0000030B,false,Rx,0,8,10,22,00,00,08,00,00,10,
95048786,00000086,false,Rx,0,8,68,09,01,20,00,00,00,00,
95049592,000000B2,false,Rx,0,8,00,00,00,00,00,00,00,00,
95049847,00000101,false,Rx,0,8,F6,0C,81,01,A2,03,00,00,
95050120,00000106,false,Rx,0,8,C6,0C,63,00,02,00,00,00,
95050395,0000011E,false,Rx,0,8,3A,0C,00,00,00,00,00,00,
95051475,000000AD,false,Rx,0,8,E3,E3,BF,FF,00,14,00,00,
95051729,000000AE,false,Rx,0,8,14,03,00,00,FF,3C,01,02,
95051878,000000AF,false,Rx,0,4,83,7C,18,01,00,00,00,00,
95052039,00000128,false,Rx,0,3,80,00,00,00,00,00,00,00,
95052288,0000012D,false,Rx,0,8,7B,8A,7F,00,00,00,FE,3F,
95052670,000000A7,false,Rx,0,8,9C,EB,DF,7F,FD,FD,A7,3D,
95052884,000000A8,false,Rx,0,8,8C,AB,1D,21,82,64,F8,0D,
95054006,00000040,false,Rx,0,8,DF,02,00,44,C1,00,00,00,
95054973,000003D8,false,Rx,0,8,00,00,08,00,00,00,00,00,
95055273,16A95414,true,Rx,0,8,00,30,7E,C3,0F,00,00,00,
95061789,00000086,false,Rx,0,8,C4,0A,01,20,00,00,00,00,
95061794,000000B2,false,Rx,0,8,00,00,00,00,00,00,00,00,
95061845,000000FD,false,Rx,0,8,90,DC,1F,80,00,00,00,00,
95061850,00000116,false,Rx,0,8,87,0C,01,04,00,00,00,FF,
95061856,00000392,false,Rx,0,8,26,25,00,00,00,00,00,04,
95061861,000000AD,false,Rx,0,8,41,E4,BF,FF,00,14,00,00,
95061866,000000AE,false,Rx,0,8,1A,04,00,00,FF,3C,01,02,
95061872,000000AF,false,Rx,0,4,83,7D,00,00,00,00,00,00,
95062681,000000A7,false,Rx,0,8,81,FC,DF,7F,FD,FD,A7,3D,
95062915,000000A8,false,Rx,0,8,92,AC,1D,21,82,64,F8,0D,
95063175,00000107,false,Rx,0,8,00,00,F8,2C,01,00,F3,84,
95063410,00000120,false,Rx,0,8,39,0E,00,02,01,08,FF,01,
95063644,00000121,false,Rx,0,8,5F,0E,00,80,37,5A,7E,FE,
95063877,00000147,false,Rx,0,8,00,00,00,00,F0,9B,60,1D,
95065003,000003DB,false,Rx,0,8,50,00,01,04,07,24,01,A3,
95068790,00000086,false,Rx,0,8,A0,0B,01,20,00,00,00,00,
95069570,0000012B,false,Rx,0,8,0B,44,40,28,00,00,00,00,
95069824,000000B2,false,Rx,0,8,00,00,00,00,00,00,00,00,
95070059,00000101,false,Rx,0,8,5D,0D,81,01,A2,05,00,00,
95070308,00000106,false,Rx,0,8,A2,0D,63,00,02,00,00,00,
95070550,0000011E,false,Rx,0,8,5E,0D,00,00,00,00,00,00,
95070806,000001AB,false,Rx,0,8,22,05,04,02,18,00,04,00,
95071453,000000AD,false,Rx,0,8,74,E5,BF,FF,00,14,00,00,
95071702,000000AE,false,Rx,0,8,E1,05,00,00,FF,3C,01,02,
95071882,000000AF,false,Rx,0,4,83,7E,00,00,00,00,00,00,
95072039,00000128,false,Rx,0,3,84,20,C7,00,00,00,00,00,
95072268,00000464,false,Rx,0,8,7B,BD,EF,C6,C7,4E,91,3C,
95072486,0000012D,false,Rx,0,8,60,8B,7F,00,00,00,FE,3F,
95072725,000000A7,false,Rx,0,8,71,FD,DF,7F,FD,FD,A7,3D,
95072960,000000A8,false,Rx,0,8,81,AD,1D,21,82,64,F8,0D,
95074994,000003DD,false,Rx,0,8,48,04,10,08,FE,4F,07,00,
95081792,0000031E,false,Rx,0,8,C9,F3,3F,00,00,00,00,40,
95081797,0000032C,false,Rx,0,8,00,0F,00,00,98,24,00,00,
95081803,0000032F,false,Rx,0,8,00,FF,00,00,00,00,00,01,
95081854,00000086,false,Rx,0,8,B3,0C,01,20,00,00,00,00,
95081859,000000B2,false,Rx,0,8,00,00,00,00,00,00,00,00,
95081864,000000FD,false,Rx,0,8,19,DD,1F,80,00,00,00,00,
95081870,00000116,false,Rx,0,8,E3,0D,01,04,00,00,00,FF,
95081875,000001A2,false,Rx,0,8,8F,02,00,00,00,00,00,00,
95081880,000000AD,false,Rx,0,8,6A,E6,BF,FF,00,14,00,00,
95081886,000000AE,false,Rx,0,8,BA,06,00,00,FF,3C,01,02,
95081891,000000AF,false,Rx,0,4,83,7F,E7,01,00,00,00,00,
95082110,000000B1,false,Rx,0,8,13,20,00,00,00,00,00,00,
95082798,000000A7,false,Rx,0,8,FA,FE,DF,7F,FD,FD,A7,3D,
95083006,000000A8,false,Rx,0,8,33,AE,1D,21,82,64,F8,0D,
95083248,00000107,false,Rx,0,8,00,00,F8,2C,01,00,F3,84,
95083497,00000120,false,Rx,0,8,EC,0F,00,02,01,08,FF,01,
95083732,00000121,false,Rx,0,8,E9,0F,00,80,37,5A,7E,FE,
95083965,00000147,false,Rx,0,8,00,00,00,00,F0,9B,60,1D,
95085007,00000365,false,Rx,0,8,AD,06,13,00,8E,0F,88,7A,
95088771,00000086,false,Rx,0,8,D7,0D,01,20,00,00,00,00,
95089558,000000B2,false,Rx,0,8,00,00,00,00,00,00,00,00,
95089834,00000101,false,Rx,0,8,44,0E,81,01,A2,04,00,00,
95090128,00000106,false,Rx,0,8,0E,0E,63,00,02,00,00,00,
95090383,0000011E,false,Rx,0,8,F2,0E,00,00,00,00,00,00,
95091470,000000AD,false,Rx,0,8,35,E7,BF,FF,00,14,00,00,
95091724,000000AE,false,Rx,0,8,28,07,00,00,FF,3C,01,02,
95091879,000000AF,false,Rx,0,4,83,70,E7,01,00,00,00,00,
95092035,00000128,false,Rx,0,3,80,00,00,00,00,00,00,00,
95092284,0000012D,false,Rx,0,8,52,8C,7F,00,00,00,FE,3F,
95092528,000003C8,false,Rx,0,8,00,00,54,24,00,60,11,94,
95092761,000000A7,false,Rx,0,8,24,FF,DF,7F,FD,FD,A7,3D,
95092997,000000A8,false,Rx,0,8,F4,AF,1D,21,82,64,F4,0D,
95093284,17F00077,true,Rx,0,8,20,77,00,00,00,00,00,00,
95095006,000003DE,false,Rx,0,8,FE,00,00,00,00,00,00,00,
95095632,0000030B,false,Rx,0,8,10,23,00,00,08,00,00,10,
95101867,0000065E,false,Rx,0,8,00,00,0A,A1,23,00,00,00,
95101872,00000086,false,Rx,0,8,7B,0E,01,20,00,00,00,00,
95101878,000003E5,false,Rx,0,8,3E,27,00,00,00,00,00,00,
95101883,000000B2,false,Rx,0,8,00,00,00,00,00,00,00,00,
95101888,0000012B,false,Rx,0,8,AE,45,40,28,00,00,00,00,
95101894,000000FD,false,Rx,0,8,E6,DE,1F,80,00,00,00,00,
95101899,00000116,false,Rx,0,8,4F,0E,01,04,00,00,00,FF,
95101904,000000AD,false,Rx,0,8,A2,E8,BF,FF,00,14,00,00,
95101910,000000AE,false,Rx,0,8,5F,08,00,00,FF,3C,01,02,
95101915,000000AF,false,Rx,0,4,83,71,00,00,00,00,00,00,
95102718,000000A7,false,Rx,0,8,AA,F0,DF,7F,FD,01,A8,3D,
95102927,000000A8,false,Rx,0,8,99,A0,1D,61,82,64,F0,0D,
95103188,00000107,false,Rx,0,8,00,00,F8,2C,01,00,FF,84,
95103416,00000120,false,Rx,0,8,26,00,00,02,01,08,FF,01,
95103651,00000121,false,Rx,0,8,27,00,00,80,37,5A,7E,FE,
95103916,00000147,false,Rx,0,8,00,00,00,00,F0,9B,60,1D,
95104151,00000040,false,Rx,0,8,BB,03,00,44,C1,00,00,00,
95104381,00000391,false,Rx,0,8,11,90,22,45,00,27,00,22,
95104616,000003BE,false,Rx,0,8,6A,0D,E6,00,C8,80,00,80,
95104846,000003C7,false,Rx,0,8,80,10,24,00,00,40,80,00,
95108796,00000086,false,Rx,0,8,1F,0F,01,20,00,00,00,00,
95109680,000000B2,false,Rx,0,8,00,00,00,00,00,00,00,00,
95109933,00000101,false,Rx,0,8,95,0F,81,01,A2,05,00,00,
95110223,00000106,false,Rx,0,8,6A,0F,63,00,02,00,00,00,
95110467,0000011E,false,Rx,0,8,96,0F,00,00,00,00,00,00,
95111474,000000AD,false,Rx,0,8,A6,E9,BF,FF,00,14,00,00,
95111729,000000AE,false,Rx,0,8,B7,09,00,00,FF,3C,01,02,
95111883,000000AF,false,Rx,0,4,83,72,00,00,00,00,00,00,
95112040,00000128,false,Rx,0,3,84,FF,10,00,00,00,00,00,
95112289,0000012D,false,Rx,0,8,3E,8D,7F,00,00,00,FE,3F,
