Time Stamp,ID,Extended,Dir,Bus,LEN,D1,D2,D3,D4,D5,D6,D7,D8
477213649,17F00010,true,Rx,0,8,20,10,00,00,00,00,00,80,
477713641,17F00010,true,Rx,0,8,20,10,00,00,00,00,00,80,
478213609,17F00010,true,Rx,0,8,20,10,00,00,00,00,00,80,
478713600,17F00010,true,Rx,0,8,20,10,00,00,00,00,00,80,
479213590,17F00010,true,Rx,0,8,20,10,00,00,00,00,00,80,
479713578,17F00010,true,Rx,0,8,20,10,00,00,00,00,00,80,
480213549,17F00010,true,Rx,0,8,20,10,00,00,00,00,00,80,
480713542,17F00010,true,Rx,0,8,20,10,00,00,00,00,00,80,
481093010,000007E0,false,Rx,0,8,02,10,03,00,00,00,00,00,
481102789,000007E8,false,Rx,0,8,06,50,03,00,32,01,F4,AA,
481153128,000007E0,false,Rx,0,8,03,19,02,AE,00,00,00,00,
481193894,000007E8,false,Rx,0,8,03,7F,19,78,AA,AA,AA,AA,
481213544,17F00010,true,Rx,0,8,20,10,00,00,00,00,00,80,
481692879,000007E8,false,Rx,0,8,03,59,02,FF,AA,AA,AA,AA,
481713498,17F00010,true,Rx,0,8,20,10,00,00,00,00,00,80,
481813234,000007E0,false,Rx,0,8,02,10,01,00,00,00,00,00,
481822897,000007E8,false,Rx,0,8,06,50,01,00,32,01,F4,AA,
482053039,000007E1,false,Rx,0,8,02,10,03,00,00,00,00,00,
482061413,000007E9,false,Rx,0,8,06,50,03,00,32,01,F4,AA,
482113208,000007E1,false,Rx,0,8,03,22,F1,91,00,00,00,00,
482121425,000007E9,false,Rx,0,8,10,0E,62,F1,91,30,32,45,
482121693,000007E1,false,Rx,0,8,30,00,01,00,00,00,00,00,
482132472,000007E9,false,Rx,0,8,21,39,32,37,37,37,30,41,
482141394,000007E9,false,Rx,0,8,22,53,AA,AA,AA,AA,AA,AA,
482203212,000007E1,false,Rx,0,8,03,22,F1,A3,00,00,00,00,
482212476,000007E9,false,Rx,0,8,06,62,F1,A3,48,35,34,AA,
482213506,17F00010,true,Rx,0,8,20,10,00,00,00,00,00,80,
482263237,000007E1,false,Rx,0,8,03,22,F1,87,00,00,00,00,
482272913,000007E9,false,Rx,0,8,10,0E,62,F1,87,30,44,39,
482273169,000007E1,false,Rx,0,8,30,00,01,00,00,00,00,00,
482281434,000007E9,false,Rx,0,8,21,33,30,30,30,31,34,4D,
482292171,000007E9,false,Rx,0,8,22,20,AA,AA,AA,AA,AA,AA,
482353136,000007E1,false,Rx,0,8,03,22,F1,89,00,00,00,00,
482361414,000007E9,false,Rx,0,8,07,62,F1,89,35,30,30,35,
482413182,000007E1,false,Rx,0,8,03,22,F1,97,00,00,00,00,
482421438,000007E9,false,Rx,0,8,10,10,62,F1,97,44,51,32,
482421679,000007E1,false,Rx,0,8,30,00,01,00,00,00,00,00,
482432452,000007E9,false,Rx,0,8,21,35,30,2D,36,41,20,4D,
482441417,000007E9,false,Rx,0,8,22,51,42,20,AA,AA,AA,AA,
482503129,000007E1,false,Rx,0,8,03,22,F1,AA,00,00,00,00,
482512177,000007E9,false,Rx,0,8,10,08,62,F1,AA,4A,37,34,
482512444,000007E1,false,Rx,0,8,30,00,01,00,00,00,00,00,
482521417,000007E9,false,Rx,0,8,21,33,20,AA,AA,AA,AA,AA,
482563178,000007E1,false,Rx,0,8,03,22,F1,8C,00,00,00,00,
482572876,000007E9,false,Rx,0,8,10,12,62,F1,8C,54,46,4B,
482573136,000007E1,false,Rx,0,8,30,00,01,00,00,00,00,00,
482581536,000007E9,false,Rx,0,8,21,30,31,39,30,33,31,34,
482592208,000007E9,false,Rx,0,8,22,30,33,35,35,00,AA,AA,
482653168,000007E1,false,Rx,0,8,03,22,F1,9E,00,00,00,00,
482661451,000007E9,false,Rx,0,8,10,12,62,F1,9E,45,56,5F,
482661722,000007E1,false,Rx,0,8,30,00,01,00,00,00,00,00,
482674376,000007E9,false,Rx,0,8,21,54,43,4D,44,51,32,35,
482681413,000007E9,false,Rx,0,8,22,30,30,32,31,00,AA,AA,
482713485,17F00010,true,Rx,0,8,20,10,00,00,00,00,00,80,
482743214,000007E1,false,Rx,0,8,03,22,F1,A2,00,00,00,00,
482752189,000007E9,false,Rx,0,8,10,09,62,F1,A2,30,30,31,
482752436,000007E1,false,Rx,0,8,30,00,01,00,00,00,00,00,
482761434,000007E9,false,Rx,0,8,21,30,30,31,AA,AA,AA,AA,
482803347,000007E1,false,Rx,0,8,03,22,06,00,00,00,00,00,
482812473,000007E9,false,Rx,0,8,05,62,06,00,00,14,AA,AA,
482863138,000007E1,false,Rx,0,8,03,22,06,06,00,00,00,00,
482872904,000007E9,false,Rx,0,8,03,7F,22,31,AA,AA,AA,AA,
482923235,000007E1,false,Rx,0,8,03,22,06,08,00,00,00,00,
482932392,000007E9,false,Rx,0,8,03,7F,22,31,AA,AA,AA,AA,
483213461,17F00010,true,Rx,0,8,20,10,00,00,00,00,00,80,
483283198,000007E1,false,Rx,0,8,03,19,02,AE,00,00,00,00,
483292466,000007E9,false,Rx,0,8,03,59,02,FF,AA,AA,AA,AA,
483343148,000007E1,false,Rx,0,8,02,10,01,00,00,00,00,00,
483352260,000007E9,false,Rx,0,8,06,50,01,00,32,01,F4,AA,
483583055,00000713,false,Rx,0,8,02,10,03,00,00,00,00,00,
483597048,0000077D,false,Rx,0,8,06,50,03,00,32,01,F4,AA,
483643225,00000713,false,Rx,0,8,03,22,F1,91,00,00,00,00,
483676969,0000077D,false,Rx,0,8,03,7F,22,78,AA,AA,AA,AA,
483685934,0000077D,false,Rx,0,8,10,0E,62,F1,91,35,51,30,
483686195,00000713,false,Rx,0,8,30,00,01,00,00,00,00,00,
483696778,0000077D,false,Rx,0,8,21,36,31,34,35,31,37,41,
483706206,0000077D,false,Rx,0,8,22,46,AA,AA,AA,AA,AA,AA,
483713441,17F00010,true,Rx,0,8,20,10,00,00,00,00,00,80,
483763205,00000713,false,Rx,0,8,03,22,F1,A3,00,00,00,00,
483796750,0000077D,false,Rx,0,8,06,62,F1,A3,48,36,32,AA,
483853213,00000713,false,Rx,0,8,03,22,F1,87,00,00,00,00,
483885930,0000077D,false,Rx,0,8,03,7F,22,78,AA,AA,AA,AA,
483896751,0000077D,false,Rx,0,8,10,0E,62,F1,87,35,51,30,
483897020,00000713,false,Rx,0,8,30,00,01,00,00,00,00,00,
483906234,0000077D,false,Rx,0,8,21,36,31,34,35,31,37,41,
483916463,0000077D,false,Rx,0,8,22,51,AA,AA,AA,AA,AA,AA,
483973218,00000713,false,Rx,0,8,03,22,F1,89,00,00,00,00,
484006225,0000077D,false,Rx,0,8,07,62,F1,89,30,34,30,30,
484063237,00000713,false,Rx,0,8,03,22,F1,97,00,00,00,00,
484096706,0000077D,false,Rx,0,8,03,7F,22,78,AA,AA,AA,AA,
484116461,0000077D,false,Rx,0,8,10,10,62,F1,97,45,53,43,
484116715,00000713,false,Rx,0,8,30,00,01,00,00,00,00,00,
484126225,0000077D,false,Rx,0,8,21,20,20,20,20,20,20,20,
484136753,0000077D,false,Rx,0,8,22,20,20,20,AA,AA,AA,AA,
484183353,00000713,false,Rx,0,8,03,22,F1,AA,00,00,00,00,
484213435,17F00010,true,Rx,0,8,20,10,00,00,00,00,00,80,
484216469,0000077D,false,Rx,0,8,03,7F,22,78,AA,AA,AA,AA,
484226218,0000077D,false,Rx,0,8,10,08,62,F1,AA,4A,31,30,
484226471,00000713,false,Rx,0,8,30,00,01,00,00,00,00,00,
484236473,0000077D,false,Rx,0,8,21,34,20,AA,AA,AA,AA,AA,
484273218,00000713,false,Rx,0,8,03,22,F1,8C,00,00,00,00,
484306893,0000077D,false,Rx,0,8,03,7F,22,78,AA,AA,AA,AA,
484326277,0000077D,false,Rx,0,8,10,11,62,F1,8C,35,30,33,
484326530,00000713,false,Rx,0,8,30,00,01,00,00,00,00,00,
484336797,0000077D,false,Rx,0,8,21,31,37,30,30,30,30,30,
484346746,0000077D,false,Rx,0,8,22,30,32,37,33,AA,AA,AA,
484393224,00000713,false,Rx,0,8,03,22,F1,9E,00,00,00,00,
484426218,0000077D,false,Rx,0,8,03,7F,22,78,AA,AA,AA,AA,
484456681,0000077D,false,Rx,0,8,10,1D,62,F1,9E,45,56,5F,
484456954,00000713,false,Rx,0,8,30,00,01,00,00,00,00,00,
484465976,0000077D,false,Rx,0,8,21,42,72,61,6B,65,31,55,
484476844,0000077D,false,Rx,0,8,22,44,53,43,6F,6E,74,69,
484485935,0000077D,false,Rx,0,8,23,4D,4B,31,30,30,45,53,
484496731,0000077D,false,Rx,0,8,24,50,00,AA,AA,AA,AA,AA,
484573202,00000713,false,Rx,0,8,03,22,F1,A2,00,00,00,00,
484606197,0000077D,false,Rx,0,8,03,7F,22,78,AA,AA,AA,AA,
484616474,0000077D,false,Rx,0,8,10,09,62,F1,A2,30,33,36,
484616727,00000713,false,Rx,0,8,30,00,01,00,00,00,00,00,
484626231,0000077D,false,Rx,0,8,21,30,31,30,AA,AA,AA,AA,
484663264,00000713,false,Rx,0,8,03,22,06,00,00,00,00,00,
484677009,0000077D,false,Rx,0,8,10,32,62,06,00,43,FA,6A,
484677263,00000713,false,Rx,0,8,30,00,01,00,00,00,00,00,
484685932,0000077D,false,Rx,0,8,21,A1,34,23,09,6D,80,79,
484696739,0000077D,false,Rx,0,8,22,03,07,80,CA,29,C2,56,
484706225,0000077D,false,Rx,0,8,23,2C,90,01,C0,01,94,3C,
484713424,17F00010,true,Rx,0,8,20,10,00,00,00,00,00,80,
484716474,0000077D,false,Rx,0,8,24,00,43,50,50,E0,04,43,
484726238,0000077D,false,Rx,0,8,25,00,00,01,03,12,12,12,
484736712,0000077D,false,Rx,0,8,26,12,B4,35,35,19,19,32,
484746768,0000077D,false,Rx,0,8,27,32,00,AA,AA,AA,AA,AA,
484783265,00000713,false,Rx,0,8,03,22,06,06,00,00,00,00,
484797016,0000077D,false,Rx,0,8,03,7F,22,31,AA,AA,AA,AA,
484843178,00000713,false,Rx,0,8,03,22,06,08,00,00,00,00,
484856751,0000077D,false,Rx,0,8,03,7F,22,31,AA,AA,AA,AA,
485203224,00000713,false,Rx,0,8,03,19,02,AE,00,00,00,00,
485213404,17F00010,true,Rx,0,8,20,10,00,00,00,00,00,80,
485236470,0000077D,false,Rx,0,8,03,7F,19,78,AA,AA,AA,AA,
485713384,17F00010,true,Rx,0,8,20,10,00,00,00,00,00,80,
486046313,0000077D,false,Rx,0,8,10,1B,59,02,99,00,20,28,
486046567,00000713,false,Rx,0,8,30,00,01,00,00,00,00,00,
486056790,0000077D,false,Rx,0,8,21,08,00,20,2A,08,00,20,
486065998,0000077D,false,Rx,0,8,22,2C,08,00,20,6D,08,00,
486076553,0000077D,false,Rx,0,8,23,20,6E,08,00,40,1B,08,
486133186,00000713,false,Rx,0,8,02,10,01,00,00,00,00,00,
486146527,0000077D,false,Rx,0,8,06,50,01,00,32,01,F4,AA,
486213377,17F00010,true,Rx,0,8,20,10,00,00,00,00,00,80,
486373153,00000746,false,Rx,0,8,02,10,03,00,00,00,00,00,
486387322,000007B0,false,Rx,0,8,06,50,03,00,32,01,F4,AA,
486433205,00000746,false,Rx,0,8,03,22,F1,91,00,00,00,00,
486447608,000007B0,false,Rx,0,8,10,0E,62,F1,91,35,47,4D,
486447866,00000746,false,Rx,0,8,30,00,01,00,00,00,00,00,
486456751,000007B0,false,Rx,0,8,21,39,30,37,30,34,34,45,
486467363,000007B0,false,Rx,0,8,22,20,AA,AA,AA,AA,AA,AA,
486523205,00000746,false,Rx,0,8,03,22,F1,A3,00,00,00,00,
486536733,000007B0,false,Rx,0,8,06,62,F1,A3,48,30,34,AA,
486583194,00000746,false,Rx,0,8,03,22,F1,87,00,00,00,00,
486597007,000007B0,false,Rx,0,8,10,0E,62,F1,87,35,47,4D,
486597262,00000746,false,Rx,0,8,30,00,01,00,00,00,00,00,
486607403,000007B0,false,Rx,0,8,21,39,30,37,30,34,34,45,
486616592,000007B0,false,Rx,0,8,22,20,AA,AA,AA,AA,AA,AA,
486673233,00000746,false,Rx,0,8,03,22,F1,89,00,00,00,00,
486687265,000007B0,false,Rx,0,8,07,62,F1,89,31,38,30,31,
486713351,17F00010,true,Rx,0,8,20,10,00,00,00,00,00,80,
486733363,00000746,false,Rx,0,8,03,22,F1,97,00,00,00,00,
486747474,000007B0,false,Rx,0,8,10,10,62,F1,97,43,6C,69,
486747728,00000746,false,Rx,0,8,30,00,01,00,00,00,00,00,
486756704,000007B0,false,Rx,0,8,21,6D,61,74,72,6F,6E,69,
486767264,000007B0,false,Rx,0,8,22,63,20,20,AA,AA,AA,AA,
486823235,00000746,false,Rx,0,8,03,22,F1,AA,00,00,00,00,
486836790,000007B0,false,Rx,0,8,10,08,62,F1,AA,4A,32,35,
486837039,00000746,false,Rx,0,8,30,00,01,00,00,00,00,00,
486847493,000007B0,false,Rx,0,8,21,35,20,AA,AA,AA,AA,AA,
486883355,00000746,false,Rx,0,8,03,22,F1,8C,00,00,00,00,
486896770,000007B0,false,Rx,0,8,03,7F,22,31,AA,AA,AA,AA,
486943237,00000746,false,Rx,0,8,03,22,F1,9E,00,00,00,00,
486956573,000007B0,false,Rx,0,8,10,1C,62,F1,9E,45,56,5F,
486956834,00000746,false,Rx,0,8,30,00,01,00,00,00,00,00,
486967177,000007B0,false,Rx,0,8,21,41,43,43,6C,69,6D,61,
486976494,000007B0,false,Rx,0,8,22,42,48,42,56,57,33,37,
486987205,000007B0,false,Rx,0,8,23,58,00,00,00,00,00,00,
486996798,000007B0,false,Rx,0,8,24,00,AA,AA,AA,AA,AA,AA,
487033246,00000746,false,Rx,0,8,03,22,F1,A2,00,00,00,00,
487047568,000007B0,false,Rx,0,8,10,09,62,F1,A2,30,30,36,
487047829,00000746,false,Rx,0,8,30,00,01,00,00,00,00,00,
487056540,000007B0,false,Rx,0,8,21,31,34,35,AA,AA,AA,AA,
487093205,00000746,false,Rx,0,8,03,22,06,00,00,00,00,00,
487107233,000007B0,false,Rx,0,8,10,13,62,06,00,02,02,00,
487107507,00000746,false,Rx,0,8,30,00,01,00,00,00,00,00,
487116451,000007B0,false,Rx,0,8,21,24,20,01,00,01,00,04,
487129922,000007B0,false,Rx,0,8,22,00,40,00,10,14,02,AA,
487183265,00000746,false,Rx,0,8,03,22,06,06,00,00,00,00,
487196698,000007B0,false,Rx,0,8,03,7F,22,31,AA,AA,AA,AA,
487213351,17F00010,true,Rx,0,8,20,10,00,00,00,00,00,80,
487243225,00000746,false,Rx,0,8,03,22,06,08,00,00,00,00,
487256509,000007B0,false,Rx,0,8,10,13,62,06,08,FF,FF,FF,
487256763,00000746,false,Rx,0,8,30,00,01,00,00,00,00,00,
487267323,000007B0,false,Rx,0,8,21,FF,FF,FF,00,1F,00,1B,
487276443,000007B0,false,Rx,0,8,22,FF,FF,FF,FF,FF,FF,AA,
487333251,00000746,false,Rx,0,8,03,22,6C,1F,00,00,00,00,
487376350,000007B0,false,Rx,0,8,03,7F,22,78,AA,AA,AA,AA,
487713326,17F00010,true,Rx,0,8,20,10,00,00,00,00,00,80,
488213312,17F00010,true,Rx,0,8,20,10,00,00,00,00,00,80,
488586580,000007B0,false,Rx,0,8,03,7F,22,25,AA,AA,AA,AA,
488623304,00000746,false,Rx,0,8,03,22,64,1F,00,00,00,00,
488666638,000007B0,false,Rx,0,8,03,7F,22,78,AA,AA,AA,AA,
488713309,17F00010,true,Rx,0,8,20,10,00,00,00,00,00,80,
489213294,17F00010,true,Rx,0,8,20,10,00,00,00,00,00,80,
489713264,17F00010,true,Rx,0,8,20,10,00,00,00,00,00,80,
489846116,000007B0,false,Rx,0,8,03,7F,22,25,AA,AA,AA,AA,
489883237,00000746,false,Rx,0,8,03,22,66,1F,00,00,00,00,
489927264,000007B0,false,Rx,0,8,03,7F,22,78,AA,AA,AA,AA,
490213254,17F00010,true,Rx,0,8,20,10,00,00,00,00,00,80,
490713246,17F00010,true,Rx,0,8,20,10,00,00,00,00,00,80,
491105812,000007B0,false,Rx,0,8,03,7F,22,25,AA,AA,AA,AA,
491143258,00000746,false,Rx,0,8,03,22,68,1F,00,00,00,00,
491186000,000007B0,false,Rx,0,8,03,7F,22,78,AA,AA,AA,AA,
491213208,17F00010,true,Rx,0,8,20,10,00,00,00,00,00,80,
491713205,17F00010,true,Rx,0,8,20,10,00,00,00,00,00,80,
492213195,17F00010,true,Rx,0,8,20,10,00,00,00,00,00,80,
492364975,000007B0,false,Rx,0,8,03,7F,22,25,AA,AA,AA,AA,
492403402,00000746,false,Rx,0,8,03,22,6A,1F,00,00,00,00,
492445237,000007B0,false,Rx,0,8,03,7F,22,78,AA,AA,AA,AA,
492713178,17F00010,true,Rx,0,8,20,10,00,00,00,00,00,80,
493213150,17F00010,true,Rx,0,8,20,10,00,00,00,00,00,80,
493626652,000007B0,false,Rx,0,8,03,7F,22,25,AA,AA,AA,AA,
493713155,17F00010,true,Rx,0,8,20,10,00,00,00,00,00,80,
493963313,00000746,false,Rx,0,8,03,19,02,AE,00,00,00,00,
493974303,000007B0,false,Rx,0,8,03,59,02,19,AA,AA,AA,AA,
494023297,00000746,false,Rx,0,8,02,10,01,00,00,00,00,00,
494034205,000007B0,false,Rx,0,8,06,50,01,00,32,01,F4,AA,
494213136,17F00010,true,Rx,0,8,20,10,00,00,00,00,00,80,
494263277,0000070E,false,Rx,0,8,02,10,03,00,00,00,00,00,
494298540,00000778,false,Rx,0,8,06,50,03,00,32,01,F4,AA,
494353383,0000070E,false,Rx,0,8,03,22,F1,91,00,00,00,00,
494381422,00000778,false,Rx,0,8,10,0E,62,F1,91,35,51,30,
494381670,0000070E,false,Rx,0,8,30,00,01,00,00,00,00,00,
494388719,00000778,false,Rx,0,8,21,39,33,37,30,38,37,41,
494398679,00000778,false,Rx,0,8,22,4E,AA,AA,AA,AA,AA,AA,
494443401,0000070E,false,Rx,0,8,03,22,F1,A3,00,00,00,00,
494468634,00000778,false,Rx,0,8,06,62,F1,A3,30,33,32,AA,
494503423,0000070E,false,Rx,0,8,03,22,F1,87,00,00,00,00,
494528540,00000778,false,Rx,0,8,10,0E,62,F1,87,35,51,30,
494528818,0000070E,false,Rx,0,8,30,00,01,00,00,00,00,00,
494538672,00000778,false,Rx,0,8,21,39,33,37,30,38,37,41,
494548659,00000778,false,Rx,0,8,22,4E,AA,AA,AA,AA,AA,AA,
494593337,0000070E,false,Rx,0,8,03,22,F1,89,00,00,00,00,
494618711,00000778,false,Rx,0,8,07,62,F1,89,30,32,32,33,
494653374,0000070E,false,Rx,0,8,03,22,F1,97,00,00,00,00,
494680509,00000778,false,Rx,0,8,10,10,62,F1,97,42,43,4D,
494680762,0000070E,false,Rx,0,8,30,00,01,00,00,00,00,00,
494688692,00000778,false,Rx,0,8,21,20,50,51,33,37,42,4F,
494698633,00000778,false,Rx,0,8,22,53,43,48,AA,AA,AA,AA,
494713115,17F00010,true,Rx,0,8,20,10,00,00,00,00,00,80,
494743442,0000070E,false,Rx,0,8,03,22,F1,AA,00,00,00,00,
494768651,00000778,false,Rx,0,8,10,08,62,F1,AA,4A,35,31,
494768913,0000070E,false,Rx,0,8,30,00,01,00,00,00,00,00,
494781115,00000778,false,Rx,0,8,21,39,20,AA,AA,AA,AA,AA,
494833330,0000070E,false,Rx,0,8,03,22,F1,8C,00,00,00,00,
494858554,00000778,false,Rx,0,8,10,11,62,F1,8C,43,38,36,
494858807,0000070E,false,Rx,0,8,30,00,01,00,00,00,00,00,
494868670,00000778,false,Rx,0,8,21,34,31,37,30,32,31,37,
494880036,00000778,false,Rx,0,8,22,30,30,35,41,AA,AA,AA,
494923415,0000070E,false,Rx,0,8,03,22,F1,9E,00,00,00,00,
494948628,00000778,false,Rx,0,8,10,1D,62,F1,9E,45,56,5F,
494948889,0000070E,false,Rx,0,8,30,00,01,00,00,00,00,00,
494958608,00000778,false,Rx,0,8,21,42,6F,64,79,43,6F,6E,
494968646,00000778,false,Rx,0,8,22,74,72,4D,6F,64,75,6C,
494981178,00000778,false,Rx,0,8,23,31,55,44,53,42,6F,73,
494988668,00000778,false,Rx,0,8,24,63,00,AA,AA,AA,AA,AA,
495043443,0000070E,false,Rx,0,8,03,22,F1,A2,00,00,00,00,
495068659,00000778,false,Rx,0,8,10,09,62,F1,A2,30,31,37,
495068922,0000070E,false,Rx,0,8,30,00,01,00,00,00,00,00,
495079220,00000778,false,Rx,0,8,21,30,30,32,AA,AA,AA,AA,
495133395,0000070E,false,Rx,0,8,03,22,06,00,00,00,00,00,
495168659,00000778,false,Rx,0,8,03,7F,22,31,AA,AA,AA,AA,
495213099,17F00010,true,Rx,0,8,20,10,00,00,00,00,00,80,
495713088,17F00010,true,Rx,0,8,20,10,00,00,00,00,00,80,
496213077,17F00010,true,Rx,0,8,20,10,00,00,00,00,00,80,
496713057,17F00010,true,Rx,0,8,20,10,00,00,00,00,00,80,
497213055,17F00010,true,Rx,0,8,20,10,00,00,00,00,00,80,
497233343,0000070E,false,Rx,0,8,03,22,06,00,00,00,00,00,
497268757,00000778,false,Rx,0,8,03,7F,22,31,AA,AA,AA,AA,
497323541,0000070E,false,Rx,0,8,03,22,06,00,00,00,00,00,
497324502,0000070E,false,Rx,0,8,03,22,06,00,00,00,00,00,
497358612,00000778,false,Rx,0,8,03,7F,22,31,AA,AA,AA,AA,
497413494,0000070E,false,Rx,0,8,03,22,06,00,00,00,00,00,
497414533,0000070E,false,Rx,0,8,03,22,06,00,00,00,00,00,
497448593,00000778,false,Rx,0,8,03,7F,22,31,AA,AA,AA,AA,
497713028,17F00010,true,Rx,0,8,20,10,00,00,00,00,00,80,
498213022,17F00010,true,Rx,0,8,20,10,00,00,00,00,00,80,
498713016,17F00010,true,Rx,0,8,20,10,00,00,00,00,00,80,
499213013,17F00010,true,Rx,0,8,20,10,00,00,00,00,00,80,
499393453,0000070E,false,Rx,0,8,03,22,06,00,00,00,00,00,
499428798,00000778,false,Rx,0,8,03,7F,22,31,AA,AA,AA,AA,
499483461,0000070E,false,Rx,0,8,03,22,06,06,00,00,00,00,
499518811,00000778,false,Rx,0,8,03,7F,22,31,AA,AA,AA,AA,
499603454,0000070E,false,Rx,0,8,03,22,06,00,00,00,00,00,
499638850,00000778,false,Rx,0,8,03,7F,22,31,AA,AA,AA,AA,
499693352,0000070E,false,Rx,0,8,03,22,06,08,00,00,00,00,
499694306,0000070E,false,Rx,0,8,03,22,06,08,00,00,00,00,
499712982,17F00010,true,Rx,0,8,20,10,00,00,00,00,00,80,
499718818,00000778,false,Rx,0,8,10,29,62,06,08,00,01,00,
499719087,0000070E,false,Rx,0,8,30,00,01,00,00,00,00,00,
499728692,00000778,false,Rx,0,8,21,02,FF,FF,FF,FF,FF,FF,
499738930,00000778,false,Rx,0,8,22,FF,FF,FF,FF,FF,FF,00,
499748790,00000778,false,Rx,0,8,23,20,00,38,00,4B,FF,FF,
499758709,00000778,false,Rx,0,8,24,FF,FF,FF,FF,FF,FF,FF,
499768809,00000778,false,Rx,0,8,25,FF,FF,FF,FF,FF,FF,FF,
499813425,0000070E,false,Rx,0,8,03,22,6C,02,00,00,00,00,
499838901,00000778,false,Rx,0,8,10,10,62,6C,02,52,4C,48,
499839163,0000070E,false,Rx,0,8,30,00,01,00,00,00,00,00,
499848671,00000778,false,Rx,0,8,21,53,20,20,20,20,20,20,
499858771,00000778,false,Rx,0,8,22,20,20,20,AA,AA,AA,AA,
499903491,0000070E,false,Rx,0,8,03,22,64,02,00,00,00,00,
499928745,00000778,false,Rx,0,8,07,62,64,02,30,31,30,35,
499963473,0000070E,false,Rx,0,8,03,22,66,02,00,00,00,00,
499988911,00000778,false,Rx,0,8,10,0E,62,66,02,35,51,30,
499989173,0000070E,false,Rx,0,8,30,00,01,00,00,00,00,00,
499998747,00000778,false,Rx,0,8,21,39,35,35,35,34,37,42,
500008790,00000778,false,Rx,0,8,22,20,AA,AA,AA,AA,AA,AA,
500053471,0000070E,false,Rx,0,8,03,22,68,02,00,00,00,00,
500079245,00000778,false,Rx,0,8,06,62,68,02,30,34,32,AA,
500113482,0000070E,false,Rx,0,8,03,22,6A,02,00,00,00,00,
500138861,00000778,false,Rx,0,8,10,17,62,6A,02,53,34,59,
500139097,0000070E,false,Rx,0,8,30,00,01,00,00,00,00,00,
500148770,00000778,false,Rx,0,8,21,31,37,4D,30,31,44,30,
500158691,00000778,false,Rx,0,8,22,33,48,30,31,4D,34,34,
500168804,00000778,false,Rx,0,8,23,53,31,37,AA,AA,AA,AA,
500203482,0000070E,false,Rx,0,8,03,22,6C,38,00,00,00,00,
500212969,17F00010,true,Rx,0,8,20,10,00,00,00,00,00,80,
500228968,00000778,false,Rx,0,8,10,10,62,6C,38,4A,33,39,
500229222,0000070E,false,Rx,0,8,30,00,01,00,00,00,00,00,
500238956,00000778,false,Rx,0,8,21,34,20,50,53,32,32,2E,
500248668,00000778,false,Rx,0,8,22,34,30,39,AA,AA,AA,AA,
500293490,0000070E,false,Rx,0,8,03,22,64,38,00,00,00,00,
500318894,00000778,false,Rx,0,8,07,62,64,38,30,30,30,34,
500353473,0000070E,false,Rx,0,8,03,22,66,38,00,00,00,00,
500381277,00000778,false,Rx,0,8,10,0E,62,66,38,38,56,33,
500381530,0000070E,false,Rx,0,8,30,00,01,00,00,00,00,00,
500388902,00000778,false,Rx,0,8,21,39,35,39,35,39,31,41,
500398833,00000778,false,Rx,0,8,22,20,AA,AA,AA,AA,AA,AA,
500443482,0000070E,false,Rx,0,8,03,22,68,38,00,00,00,00,
500468949,00000778,false,Rx,0,8,06,62,68,38,48,30,33,AA,
500503430,0000070E,false,Rx,0,8,03,22,6A,38,00,00,00,00,
500528691,00000778,false,Rx,0,8,10,17,62,6A,38,30,30,30,
500528954,0000070E,false,Rx,0,8,30,00,01,00,00,00,00,00,
500538888,00000778,false,Rx,0,8,21,30,46,53,54,30,30,31,
500548711,00000778,false,Rx,0,8,22,39,53,4C,31,4F,30,30,
500559204,00000778,false,Rx,0,8,23,30,30,30,AA,AA,AA,AA,
500712924,17F00010,true,Rx,0,8,20,10,00,00,00,00,00,80,
501213016,17F00010,true,Rx,0,8,20,10,00,00,00,00,00,80,
501713012,17F00010,true,Rx,0,8,20,10,00,00,00,00,00,80,
501883392,0000070E,false,Rx,0,8,03,19,02,AE,00,00,00,00,
501929118,00000778,false,Rx,0,8,03,7F,19,78,AA,AA,AA,AA,
502212890,17F00010,true,Rx,0,8,20,10,00,00,00,00,00,80,
502598757,00000778,false,Rx,0,8,10,0B,59,02,99,03,1F,02,
502599022,0000070E,false,Rx,0,8,30,00,01,00,00,00,00,00,
502608744,00000778,false,Rx,0,8,21,09,08,08,17,09,AA,AA,
502663395,0000070E,false,Rx,0,8,02,10,01,00,00,00,00,00,
502698759,00000778,false,Rx,0,8,06,50,01,00,32,01,F4,AA,
502712891,17F00010,true,Rx,0,8,20,10,00,00,00,00,00,80,
502993395,00000715,false,Rx,0,8,02,10,03,00,00,00,00,00,
503002068,0000077F,false,Rx,0,8,06,50,03,00,32,01,F4,AA,
503053520,00000715,false,Rx,0,8,03,19,02,AE,00,00,00,00,
503092573,0000077F,false,Rx,0,8,03,7F,19,78,AA,AA,AA,AA,
503212877,17F00010,true,Rx,0,8,20,10,00,00,00,00,00,80,
503712672,0000077F,false,Rx,0,8,10,13,59,02,99,10,19,00,
503712953,17F00010,true,Rx,0,8,20,10,00,00,00,00,00,80,
503713216,00000715,false,Rx,0,8,30,00,01,00,00,00,00,00,
503721886,0000077F,false,Rx,0,8,21,08,10,0D,00,08,10,00,
503732612,0000077F,false,Rx,0,8,22,00,08,10,14,0A,08,AA,
503773421,00000715,false,Rx,0,8,02,10,01,00,00,00,00,00,
503781934,0000077F,false,Rx,0,8,06,50,01,00,32,01,F4,AA,
504013412,0000070C,false,Rx,0,8,02,10,03,00,00,00,00,00,
504019629,00000776,false,Rx,0,8,06,50,03,00,32,01,F4,AA,
504073529,0000070C,false,Rx,0,8,03,22,F1,91,00,00,00,00,
504109708,00000776,false,Rx,0,8,03,7F,22,78,AA,AA,AA,AA,
504212850,17F00010,true,Rx,0,8,20,10,00,00,00,00,00,80,
504279852,00000776,false,Rx,0,8,10,0E,62,F1,91,35,51,30,
504280115,0000070C,false,Rx,0,8,30,00,01,00,00,00,00,00,
504289568,00000776,false,Rx,0,8,21,39,35,33,35,34,39,45,
504299435,00000776,false,Rx,0,8,22,20,AA,AA,AA,AA,AA,AA,
504343533,0000070C,false,Rx,0,8,03,22,F1,A3,00,00,00,00,
504381086,00000776,false,Rx,0,8,03,7F,22,78,AA,AA,AA,AA,
504619840,00000776,false,Rx,0,8,06,62,F1,A3,30,30,33,AA,
504703608,0000070C,false,Rx,0,8,03,22,F1,87,00,00,00,00,
504712830,17F00010,true,Rx,0,8,20,10,00,00,00,00,00,80,
504739806,00000776,false,Rx,0,8,03,7F,22,78,AA,AA,AA,AA,
504859737,00000776,false,Rx,0,8,10,0E,62,F1,87,35,51,30,
504860007,0000070C,false,Rx,0,8,30,00,01,00,00,00,00,00,
504869272,00000776,false,Rx,0,8,21,39,35,33,35,30,37,48,
504879726,00000776,false,Rx,0,8,22,4C,AA,AA,AA,AA,AA,AA,
504913554,0000070C,false,Rx,0,8,03,22,F1,89,00,00,00,00,
504920138,00000776,false,Rx,0,8,07,62,F1,89,30,31,34,30,
505003549,0000070C,false,Rx,0,8,03,22,F1,97,00,00,00,00,
505039829,00000776,false,Rx,0,8,03,7F,22,78,AA,AA,AA,AA,
505212819,17F00010,true,Rx,0,8,20,10,00,00,00,00,00,80,
505219844,00000776,false,Rx,0,8,10,10,62,F1,97,4C,65,6E,
505220081,0000070C,false,Rx,0,8,30,00,01,00,00,00,00,00,
505229296,00000776,false,Rx,0,8,21,6B,73,2E,20,4D,6F,64,
505239493,00000776,false,Rx,0,8,22,75,6C,20,AA,AA,AA,AA,
505273613,0000070C,false,Rx,0,8,03,22,F1,AA,00,00,00,00,
505309746,00000776,false,Rx,0,8,03,7F,22,78,AA,AA,AA,AA,
505599789,00000776,false,Rx,0,8,10,08,62,F1,AA,4A,35,32,
505600060,0000070C,false,Rx,0,8,30,00,01,00,00,00,00,00,
505609312,00000776,false,Rx,0,8,21,37,20,AA,AA,AA,AA,AA,
505663571,0000070C,false,Rx,0,8,03,22,F1,8C,00,00,00,00,
505699787,00000776,false,Rx,0,8,03,7F,22,78,AA,AA,AA,AA,
505712791,17F00010,true,Rx,0,8,20,10,00,00,00,00,00,80,
505859768,00000776,false,Rx,0,8,10,11,62,F1,8C,31,36,30,
505860014,0000070C,false,Rx,0,8,30,00,01,00,00,00,00,00,
505869313,00000776,false,Rx,0,8,21,31,31,37,30,34,32,32,
505879751,00000776,false,Rx,0,8,22,31,32,39,39,AA,AA,AA,
505933569,0000070C,false,Rx,0,8,03,22,F1,9E,00,00,00,00,
505969747,00000776,false,Rx,0,8,03,7F,22,78,AA,AA,AA,AA,
506183726,00000776,false,Rx,0,8,10,11,62,F1,9E,45,56,5F,
506183992,0000070C,false,Rx,0,8,30,00,01,00,00,00,00,00,
506189759,00000776,false,Rx,0,8,21,53,4D,4C,53,4B,4C,4F,
506199561,00000776,false,Rx,0,8,22,4D,51,42,00,AA,AA,AA,
506212798,17F00010,true,Rx,0,8,20,10,00,00,00,00,00,80,
506233632,0000070C,false,Rx,0,8,03,22,F1,A2,00,00,00,00,
506269757,00000776,false,Rx,0,8,03,7F,22,78,AA,AA,AA,AA,
506499873,00000776,false,Rx,0,8,10,09,62,F1,A2,30,32,30,
506500135,0000070C,false,Rx,0,8,30,00,01,00,00,00,00,00,
506509335,00000776,false,Rx,0,8,21,30,30,32,AA,AA,AA,AA,
506563504,0000070C,false,Rx,0,8,03,22,06,00,00,00,00,00,
506569786,00000776,false,Rx,0,8,05,62,06,00,04,10,AA,AA,
506623530,0000070C,false,Rx,0,8,03,22,06,06,00,00,00,00,
506629668,00000776,false,Rx,0,8,03,7F,22,31,AA,AA,AA,AA,
506683509,0000070C,false,Rx,0,8,03,22,06,08,00,00,00,00,
506689628,00000776,false,Rx,0,8,03,7F,22,31,AA,AA,AA,AA,
506712759,17F00010,true,Rx,0,8,20,10,00,00,00,00,00,80,
507103481,0000070C,false,Rx,0,8,03,19,02,AE,00,00,00,00,
507111129,00000776,false,Rx,0,8,03,59,02,19,AA,AA,AA,AA,
507163491,0000070C,false,Rx,0,8,02,10,01,00,00,00,00,00,
507169951,00000776,false,Rx,0,8,06,50,01,00,32,01,F4,AA,
507212771,17F00010,true,Rx,0,8,20,10,00,00,00,00,00,80,
507403534,00000714,false,Rx,0,8,02,10,03,00,00,00,00,00,
507405658,0000077E,false,Rx,0,8,06,50,03,00,32,00,C8,AA,
507463553,00000714,false,Rx,0,8,03,19,02,AE,00,00,00,00,
507464534,0000077E,false,Rx,0,8,10,2B,59,02,19,FF,FF,3E,
507464786,00000714,false,Rx,0,8,30,00,01,00,00,00,00,00,
507465692,0000077E,false,Rx,0,8,21,08,FF,FF,40,08,FF,FF,
507466791,0000077E,false,Rx,0,8,22,02,08,FF,FF,05,08,FF,
507467736,0000077E,false,Rx,0,8,23,FF,08,08,FF,FF,0D,08,
507468738,0000077E,false,Rx,0,8,24,FF,FF,12,08,FF,FF,17,
507469732,0000077E,false,Rx,0,8,25,08,FF,FF,1C,08,FF,FF,
507470718,0000077E,false,Rx,0,8,26,21,08,AA,AA,AA,AA,AA,
507523510,00000714,false,Rx,0,8,02,10,01,00,00,00,00,00,
507525816,0000077E,false,Rx,0,8,06,50,01,00,32,00,C8,AA,
507712729,17F00010,true,Rx,0,8,20,10,00,00,00,00,00,80,
507763455,00000710,false,Rx,0,8,02,10,03,00,00,00,00,00,
507770454,0000077A,false,Rx,0,8,06,50,03,00,32,01,F4,AA,
507823633,00000710,false,Rx,0,8,03,22,F1,91,00,00,00,00,
507830324,0000077A,false,Rx,0,8,10,0E,62,F1,91,33,51,30,
507830577,00000710,false,Rx,0,8,30,00,01,00,00,00,00,00,
507840304,0000077A,false,Rx,0,8,21,39,30,37,35,33,30,43,
507850292,0000077A,false,Rx,0,8,22,20,AA,AA,AA,AA,AA,AA,
507883609,00000710,false,Rx,0,8,03,22,F1,A3,00,00,00,00,
507890317,0000077A,false,Rx,0,8,06,62,F1,A3,35,31,35,AA,
507943612,00000710,false,Rx,0,8,03,22,F1,87,00,00,00,00,
507950315,0000077A,false,Rx,0,8,10,0E,62,F1,87,33,51,30,
507950589,00000710,false,Rx,0,8,30,00,01,00,00,00,00,00,
507960297,0000077A,false,Rx,0,8,21,39,30,37,35,33,30,43,
507970297,0000077A,false,Rx,0,8,22,20,AA,AA,AA,AA,AA,AA,
508033541,00000710,false,Rx,0,8,03,22,F1,89,00,00,00,00,
508040303,0000077A,false,Rx,0,8,07,62,F1,89,35,32,38,36,
508093540,00000710,false,Rx,0,8,03,22,F1,97,00,00,00,00,
508100383,0000077A,false,Rx,0,8,10,10,62,F1,97,47,57,20,
508100636,00000710,false,Rx,0,8,30,00,01,00,00,00,00,00,
508110297,0000077A,false,Rx,0,8,21,4D,51,42,20,48,69,67,
508120336,0000077A,false,Rx,0,8,22,68,20,20,AA,AA,AA,AA,
508153540,00000710,false,Rx,0,8,03,22,F1,AA,00,00,00,00,
508160304,0000077A,false,Rx,0,8,10,08,62,F1,AA,4A,35,33,
508160578,00000710,false,Rx,0,8,30,00,01,00,00,00,00,00,
508170283,0000077A,false,Rx,0,8,21,33,20,AA,AA,AA,AA,AA,
508212712,17F00010,true,Rx,0,8,20,10,00,00,00,00,00,80,
508213533,00000710,false,Rx,0,8,03,22,F1,8C,00,00,00,00,
508220317,0000077A,false,Rx,0,8,10,11,62,F1,8C,32,32,30,
508220569,00000710,false,Rx,0,8,30,00,01,00,00,00,00,00,
508230297,0000077A,false,Rx,0,8,21,32,31,37,30,30,38,34,
508240270,0000077A,false,Rx,0,8,22,30,30,33,30,AA,AA,AA,
508273846,00000710,false,Rx,0,8,03,22,F1,9E,00,00,00,00,
508280303,0000077A,false,Rx,0,8,10,0E,62,F1,9E,45,56,5F,
508280578,00000710,false,Rx,0,8,30,00,01,00,00,00,00,00,
508290272,0000077A,false,Rx,0,8,21,47,61,74,65,77,4E,46,
508300335,0000077A,false,Rx,0,8,22,00,AA,AA,AA,AA,AA,AA,
508333628,00000710,false,Rx,0,8,03,22,F1,A2,00,00,00,00,
508340291,0000077A,false,Rx,0,8,10,09,62,F1,A2,30,31,33,
508340570,00000710,false,Rx,0,8,30,00,01,00,00,00,00,00,
508350285,0000077A,false,Rx,0,8,21,30,32,30,AA,AA,AA,AA,
508393620,00000710,false,Rx,0,8,03,22,06,00,00,00,00,00,
508400324,0000077A,false,Rx,0,8,10,21,62,06,00,09,01,00,
508400578,00000710,false,Rx,0,8,30,00,01,00,00,00,00,00,
508410293,0000077A,false,Rx,0,8,21,08,70,08,59,00,FB,00,
508420297,0000077A,false,Rx,0,8,22,22,0A,1E,0F,00,00,00,
508430297,0000077A,false,Rx,0,8,23,01,05,00,00,00,00,00,
508440297,0000077A,false,Rx,0,8,24,00,00,00,00,00,00,AA,
508483532,00000710,false,Rx,0,8,03,22,06,06,00,00,00,00,
508490292,0000077A,false,Rx,0,8,03,7F,22,31,AA,AA,AA,AA,
508543553,00000710,false,Rx,0,8,03,22,06,08,00,00,00,00,
508550315,0000077A,false,Rx,0,8,10,33,62,06,08,00,1D,FF,
508550569,00000710,false,Rx,0,8,30,00,01,00,00,00,00,00,
508560297,0000077A,false,Rx,0,8,21,FF,FF,FF,00,69,FF,FF,
508570297,0000077A,false,Rx,0,8,22,FF,FF,FF,FF,FF,FF,00,
508580335,0000077A,false,Rx,0,8,23,31,FF,FF,FF,FF,FF,FF,
508590297,0000077A,false,Rx,0,8,24,FF,FF,FF,FF,FF,FF,FF,
508600297,0000077A,false,Rx,0,8,25,FF,FF,FF,FF,FF,FF,FF,
508610297,0000077A,false,Rx,0,8,26,FF,FF,FF,FF,FF,FF,FF,
508620310,0000077A,false,Rx,0,8,27,FF,FF,FF,AA,AA,AA,AA,
508663631,00000710,false,Rx,0,8,03,22,6C,69,00,00,00,00,
508700356,0000077A,false,Rx,0,8,03,7F,22,78,AA,AA,AA,AA,
508712687,17F00010,true,Rx,0,8,20,10,00,00,00,00,00,80,
509060276,0000077A,false,Rx,0,8,10,10,62,6C,69,57,45,43,
509060551,00000710,false,Rx,0,8,30,00,01,00,00,00,00,00,
509070257,0000077A,false,Rx,0,8,21,48,53,45,4C,52,49,43,
509080256,0000077A,false,Rx,0,8,22,48,54,45,AA,AA,AA,AA,
509113607,00000710,false,Rx,0,8,03,22,64,69,00,00,00,00,
509150277,0000077A,false,Rx,0,8,03,7F,22,78,AA,AA,AA,AA,
509212680,17F00010,true,Rx,0,8,20,10,00,00,00,00,00,80,
509410259,0000077A,false,Rx,0,8,07,62,64,69,30,30,34,31,
509443672,00000710,false,Rx,0,8,03,22,66,69,00,00,00,00,
509480256,0000077A,false,Rx,0,8,03,7F,22,78,AA,AA,AA,AA,
509660264,0000077A,false,Rx,0,8,10,0E,62,66,69,35,51,30,
509660539,00000710,false,Rx,0,8,30,00,01,00,00,00,00,00,
509670245,0000077A,false,Rx,0,8,21,39,30,37,31,35,35,41,
509680284,0000077A,false,Rx,0,8,22,20,AA,AA,AA,AA,AA,AA,
509712668,17F00010,true,Rx,0,8,20,10,00,00,00,00,00,80,
509713631,00000710,false,Rx,0,8,03,22,68,69,00,00,00,00,
509750255,0000077A,false,Rx,0,8,03,7F,22,78,AA,AA,AA,AA,
509960258,0000077A,false,Rx,0,8,06,62,68,69,48,35,35,AA,
510013631,00000710,false,Rx,0,8,03,22,6A,69,00,00,00,00,
510050253,0000077A,false,Rx,0,8,03,7F,22,78,AA,AA,AA,AA,
510212650,17F00010,true,Rx,0,8,20,10,00,00,00,00,00,80,
510360253,0000077A,false,Rx,0,8,10,17,62,6A,69,30,33,31,
510360506,00000710,false,Rx,0,8,30,00,01,00,00,00,00,00,
510370217,0000077A,false,Rx,0,8,21,36,33,39,32,20,20,20,
510380277,0000077A,false,Rx,0,8,22,20,20,20,20,20,20,20,
510390218,0000077A,false,Rx,0,8,23,20,20,20,AA,AA,AA,AA,
510712672,17F00010,true,Rx,0,8,20,10,00,00,00,00,00,80,
510763620,00000710,false,Rx,0,8,03,19,02,AE,00,00,00,00,
510770660,0000077A,false,Rx,0,8,10,1B,59,02,19,02,02,0C,
510770922,00000710,false,Rx,0,8,30,00,01,00,00,00,00,00,
510780256,0000077A,false,Rx,0,8,21,08,02,02,0E,08,02,02,
510790225,0000077A,false,Rx,0,8,22,14,08,02,02,31,08,02,
510800204,0000077A,false,Rx,0,8,23,02,4A,08,02,02,4B,08,
510853510,00000710,false,Rx,0,8,02,10,01,00,00,00,00,00,
510860370,0000077A,false,Rx,0,8,06,50,01,00,32,01,F4,AA,
511093521,00000730,false,Rx,0,8,02,10,03,00,00,00,00,00,
511096771,0000079A,false,Rx,0,8,06,50,03,00,28,01,EF,AA,
511153640,00000730,false,Rx,0,8,03,22,F1,91,00,00,00,00,
511156553,0000079A,false,Rx,0,8,10,0E,62,F1,91,33,47,30,
511156807,00000730,false,Rx,0,8,30,00,01,00,00,00,00,00,
511166942,0000079A,false,Rx,0,8,21,38,35,37,35,31,31,41,
511186628,0000079A,false,Rx,0,8,22,47,AA,AA,AA,AA,AA,AA,
511212640,17F00010,true,Rx,0,8,20,10,00,00,00,00,00,80,
511243679,00000730,false,Rx,0,8,03,22,F1,A3,00,00,00,00,
511246473,0000079A,false,Rx,0,8,06,62,F1,A3,48,31,30,AA,
511303588,00000730,false,Rx,0,8,03,22,F1,87,00,00,00,00,
511306253,0000079A,false,Rx,0,8,10,0E,62,F1,87,33,47,30,
511306501,00000730,false,Rx,0,8,30,00,01,00,00,00,00,00,
511316174,0000079A,false,Rx,0,8,21,38,35,37,35,31,31,42,
511336111,0000079A,false,Rx,0,8,22,43,AA,AA,AA,AA,AA,AA,
511393690,00000730,false,Rx,0,8,03,22,F1,89,00,00,00,00,
511395997,0000079A,false,Rx,0,8,07,62,F1,89,30,30,30,39,
511453629,00000730,false,Rx,0,8,03,22,F1,97,00,00,00,00,
511455718,0000079A,false,Rx,0,8,10,10,62,F1,97,46,4C,41,
511455989,00000730,false,Rx,0,8,30,00,01,00,00,00,00,00,
511465751,0000079A,false,Rx,0,8,21,20,20,20,20,20,20,20,
511485589,0000079A,false,Rx,0,8,22,20,20,20,AA,AA,AA,AA,
511543639,00000730,false,Rx,0,8,03,22,F1,AA,00,00,00,00,
511545470,0000079A,false,Rx,0,8,10,08,62,F1,AA,4A,38,34,
511545744,00000730,false,Rx,0,8,30,00,01,00,00,00,00,00,
511555362,0000079A,false,Rx,0,8,21,34,20,AA,AA,AA,AA,AA,
511603691,00000730,false,Rx,0,8,03,22,F1,8C,00,00,00,00,
511605244,0000079A,false,Rx,0,8,03,7F,22,31,AA,AA,AA,AA,
511663699,00000730,false,Rx,0,8,03,22,F1,9E,00,00,00,00,
511665075,0000079A,false,Rx,0,8,10,19,62,F1,9E,45,56,5F,
511665350,00000730,false,Rx,0,8,30,00,01,00,00,00,00,00,
511675166,0000079A,false,Rx,0,8,21,48,69,67,68,42,65,61,
511694976,0000079A,false,Rx,0,8,22,6D,41,73,73,69,73,41,
511712619,17F00010,true,Rx,0,8,20,10,00,00,00,00,00,80,
511714914,0000079A,false,Rx,0,8,23,55,33,33,58,00,AA,AA,
511753689,00000730,false,Rx,0,8,03,22,F1,A2,00,00,00,00,
511754840,0000079A,false,Rx,0,8,10,09,62,F1,A2,30,30,31,
511755082,00000730,false,Rx,0,8,30,00,01,00,00,00,00,00,
511764770,0000079A,false,Rx,0,8,21,30,31,39,AA,AA,AA,AA,
511813619,00000730,false,Rx,0,8,03,22,06,00,00,00,00,00,
511814849,0000079A,false,Rx,0,8,10,0E,62,06,00,02,02,00,
511815085,00000730,false,Rx,0,8,30,00,01,00,00,00,00,00,
511824618,0000079A,false,Rx,0,8,21,00,00,00,00,00,00,00,
511844550,0000079A,false,Rx,0,8,22,00,AA,AA,AA,AA,AA,AA,
511903654,00000730,false,Rx,0,8,03,22,06,06,00,00,00,00,
511904600,0000079A,false,Rx,0,8,03,7F,22,31,AA,AA,AA,AA,
511963667,00000730,false,Rx,0,8,03,22,06,08,00,00,00,00,
511974178,0000079A,false,Rx,0,8,03,7F,22,31,AA,AA,AA,AA,
512212600,17F00010,true,Rx,0,8,20,10,00,00,00,00,00,80,
512323572,00000730,false,Rx,0,8,03,19,02,AE,00,00,00,00,
512333177,0000079A,false,Rx,0,8,07,59,02,99,CA,00,05,08,
512383522,00000730,false,Rx,0,8,02,10,01,00,00,00,00,00,
512393126,0000079A,false,Rx,0,8,06,50,01,00,28,01,EF,AA,
512623593,0000071D,false,Rx,0,8,02,10,03,00,00,00,00,00,
512712580,17F00010,true,Rx,0,8,20,10,00,00,00,00,00,80,
513212558,17F00010,true,Rx,0,8,20,10,00,00,00,00,00,80,
513712538,17F00010,true,Rx,0,8,20,10,00,00,00,00,00,80,
514212522,17F00010,true,Rx,0,8,20,10,00,00,00,00,00,80,
514712542,17F00010,true,Rx,0,8,20,10,00,00,00,00,00,80,
515212485,17F00010,true,Rx,0,8,20,10,00,00,00,00,00,80,
515233639,0000070F,false,Rx,0,8,02,10,03,00,00,00,00,00,
515257214,00000779,false,Rx,0,8,06,50,03,00,32,01,F4,AA,
515293647,0000070F,false,Rx,0,8,03,22,F1,91,00,00,00,00,
515326016,00000779,false,Rx,0,8,10,0E,62,F1,91,30,43,51,
515326270,0000070F,false,Rx,0,8,30,00,01,00,00,00,00,00,
515336231,00000779,false,Rx,0,8,21,35,32,35,31,33,30,20,
515345992,00000779,false,Rx,0,8,22,20,AA,AA,AA,AA,AA,AA,
515383756,0000070F,false,Rx,0,8,03,22,F1,A3,00,00,00,00,
515416237,00000779,false,Rx,0,8,06,62,F1,A3,48,35,32,AA,
515473651,0000070F,false,Rx,0,8,03,22,F1,87,00,00,00,00,
515506698,00000779,false,Rx,0,8,10,0E,62,F1,87,30,43,51,
515506969,0000070F,false,Rx,0,8,30,00,01,00,00,00,00,00,
515516225,00000779,false,Rx,0,8,21,39,30,37,35,35,34,48,
515526007,00000779,false,Rx,0,8,22,20,AA,AA,AA,AA,AA,AA,
515563751,0000070F,false,Rx,0,8,03,22,F1,89,00,00,00,00,
515596233,00000779,false,Rx,0,8,07,62,F1,89,37,30,38,33,
515653647,0000070F,false,Rx,0,8,03,22,F1,97,00,00,00,00,
515676499,00000779,false,Rx,0,8,10,10,62,F1,97,48,61,6C,
515676753,0000070F,false,Rx,0,8,30,00,01,00,00,00,00,00,
515686728,00000779,false,Rx,0,8,21,64,65,78,34,4D,6F,74,
515696232,00000779,false,Rx,0,8,22,69,6F,6E,AA,AA,AA,AA,
515712489,17F00010,true,Rx,0,8,20,10,00,00,00,00,00,80,
515743719,0000070F,false,Rx,0,8,03,22,F1,AA,00,00,00,00,
515766000,00000779,false,Rx,0,8,10,08,62,F1,AA,4A,34,39,
515766262,0000070F,false,Rx,0,8,30,00,01,00,00,00,00,00,
515776474,00000779,false,Rx,0,8,21,32,20,AA,AA,AA,AA,AA,
515833665,0000070F,false,Rx,0,8,03,22,F1,8C,00,00,00,00,
515866580,00000779,false,Rx,0,8,10,1A,62,F1,8C,48,41,31,
515866839,0000070F,false,Rx,0,8,30,00,01,00,00,00,00,00,
515876509,00000779,false,Rx,0,8,21,2D,30,30,30,31,30,2E,
515886473,00000779,false,Rx,0,8,22,31,32,2E,31,36,30,30,
515896253,00000779,false,Rx,0,8,23,30,31,30,35,38,30,AA,
515953688,0000070F,false,Rx,0,8,03,22,F1,9E,00,00,00,00,
515987274,00000779,false,Rx,0,8,10,1C,62,F1,9E,45,56,5F,
515987526,0000070F,false,Rx,0,8,30,00,01,00,00,00,00,00,
515996552,00000779,false,Rx,0,8,21,41,6C,6C,57,68,65,65,
516006670,00000779,false,Rx,0,8,22,6C,43,6F,6E,74,72,48,
516016493,00000779,false,Rx,0,8,23,41,31,56,57,33,37,58,
516026811,00000779,false,Rx,0,8,24,00,AA,AA,AA,AA,AA,AA,
516074135,0000070F,false,Rx,0,8,03,22,F1,A2,00,00,00,00,
516106680,00000779,false,Rx,0,8,10,09,62,F1,A2,30,30,34,
516106920,0000070F,false,Rx,0,8,30,00,01,00,00,00,00,00,
516116493,00000779,false,Rx,0,8,21,30,31,33,AA,AA,AA,AA,
516163770,0000070F,false,Rx,0,8,03,22,06,00,00,00,00,00,
516186495,00000779,false,Rx,0,8,05,62,06,00,00,01,AA,AA,
516212490,17F00010,true,Rx,0,8,20,10,00,00,00,00,00,80,
516223739,0000070F,false,Rx,0,8,03,22,06,06,00,00,00,00,
516246581,00000779,false,Rx,0,8,03,7F,22,31,AA,AA,AA,AA,
516283738,0000070F,false,Rx,0,8,03,22,06,08,00,00,00,00,
516306530,00000779,false,Rx,0,8,03,7F,22,31,AA,AA,AA,AA,
516643705,0000070F,false,Rx,0,8,03,19,02,AE,00,00,00,00,
516666285,00000779,false,Rx,0,8,10,0B,59,02,19,00,41,0E,
516666539,0000070F,false,Rx,0,8,30,00,01,00,00,00,00,00,
516676541,00000779,false,Rx,0,8,21,08,00,44,3A,08,AA,AA,
516712455,17F00010,true,Rx,0,8,20,10,00,00,00,00,00,80,
516733608,0000070F,false,Rx,0,8,02,10,01,00,00,00,00,00,
516757225,00000779,false,Rx,0,8,06,50,01,00,32,01,F4,AA,
517033672,00000731,false,Rx,0,8,02,10,03,00,00,00,00,00,
517043612,0000079B,false,Rx,0,8,06,50,03,00,32,01,F4,AA,
517093759,00000731,false,Rx,0,8,03,22,F1,91,00,00,00,00,
517103699,0000079B,false,Rx,0,8,10,0E,62,F1,91,35,51,30,
517103935,00000731,false,Rx,0,8,30,00,01,00,00,00,00,00,
517113552,0000079B,false,Rx,0,8,21,39,30,35,38,36,31,41,
517123547,0000079B,false,Rx,0,8,22,20,AA,AA,AA,AA,AA,AA,
517183819,00000731,false,Rx,0,8,03,22,F1,A3,00,00,00,00,
517193620,0000079B,false,Rx,0,8,06,62,F1,A3,48,30,31,AA,
517212443,17F00010,true,Rx,0,8,20,10,00,00,00,00,00,80,
517243758,00000731,false,Rx,0,8,03,22,F1,87,00,00,00,00,
517253592,0000079B,false,Rx,0,8,10,0E,62,F1,87,35,51,30,
517253852,00000731,false,Rx,0,8,30,00,01,00,00,00,00,00,
517263573,0000079B,false,Rx,0,8,21,39,30,35,38,36,31,41,
517273852,0000079B,false,Rx,0,8,22,20,AA,AA,AA,AA,AA,AA,
517333698,00000731,false,Rx,0,8,03,22,F1,89,00,00,00,00,
517343852,0000079B,false,Rx,0,8,07,62,F1,89,30,31,32,30,
517393750,00000731,false,Rx,0,8,03,22,F1,97,00,00,00,00,
517403591,0000079B,false,Rx,0,8,10,10,62,F1,97,45,4C,56,
517403869,00000731,false,Rx,0,8,30,00,01,00,00,00,00,00,
517413570,0000079B,false,Rx,0,8,21,2D,4D,51,42,41,20,20,
517423573,0000079B,false,Rx,0,8,22,20,20,20,AA,AA,AA,AA,
517513757,00000731,false,Rx,0,8,03,22,F1,AA,00,00,00,00,
517523580,0000079B,false,Rx,0,8,10,08,62,F1,AA,4A,37,36,
517523861,00000731,false,Rx,0,8,30,00,01,00,00,00,00,00,
517533691,0000079B,false,Rx,0,8,21,34,20,AA,AA,AA,AA,AA,
517573729,00000731,false,Rx,0,8,03,22,F1,8C,00,00,00,00,
517583593,0000079B,false,Rx,0,8,10,11,62,F1,8C,31,36,30,
517583850,00000731,false,Rx,0,8,30,00,01,00,00,00,00,00,
517593549,0000079B,false,Rx,0,8,21,30,30,32,31,33,37,37,
517603552,0000079B,false,Rx,0,8,22,30,30,30,38,AA,AA,AA,
517663728,00000731,false,Rx,0,8,03,22,F1,9E,00,00,00,00,
517673882,0000079B,false,Rx,0,8,10,1B,62,F1,9E,45,56,5F,
517674123,00000731,false,Rx,0,8,30,00,01,00,00,00,00,00,
517683572,0000079B,false,Rx,0,8,21,45,4C,56,4D,61,72,71,
517693593,0000079B,false,Rx,0,8,22,75,4D,51,42,00,00,00,
517703572,0000079B,false,Rx,0,8,23,00,00,00,00,00,00,00,
517712431,17F00010,true,Rx,0,8,20,10,00,00,00,00,00,80,
517753751,00000731,false,Rx,0,8,03,22,F1,A2,00,00,00,00,
517763811,0000079B,false,Rx,0,8,10,09,62,F1,A2,30,30,34,
517764063,00000731,false,Rx,0,8,30,00,01,00,00,00,00,00,
517773781,0000079B,false,Rx,0,8,21,31,31,31,AA,AA,AA,AA,
517813805,00000731,false,Rx,0,8,03,22,06,00,00,00,00,00,
517823613,0000079B,false,Rx,0,8,10,0B,62,06,00,5D,00,00,
517823872,00000731,false,Rx,0,8,30,00,01,00,00,00,00,00,
517833569,0000079B,false,Rx,0,8,21,00,00,00,00,00,AA,AA,
517873730,00000731,false,Rx,0,8,03,22,06,06,00,00,00,00,
517883573,0000079B,false,Rx,0,8,03,7F,22,31,AA,AA,AA,AA,
517933752,00000731,false,Rx,0,8,03,22,06,08,00,00,00,00,
517943864,0000079B,false,Rx,0,8,03,7F,22,31,AA,AA,AA,AA,
518212412,17F00010,true,Rx,0,8,20,10,00,00,00,00,00,80,
518233879,00000731,false,Rx,0,8,03,19,02,AE,00,00,00,00,
518243892,0000079B,false,Rx,0,8,10,13,59,02,99,C1,46,00,
518244154,00000731,false,Rx,0,8,30,00,01,00,00,00,00,00,
518253627,0000079B,false,Rx,0,8,21,08,C1,55,00,08,C1,46,
518263691,0000079B,false,Rx,0,8,22,04,08,C1,46,07,08,AA,
518323662,00000731,false,Rx,0,8,02,10,01,00,00,00,00,00,
518333711,0000079B,false,Rx,0,8,06,50,01,00,32,01,F4,AA,
518564080,0000074A,false,Rx,0,8,02,10,03,00,00,00,00,00,
518574276,000007B4,false,Rx,0,8,06,50,03,00,32,01,F4,AA,
518623731,0000074A,false,Rx,0,8,03,22,F1,91,00,00,00,00,
518634185,000007B4,false,Rx,0,8,10,0E,62,F1,91,35,51,30,
518634433,0000074A,false,Rx,0,8,30,00,01,00,00,00,00,00,
518644127,000007B4,false,Rx,0,8,21,39,35,39,35,39,33,42,
518654165,000007B4,false,Rx,0,8,22,20,AA,AA,AA,AA,AA,AA,
518712423,17F00010,true,Rx,0,8,20,10,00,00,00,00,00,80,
518713778,0000074A,false,Rx,0,8,03,22,F1,A3,00,00,00,00,
518724228,000007B4,false,Rx,0,8,06,62,F1,A3,30,32,30,AA,
518773806,0000074A,false,Rx,0,8,03,22,F1,87,00,00,00,00,
518784442,000007B4,false,Rx,0,8,10,0E,62,F1,87,35,51,30,
518784716,0000074A,false,Rx,0,8,30,00,01,00,00,00,00,00,
518794186,000007B4,false,Rx,0,8,21,39,35,39,35,39,33,45,
518804510,000007B4,false,Rx,0,8,22,20,AA,AA,AA,AA,AA,AA,
518863750,0000074A,false,Rx,0,8,03,22,F1,89,00,00,00,00,
518874384,000007B4,false,Rx,0,8,07,62,F1,89,30,30,34,31,
518923738,0000074A,false,Rx,0,8,03,22,F1,97,00,00,00,00,
518944371,000007B4,false,Rx,0,8,10,10,62,F1,97,54,53,47,
518944625,0000074A,false,Rx,0,8,30,00,01,00,00,00,00,00,
518954330,000007B4,false,Rx,0,8,21,20,46,53,20,20,20,20,
518964474,000007B4,false,Rx,0,8,22,20,20,20,AA,AA,AA,AA,
519043778,0000074A,false,Rx,0,8,03,22,F1,AA,00,00,00,00,
519054445,000007B4,false,Rx,0,8,10,08,62,F1,AA,4A,33,38,
519054724,0000074A,false,Rx,0,8,30,00,01,00,00,00,00,00,
519064941,000007B4,false,Rx,0,8,21,36,20,AA,AA,AA,AA,AA,
519103780,0000074A,false,Rx,0,8,03,22,F1,8C,00,00,00,00,
519114482,000007B4,false,Rx,0,8,10,11,62,F1,8C,31,38,30,
519114734,0000074A,false,Rx,0,8,30,00,01,00,00,00,00,00,
519124391,000007B4,false,Rx,0,8,21,32,31,37,30,36,30,35,
519134396,000007B4,false,Rx,0,8,22,30,31,4D,4F,AA,AA,AA,
519193777,0000074A,false,Rx,0,8,03,22,F1,9E,00,00,00,00,
519204913,000007B4,false,Rx,0,8,10,1B,62,F1,9E,45,56,5F,
519205175,0000074A,false,Rx,0,8,30,00,01,00,00,00,00,00,
519212375,17F00010,true,Rx,0,8,20,10,00,00,00,00,00,80,
519214422,000007B4,false,Rx,0,8,21,44,43,55,44,72,69,76,
519224510,000007B4,false,Rx,0,8,22,65,53,69,64,65,45,57,
519234454,000007B4,false,Rx,0,8,23,4D,41,58,4B,4C,4F,00,
519283727,0000074A,false,Rx,0,8,03,22,F1,A2,00,00,00,00,
519284672,000007B4,false,Rx,0,8,10,09,62,F1,A2,30,30,36,
519284908,0000074A,false,Rx,0,8,30,00,01,00,00,00,00,00,
519294470,000007B4,false,Rx,0,8,21,30,30,33,AA,AA,AA,AA,
519343829,0000074A,false,Rx,0,8,03,22,06,00,00,00,00,00,
519354631,000007B4,false,Rx,0,8,10,0F,62,06,00,00,3A,13,
519354893,0000074A,false,Rx,0,8,30,00,01,00,00,00,00,00,
519364711,000007B4,false,Rx,0,8,21,20,00,00,02,00,00,00,
519374552,000007B4,false,Rx,0,8,22,00,00,AA,AA,AA,AA,AA,
519433777,0000074A,false,Rx,0,8,03,22,06,06,00,00,00,00,
519444608,000007B4,false,Rx,0,8,03,7F,22,31,AA,AA,AA,AA,
519493833,0000074A,false,Rx,0,8,03,22,06,08,00,00,00,00,
519504999,000007B4,false,Rx,0,8,05,62,06,08,00,4C,AA,AA,
519712391,17F00010,true,Rx,0,8,20,10,00,00,00,00,00,80,
519913691,0000074A,false,Rx,0,8,03,19,02,AE,00,00,00,00,
519915186,000007B4,false,Rx,0,8,07,59,02,19,07,00,00,08,
519973730,0000074A,false,Rx,0,8,02,10,01,00,00,00,00,00,
519975206,000007B4,false,Rx,0,8,06,50,01,00,32,01,F4,AA,
520212383,17F00010,true,Rx,0,8,20,10,00,00,00,00,00,80,
520213819,00000712,false,Rx,0,8,02,10,03,00,00,00,00,00,
520223883,0000077C,false,Rx,0,8,06,50,03,00,32,01,F4,AA,
520273842,00000712,false,Rx,0,8,03,19,02,AE,00,00,00,00,
520283893,0000077C,false,Rx,0,8,07,59,02,99,00,56,00,08,
520333710,00000712,false,Rx,0,8,02,10,01,00,00,00,00,00,
520343884,0000077C,false,Rx,0,8,06,50,01,00,32,01,F4,AA,
520573818,0000074B,false,Rx,0,8,02,10,03,00,00,00,00,00,
520575548,000007B5,false,Rx,0,8,06,50,03,00,32,01,F4,AA,
520633770,0000074B,false,Rx,0,8,03,22,F1,91,00,00,00,00,
520635421,000007B5,false,Rx,0,8,10,0E,62,F1,91,35,51,30,
520635696,0000074B,false,Rx,0,8,30,00,01,00,00,00,00,00,
520645353,000007B5,false,Rx,0,8,21,39,35,39,35,39,32,42,
520655395,000007B5,false,Rx,0,8,22,20,AA,AA,AA,AA,AA,AA,
520693798,0000074B,false,Rx,0,8,03,22,F1,A3,00,00,00,00,
520695504,000007B5,false,Rx,0,8,06,62,F1,A3,30,32,30,AA,
520712364,17F00010,true,Rx,0,8,20,10,00,00,00,00,00,80,
520753835,0000074B,false,Rx,0,8,03,22,F1,87,00,00,00,00,
520755462,000007B5,false,Rx,0,8,10,0E,62,F1,87,35,51,30,
520755736,0000074B,false,Rx,0,8,30,00,01,00,00,00,00,00,
520765371,000007B5,false,Rx,0,8,21,39,35,39,35,39,32,45,
520775376,000007B5,false,Rx,0,8,22,20,AA,AA,AA,AA,AA,AA,
520813845,0000074B,false,Rx,0,8,03,22,F1,89,00,00,00,00,
520815491,000007B5,false,Rx,0,8,07,62,F1,89,30,30,34,31,
520873828,0000074B,false,Rx,0,8,03,22,F1,97,00,00,00,00,
520885344,000007B5,false,Rx,0,8,10,10,62,F1,97,54,53,47,
520885598,0000074B,false,Rx,0,8,30,00,01,00,00,00,00,00,
520895384,000007B5,false,Rx,0,8,21,20,42,46,53,20,20,20,
520905569,000007B5,false,Rx,0,8,22,20,20,20,AA,AA,AA,AA,
520963851,0000074B,false,Rx,0,8,03,22,F1,AA,00,00,00,00,
520965454,000007B5,false,Rx,0,8,10,08,62,F1,AA,4A,33,38,
520965702,0000074B,false,Rx,0,8,30,00,01,00,00,00,00,00,
520975315,000007B5,false,Rx,0,8,21,37,20,AA,AA,AA,AA,AA,
521023751,0000074B,false,Rx,0,8,03,22,F1,8C,00,00,00,00,
521025402,000007B5,false,Rx,0,8,10,11,62,F1,8C,31,38,30,
521025676,0000074B,false,Rx,0,8,30,00,01,00,00,00,00,00,
521035251,000007B5,false,Rx,0,8,21,32,31,37,30,36,30,35,
521045271,000007B5,false,Rx,0,8,22,30,30,47,4A,AA,AA,AA,
521083739,0000074B,false,Rx,0,8,03,22,F1,9E,00,00,00,00,
521085391,000007B5,false,Rx,0,8,10,1B,62,F1,9E,45,56,5F,
521085644,0000074B,false,Rx,0,8,30,00,01,00,00,00,00,00,
521095317,000007B5,false,Rx,0,8,21,44,43,55,50,61,73,73,
521105572,000007B5,false,Rx,0,8,22,65,53,69,64,65,45,57,
521115409,000007B5,false,Rx,0,8,23,4D,41,58,4B,4C,4F,00,
521173811,0000074B,false,Rx,0,8,03,22,F1,A2,00,00,00,00,
521175535,000007B5,false,Rx,0,8,10,09,62,F1,A2,30,30,36,
521175815,0000074B,false,Rx,0,8,30,00,01,00,00,00,00,00,
521185374,000007B5,false,Rx,0,8,21,30,30,33,AA,AA,AA,AA,
521212354,17F00010,true,Rx,0,8,20,10,00,00,00,00,00,80,
521233746,0000074B,false,Rx,0,8,03,22,06,00,00,00,00,00,
521235343,000007B5,false,Rx,0,8,10,0F,62,06,00,00,3A,13,
521235617,0000074B,false,Rx,0,8,30,00,01,00,00,00,00,00,
521245279,000007B5,false,Rx,0,8,21,20,00,00,02,00,00,00,
521255245,000007B5,false,Rx,0,8,22,00,00,AA,AA,AA,AA,AA,
521293852,0000074B,false,Rx,0,8,03,22,06,06,00,00,00,00,
521295414,000007B5,false,Rx,0,8,03,7F,22,31,AA,AA,AA,AA,
521353850,0000074B,false,Rx,0,8,03,22,06,08,00,00,00,00,
521355376,000007B5,false,Rx,0,8,05,62,06,08,00,4D,AA,AA,
521563769,0000074B,false,Rx,0,8,03,19,02,AE,00,00,00,00,
521565778,000007B5,false,Rx,0,8,10,0F,59,02,19,01,00,67,
521566027,0000074B,false,Rx,0,8,30,00,01,00,00,00,00,00,
521575257,000007B5,false,Rx,0,8,21,08,07,00,00,08,07,00,
521585276,000007B5,false,Rx,0,8,22,2A,08,AA,AA,AA,AA,AA,
521623778,0000074B,false,Rx,0,8,02,10,01,00,00,00,00,00,
521625430,000007B5,false,Rx,0,8,06,50,01,00,32,01,F4,AA,
521712305,17F00010,true,Rx,0,8,20,10,00,00,00,00,00,80,
521923710,00000754,false,Rx,0,8,02,10,03,00,00,00,00,00,
521938027,000007BE,false,Rx,0,8,06,50,03,00,32,01,F4,AA,
521983876,00000754,false,Rx,0,8,03,22,F1,91,00,00,00,00,
521998140,000007BE,false,Rx,0,8,10,0E,62,F1,91,37,50,36,
521998419,00000754,false,Rx,0,8,30,00,01,00,00,00,00,00,
522008022,000007BE,false,Rx,0,8,21,39,30,37,33,35,37,41,
522018022,000007BE,false,Rx,0,8,22,20,AA,AA,AA,AA,AA,AA,
522073750,00000754,false,Rx,0,8,03,22,F1,A3,00,00,00,00,
522087988,000007BE,false,Rx,0,8,06,62,F1,A3,48,30,37,AA,
522133811,00000754,false,Rx,0,8,03,22,F1,87,00,00,00,00,
522148030,000007BE,false,Rx,0,8,10,0E,62,F1,87,37,50,36,
522148284,00000754,false,Rx,0,8,30,00,01,00,00,00,00,00,
522158068,000007BE,false,Rx,0,8,21,39,30,37,33,35,37,44,
522168041,000007BE,false,Rx,0,8,22,20,AA,AA,AA,AA,AA,AA,
522212295,17F00010,true,Rx,0,8,20,10,00,00,00,00,00,80,
522223818,00000754,false,Rx,0,8,03,22,F1,89,00,00,00,00,
522238008,000007BE,false,Rx,0,8,07,62,F1,89,30,30,39,30,
522283757,00000754,false,Rx,0,8,03,22,F1,97,00,00,00,00,
522298158,000007BE,false,Rx,0,8,10,10,62,F1,97,41,46,53,
522298433,00000754,false,Rx,0,8,30,00,01,00,00,00,00,00,
522308015,000007BE,false,Rx,0,8,21,2D,45,43,55,20,20,20,
522318022,000007BE,false,Rx,0,8,22,20,20,20,AA,AA,AA,AA,
522373809,00000754,false,Rx,0,8,03,22,F1,AA,00,00,00,00,
522388016,000007BE,false,Rx,0,8,10,08,62,F1,AA,4A,37,34,
522388270,00000754,false,Rx,0,8,30,00,01,00,00,00,00,00,
522398172,000007BE,false,Rx,0,8,21,35,20,AA,AA,AA,AA,AA,
522433857,00000754,false,Rx,0,8,03,22,F1,8C,00,00,00,00,
522448000,000007BE,false,Rx,0,8,10,11,62,F1,8C,2D,2D,2D,
522448254,00000754,false,Rx,0,8,30,00,01,00,00,00,00,00,
522458059,000007BE,false,Rx,0,8,21,2D,2D,2D,2D,2D,2D,2D,
522468078,000007BE,false,Rx,0,8,22,2D,2D,2D,2D,AA,AA,AA,
522523830,00000754,false,Rx,0,8,03,22,F1,9E,00,00,00,00,
522538048,000007BE,false,Rx,0,8,10,19,62,F1,9E,45,56,5F,
522538322,00000754,false,Rx,0,8,30,00,01,00,00,00,00,00,
522548048,000007BE,false,Rx,0,8,21,48,65,61,64,6C,52,65,
522558048,000007BE,false,Rx,0,8,22,67,75,6C,56,57,41,46,
522568068,000007BE,false,Rx,0,8,23,53,4D,51,42,00,AA,AA,
522613876,00000754,false,Rx,0,8,03,22,F1,A2,00,00,00,00,
522628009,000007BE,false,Rx,0,8,10,09,62,F1,A2,30,30,31,
522628284,00000754,false,Rx,0,8,30,00,01,00,00,00,00,00,
522638047,000007BE,false,Rx,0,8,21,31,32,30,AA,AA,AA,AA,
522673786,00000754,false,Rx,0,8,03,22,06,00,00,00,00,00,
522688036,000007BE,false,Rx,0,8,10,0B,62,06,00,06,2A,00,
522688290,00000754,false,Rx,0,8,30,00,01,00,00,00,00,00,
522698214,000007BE,false,Rx,0,8,21,01,0B,00,04,00,AA,AA,
522712264,17F00010,true,Rx,0,8,20,10,00,00,00,00,00,80,
522733789,00000754,false,Rx,0,8,03,22,06,06,00,00,00,00,
522748009,000007BE,false,Rx,0,8,03,7F,22,31,AA,AA,AA,AA,
522793833,00000754,false,Rx,0,8,03,22,06,08,00,00,00,00,
522808027,000007BE,false,Rx,0,8,07,62,06,08,00,14,00,15,
522853979,00000754,false,Rx,0,8,03,22,6C,15,00,00,00,00,
522868097,000007BE,false,Rx,0,8,10,10,62,6C,15,4C,65,69,
522868350,00000754,false,Rx,0,8,30,00,01,00,00,00,00,00,
522878034,000007BE,false,Rx,0,8,21,4D,6F,20,72,65,63,68,
522888013,000007BE,false,Rx,0,8,22,74,73,20,AA,AA,AA,AA,
522943824,00000754,false,Rx,0,8,03,22,64,15,00,00,00,00,
522958067,000007BE,false,Rx,0,8,07,62,64,15,30,30,30,34,
523003790,00000754,false,Rx,0,8,03,22,66,15,00,00,00,00,
523018049,000007BE,false,Rx,0,8,10,0E,62,66,15,35,4E,30,
523018302,00000754,false,Rx,0,8,30,00,01,00,00,00,00,00,
523028027,000007BE,false,Rx,0,8,21,39,34,31,33,32,39,20,
523038048,000007BE,false,Rx,0,8,22,20,AA,AA,AA,AA,AA,AA,
523093818,00000754,false,Rx,0,8,03,22,68,15,00,00,00,00,
523108014,000007BE,false,Rx,0,8,06,62,68,15,48,30,31,AA,
523153889,00000754,false,Rx,0,8,03,22,6A,15,00,00,00,00,
523168087,000007BE,false,Rx,0,8,03,7F,22,31,AA,AA,AA,AA,
523212275,17F00010,true,Rx,0,8,20,10,00,00,00,00,00,80,
523573751,00000754,false,Rx,0,8,03,19,02,AE,00,00,00,00,
523588020,000007BE,false,Rx,0,8,10,0B,59,02,99,D1,21,05,
523588274,00000754,false,Rx,0,8,30,00,01,00,00,00,00,00,
523598197,000007BE,false,Rx,0,8,21,08,D1,21,0A,08,AA,AA,
523633731,00000754,false,Rx,0,8,02,10,01,00,00,00,00,00,
523648057,000007BE,false,Rx,0,8,06,50,01,00,32,01,F4,AA,
523712237,17F00010,true,Rx,0,8,20,10,00,00,00,00,00,80,
523873818,00000773,false,Rx,0,8,02,10,03,00,00,00,00,00,
523880560,000007DD,false,Rx,0,8,06,50,03,00,32,00,FA,AA,
523933893,00000773,false,Rx,0,8,03,22,F1,91,00,00,00,00,
523940476,000007DD,false,Rx,0,8,10,0E,62,F1,91,33,51,30,
523940755,00000773,false,Rx,0,8,30,00,01,00,00,00,00,00,
523944126,000007DD,false,Rx,0,8,21,30,33,35,38,37,36,41,
523948204,000007DD,false,Rx,0,8,22,20,AA,AA,AA,AA,AA,AA,
523993864,00000773,false,Rx,0,8,03,22,F1,A3,00,00,00,00,
523996218,000007DD,false,Rx,0,8,06,62,F1,A3,38,34,30,AA,
524053777,00000773,false,Rx,0,8,03,22,F1,87,00,00,00,00,
524056197,000007DD,false,Rx,0,8,10,0E,62,F1,87,33,51,30,
524056451,00000773,false,Rx,0,8,30,00,01,00,00,00,00,00,
524060337,000007DD,false,Rx,0,8,21,30,33,35,38,37,36,41,
524064139,000007DD,false,Rx,0,8,22,20,AA,AA,AA,AA,AA,AA,
524113789,00000773,false,Rx,0,8,03,22,F1,89,00,00,00,00,
524120335,000007DD,false,Rx,0,8,07,62,F1,89,30,37,35,37,
524173852,00000773,false,Rx,0,8,03,22,F1,97,00,00,00,00,
524176224,000007DD,false,Rx,0,8,10,10,62,F1,97,4D,55,2D,
524176498,00000773,false,Rx,0,8,30,00,01,00,00,00,00,00,
524180589,000007DD,false,Rx,0,8,21,53,2D,4E,53,2D,55,53,
524184198,000007DD,false,Rx,0,8,22,20,20,20,AA,AA,AA,AA,
524212237,17F00010,true,Rx,0,8,20,10,00,00,00,00,00,80,
524233915,00000773,false,Rx,0,8,03,22,F1,AA,00,00,00,00,
524236197,000007DD,false,Rx,0,8,10,08,62,F1,AA,4A,37,39,
524236464,00000773,false,Rx,0,8,30,00,01,00,00,00,00,00,
524240379,000007DD,false,Rx,0,8,21,34,20,AA,AA,AA,AA,AA,
524293790,00000773,false,Rx,0,8,03,22,F1,8C,00,00,00,00,
524296234,000007DD,false,Rx,0,8,10,11,62,F1,8C,20,20,20,
524296482,00000773,false,Rx,0,8,30,00,01,00,00,00,00,00,
524300397,000007DD,false,Rx,0,8,21,20,20,20,20,20,20,20,
524304180,000007DD,false,Rx,0,8,22,20,20,20,20,AA,AA,AA,
524353883,00000773,false,Rx,0,8,03,22,F1,9E,00,00,00,00,
524356216,000007DD,false,Rx,0,8,10,12,62,F1,9E,45,56,5F,
524356470,00000773,false,Rx,0,8,30,00,01,00,00,00,00,00,
524360303,000007DD,false,Rx,0,8,21,4D,55,53,74,64,34,43,
524364145,000007DD,false,Rx,0,8,22,44,45,4C,50,00,AA,AA,
524413886,00000773,false,Rx,0,8,03,22,F1,A2,00,00,00,00,
524416258,000007DD,false,Rx,0,8,10,09,62,F1,A2,30,30,31,
524416510,00000773,false,Rx,0,8,30,00,01,00,00,00,00,00,
524422672,000007DD,false,Rx,0,8,21,30,30,31,AA,AA,AA,AA,
524473914,00000773,false,Rx,0,8,03,22,06,00,00,00,00,00,
524482738,000007DD,false,Rx,0,8,10,1C,62,06,00,02,73,02,
524483007,00000773,false,Rx,0,8,30,00,01,00,00,00,00,00,
524484283,000007DD,false,Rx,0,8,21,02,00,00,00,00,51,22,
524488227,000007DD,false,Rx,0,8,22,00,02,00,18,28,00,1F,
524493118,000007DD,false,Rx,0,8,23,01,08,F4,01,20,01,05,
524496129,000007DD,false,Rx,0,8,24,C6,AA,AA,AA,AA,AA,AA,
524533811,00000773,false,Rx,0,8,03,22,06,06,00,00,00,00,
524536149,000007DD,false,Rx,0,8,03,7F,22,31,AA,AA,AA,AA,
524593861,00000773,false,Rx,0,8,03,22,06,08,00,00,00,00,
524596273,000007DD,false,Rx,0,8,03,7F,22,78,AA,AA,AA,AA,
524608293,000007DD,false,Rx,0,8,10,19,62,06,08,FF,FF,FF,
524608546,00000773,false,Rx,0,8,30,00,01,00,00,00,00,00,
524612434,000007DD,false,Rx,0,8,21,FF,FF,FF,FF,FF,FF,FF,
524616237,000007DD,false,Rx,0,8,22,FF,FF,FF,FF,00,0E,FF,
524620500,000007DD,false,Rx,0,8,23,FF,00,11,FF,FF,AA,AA,
524653835,00000773,false,Rx,0,8,03,22,6C,0E,00,00,00,00,
524656225,000007DD,false,Rx,0,8,03,7F,22,78,AA,AA,AA,AA,
524668218,000007DD,false,Rx,0,8,10,10,62,6C,0E,41,42,54,
524668472,00000773,false,Rx,0,8,30,00,01,00,00,00,00,00,
524672355,000007DD,false,Rx,0,8,21,5F,53,74,64,2D,32,20,
524676158,000007DD,false,Rx,0,8,22,20,20,20,AA,AA,AA,AA,
524712218,17F00010,true,Rx,0,8,20,10,00,00,00,00,00,80,
524713922,00000773,false,Rx,0,8,03,22,64,0E,00,00,00,00,
524716233,000007DD,false,Rx,0,8,03,7F,22,78,AA,AA,AA,AA,
524728233,000007DD,false,Rx,0,8,07,62,64,0E,38,31,33,30,
524773911,00000773,false,Rx,0,8,03,22,66,0E,00,00,00,00,
524776244,000007DD,false,Rx,0,8,03,7F,22,78,AA,AA,AA,AA,
524796234,000007DD,false,Rx,0,8,10,0E,62,66,0E,35,47,36,
524796488,00000773,false,Rx,0,8,30,00,01,00,00,00,00,00,
524800902,000007DD,false,Rx,0,8,21,39,31,39,36,30,35,43,
524804159,000007DD,false,Rx,0,8,22,20,AA,AA,AA,AA,AA,AA,
524863890,00000773,false,Rx,0,8,03,22,68,0E,00,00,00,00,
524868159,000007DD,false,Rx,0,8,03,7F,22,78,AA,AA,AA,AA,
524880542,000007DD,false,Rx,0,8,06,62,68,0E,32,35,32,AA,
524923829,00000773,false,Rx,0,8,03,22,6A,0E,00,00,00,00,
524928198,000007DD,false,Rx,0,8,03,7F,22,78,AA,AA,AA,AA,
524948277,000007DD,false,Rx,0,8,10,17,62,6A,0E,56,57,5A,
524948531,00000773,false,Rx,0,8,30,00,01,00,00,00,00,00,
524952376,000007DD,false,Rx,0,8,21,36,5A,4D,56,31,38,37,
524956198,000007DD,false,Rx,0,8,22,35,35,31,32,20,20,20,
524960402,000007DD,false,Rx,0,8,23,20,20,20,AA,AA,AA,AA,
525013807,00000773,false,Rx,0,8,03,22,6C,11,00,00,00,00,
525016254,000007DD,false,Rx,0,8,03,7F,22,78,AA,AA,AA,AA,
525028274,000007DD,false,Rx,0,8,10,10,62,6C,11,4E,41,52,
525028526,00000773,false,Rx,0,8,30,00,01,00,00,00,00,00,
525032482,000007DD,false,Rx,0,8,21,20,32,30,32,31,20,20,
525036126,000007DD,false,Rx,0,8,22,20,20,20,AA,AA,AA,AA,
525103878,00000773,false,Rx,0,8,03,22,64,11,00,00,00,00,
525108225,000007DD,false,Rx,0,8,03,7F,22,78,AA,AA,AA,AA,
525120415,000007DD,false,Rx,0,8,07,62,64,11,31,35,31,30,
525163992,00000773,false,Rx,0,8,03,22,66,11,00,00,00,00,
525168184,000007DD,false,Rx,0,8,10,0E,62,66,11,2D,2D,2D,
525168438,00000773,false,Rx,0,8,30,00,01,00,00,00,00,00,
525172323,000007DD,false,Rx,0,8,21,2D,2D,2D,2D,2D,2D,2D,
525176205,000007DD,false,Rx,0,8,22,2D,AA,AA,AA,AA,AA,AA,
525212226,17F00010,true,Rx,0,8,20,10,00,00,00,00,00,80,
525223874,00000773,false,Rx,0,8,03,22,68,11,00,00,00,00,
525228238,000007DD,false,Rx,0,8,06,62,68,11,2D,2D,2D,AA,
525283848,00000773,false,Rx,0,8,03,22,6A,11,00,00,00,00,
525288197,000007DD,false,Rx,0,8,10,17,62,6A,11,2D,2D,2D,
525288472,00000773,false,Rx,0,8,30,00,01,00,00,00,00,00,
525292335,000007DD,false,Rx,0,8,21,2D,2D,2D,2D,2D,2D,2D,
525296158,000007DD,false,Rx,0,8,22,2D,2D,2D,2D,2D,2D,2D,
525300417,000007DD,false,Rx,0,8,23,2D,2D,2D,AA,AA,AA,AA,
525643810,00000773,false,Rx,0,8,03,19,02,AE,00,00,00,00,
525648285,000007DD,false,Rx,0,8,10,0B,59,02,19,00,00,14,
525648539,00000773,false,Rx,0,8,30,00,01,00,00,00,00,00,
525652343,000007DD,false,Rx,0,8,21,09,00,1A,3E,08,AA,AA,
525703798,00000773,false,Rx,0,8,02,10,01,00,00,00,00,00,
525708253,000007DD,false,Rx,0,8,06,50,01,00,32,00,FA,AA,
525712178,17F00010,true,Rx,0,8,20,10,00,00,00,00,00,80,
525943789,00000732,false,Rx,0,8,02,10,03,00,00,00,00,00,
525954501,0000079C,false,Rx,0,8,06,50,03,00,32,01,F4,AA,
526003863,00000732,false,Rx,0,8,03,22,F1,91,00,00,00,00,
526015014,0000079C,false,Rx,0,8,10,0E,62,F1,91,35,51,30,
526015293,00000732,false,Rx,0,8,30,00,01,00,00,00,00,00,
526024471,0000079C,false,Rx,0,8,21,39,35,39,34,33,35,20,
526034453,0000079C,false,Rx,0,8,22,20,AA,AA,AA,AA,AA,AA,
526093904,00000732,false,Rx,0,8,03,22,F1,A3,00,00,00,00,
526105022,0000079C,false,Rx,0,8,06,62,F1,A3,30,32,31,AA,
526153832,00000732,false,Rx,0,8,03,22,F1,87,00,00,00,00,
526164671,0000079C,false,Rx,0,8,10,0E,62,F1,87,35,51,30,
526164933,00000732,false,Rx,0,8,30,00,01,00,00,00,00,00,
526174691,0000079C,false,Rx,0,8,21,39,35,39,34,33,35,42,
526185253,0000079C,false,Rx,0,8,22,20,AA,AA,AA,AA,AA,AA,
526212166,17F00010,true,Rx,0,8,20,10,00,00,00,00,00,80,
526243850,00000732,false,Rx,0,8,03,22,F1,89,00,00,00,00,
526254652,0000079C,false,Rx,0,8,07,62,F1,89,30,37,31,30,
526303890,00000732,false,Rx,0,8,03,22,F1,97,00,00,00,00,
526314987,0000079C,false,Rx,0,8,10,10,62,F1,97,56,57,4B,
526315240,00000732,false,Rx,0,8,30,00,01,00,00,00,00,00,
526324422,0000079C,false,Rx,0,8,21,45,53,53,59,4D,51,42,
526334719,0000079C,false,Rx,0,8,22,20,20,20,AA,AA,AA,AA,
526393933,00000732,false,Rx,0,8,03,22,F1,AA,00,00,00,00,
526404969,0000079C,false,Rx,0,8,10,08,62,F1,AA,4A,35,31,
526405222,00000732,false,Rx,0,8,30,00,01,00,00,00,00,00,
526414414,0000079C,false,Rx,0,8,21,38,20,AA,AA,AA,AA,AA,
526483892,00000732,false,Rx,0,8,03,22,F1,8C,00,00,00,00,
526494612,0000079C,false,Rx,0,8,10,0D,62,F1,8C,30,34,32,
526494874,00000732,false,Rx,0,8,30,00,01,00,00,00,00,00,
526504430,0000079C,false,Rx,0,8,21,36,32,39,36,31,37,37,
526543852,00000732,false,Rx,0,8,03,22,F1,9E,00,00,00,00,
526554969,0000079C,false,Rx,0,8,10,16,62,F1,9E,45,56,5F,
526555222,00000732,false,Rx,0,8,30,00,01,00,00,00,00,00,
526564364,0000079C,false,Rx,0,8,21,4B,65,73,73,79,48,65,
526574461,0000079C,false,Rx,0,8,22,6C,6C,61,4D,51,42,41,
526584343,0000079C,false,Rx,0,8,23,42,00,AA,AA,AA,AA,AA,
526633921,00000732,false,Rx,0,8,03,22,F1,A2,00,00,00,00,
526644921,0000079C,false,Rx,0,8,10,09,62,F1,A2,30,30,32,
526645183,00000732,false,Rx,0,8,30,00,01,00,00,00,00,00,
526654356,0000079C,false,Rx,0,8,21,30,31,39,AA,AA,AA,AA,
526693852,00000732,false,Rx,0,8,03,22,06,00,00,00,00,00,
526704473,0000079C,false,Rx,0,8,06,62,06,00,13,2C,0C,AA,
526712146,17F00010,true,Rx,0,8,20,10,00,00,00,00,00,80,
526753852,00000732,false,Rx,0,8,03,22,06,06,00,00,00,00,
526764551,0000079C,false,Rx,0,8,03,7F,22,31,AA,AA,AA,AA,
526813915,00000732,false,Rx,0,8,03,22,06,08,00,00,00,00,
526824941,0000079C,false,Rx,0,8,03,7F,22,31,AA,AA,AA,AA,
527203876,00000732,false,Rx,0,8,03,19,02,AE,00,00,00,00,
527212136,17F00010,true,Rx,0,8,20,10,00,00,00,00,00,80,
527215234,0000079C,false,Rx,0,8,10,0B,59,02,19,C2,07,04,
527215486,00000732,false,Rx,0,8,30,00,01,00,00,00,00,00,
527224396,0000079C,false,Rx,0,8,21,08,C2,0D,04,08,AA,AA,
527712134,17F00010,true,Rx,0,8,20,10,00,00,00,00,00,80,
528212108,17F00010,true,Rx,0,8,20,10,00,00,00,00,00,80,
528712125,17F00010,true,Rx,0,8,20,10,00,00,00,00,00,80,
529212088,17F00010,true,Rx,0,8,20,10,00,00,00,00,00,80,
529712096,17F00010,true,Rx,0,8,20,10,00,00,00,00,00,80,
529753757,00000732,false,Rx,0,8,02,3E,00,00,00,00,00,00,
529763862,0000079C,false,Rx,0,8,02,7E,00,AA,AA,AA,AA,AA,
530173746,00000732,false,Rx,0,8,02,10,01,00,00,00,00,00,
530185372,0000079C,false,Rx,0,8,06,50,01,00,32,01,F4,AA,
530212052,17F00010,true,Rx,0,8,20,10,00,00,00,00,00,80,
530413828,00000713,false,Rx,0,8,02,10,03,00,00,00,00,00,
530427138,0000077D,false,Rx,0,8,06,50,03,00,32,01,F4,AA,
530473999,00000713,false,Rx,0,8,04,14,FF,FF,FF,00,00,00,
530507163,0000077D,false,Rx,0,8,03,7F,14,78,AA,AA,AA,AA,
530712028,17F00010,true,Rx,0,8,20,10,00,00,00,00,00,80,
531212012,17F00010,true,Rx,0,8,20,10,00,00,00,00,00,80,
531366757,0000077D,false,Rx,0,8,01,54,AA,AA,AA,AA,AA,AA,
531403970,00000713,false,Rx,0,8,03,19,02,AE,00,00,00,00,
531437233,0000077D,false,Rx,0,8,03,7F,19,78,AA,AA,AA,AA,
531712017,17F00010,true,Rx,0,8,20,10,00,00,00,00,00,80,
532212016,17F00010,true,Rx,0,8,20,10,00,00,00,00,00,80,
532247087,0000077D,false,Rx,0,8,03,59,02,99,AA,AA,AA,AA,
532303954,00000713,false,Rx,0,8,02,10,01,00,00,00,00,00,
532317333,0000077D,false,Rx,0,8,06,50,01,00,32,01,F4,AA,
532544035,0000070E,false,Rx,0,8,02,10,03,00,00,00,00,00,
532582571,00000778,false,Rx,0,8,06,50,03,00,32,01,F4,AA,
532634150,0000070E,false,Rx,0,8,04,14,FF,FF,FF,00,00,00,
532669660,00000778,false,Rx,0,8,01,54,AA,AA,AA,AA,AA,AA,
532711989,17F00010,true,Rx,0,8,20,10,00,00,00,00,00,80,
532723992,0000070E,false,Rx,0,8,03,19,02,AE,00,00,00,00,
532770119,00000778,false,Rx,0,8,03,7F,19,78,AA,AA,AA,AA,
533211969,17F00010,true,Rx,0,8,20,10,00,00,00,00,00,80,
533439739,00000778,false,Rx,0,8,07,59,02,99,08,08,17,09,
533473909,0000070E,false,Rx,0,8,02,10,01,00,00,00,00,00,
533509560,00000778,false,Rx,0,8,06,50,01,00,32,01,F4,AA,
533711950,17F00010,true,Rx,0,8,20,10,00,00,00,00,00,80,
533743852,00000715,false,Rx,0,8,02,10,03,00,00,00,00,00,
533753551,0000077F,false,Rx,0,8,06,50,03,00,32,01,F4,AA,
533804166,00000715,false,Rx,0,8,04,14,FF,FF,FF,00,00,00,
533843522,0000077F,false,Rx,0,8,03,7F,14,78,AA,AA,AA,AA,
534211940,17F00010,true,Rx,0,8,20,10,00,00,00,00,00,80,
534712013,17F00010,true,Rx,0,8,20,10,00,00,00,00,00,80,
535212016,17F00010,true,Rx,0,8,20,10,00,00,00,00,00,80,
535485039,0000077F,false,Rx,0,8,01,54,AA,AA,AA,AA,AA,AA,
535544088,00000715,false,Rx,0,8,03,19,02,AE,00,00,00,00,
535585009,0000077F,false,Rx,0,8,03,7F,19,78,AA,AA,AA,AA,
535711884,17F00010,true,Rx,0,8,20,10,00,00,00,00,00,80,
536204864,0000077F,false,Rx,0,8,03,59,02,99,AA,AA,AA,AA,
536211881,17F00010,true,Rx,0,8,20,10,00,00,00,00,00,80,
536263999,00000715,false,Rx,0,8,02,10,01,00,00,00,00,00,
536274862,0000077F,false,Rx,0,8,06,50,01,00,32,01,F4,AA,
536503979,00000714,false,Rx,0,8,02,10,03,00,00,00,00,00,
536506029,0000077E,false,Rx,0,8,06,50,03,00,32,00,C8,AA,
536564090,00000714,false,Rx,0,8,04,14,FF,FF,FF,00,00,00,
536582351,0000077E,false,Rx,0,8,01,54,AA,AA,AA,AA,AA,AA,
536624010,00000714,false,Rx,0,8,03,19,02,AE,00,00,00,00,
536625293,0000077E,false,Rx,0,8,03,59,02,19,AA,AA,AA,AA,
536684022,00000714,false,Rx,0,8,02,10,01,00,00,00,00,00,
536686036,0000077E,false,Rx,0,8,06,50,01,00,32,00,C8,AA,
536711853,17F00010,true,Rx,0,8,20,10,00,00,00,00,00,80,
536924015,00000710,false,Rx,0,8,02,10,03,00,00,00,00,00,
536929580,0000077A,false,Rx,0,8,06,50,03,00,32,01,F4,AA,
536984212,00000710,false,Rx,0,8,04,14,FF,FF,FF,00,00,00,
537023055,0000077A,false,Rx,0,8,03,7F,14,78,AA,AA,AA,AA,
537032761,0000077A,false,Rx,0,8,01,54,AA,AA,AA,AA,AA,AA,
537033454,17F00010,true,Rx,0,8,20,10,00,00,00,00,00,00,
537074096,00000710,false,Rx,0,8,03,19,02,AE,00,00,00,00,
537083372,0000077A,false,Rx,0,8,03,59,02,19,AA,AA,AA,AA,
537134017,00000710,false,Rx,0,8,02,10,01,00,00,00,00,00,
537143071,0000077A,false,Rx,0,8,06,50,01,00,32,01,F4,AA,
537211857,17F00010,true,Rx,0,8,20,10,00,00,00,00,00,00,
537373909,00000730,false,Rx,0,8,02,10,03,00,00,00,00,00,
537380786,0000079A,false,Rx,0,8,06,50,03,00,28,01,EF,AA,
537434234,00000730,false,Rx,0,8,04,14,FF,FF,FF,00,00,00,
537461057,0000079A,false,Rx,0,8,03,7F,14,78,AA,AA,AA,AA,
537711814,17F00010,true,Rx,0,8,20,10,00,00,00,00,00,00,
537789679,0000079A,false,Rx,0,8,01,54,AA,AA,AA,AA,AA,AA,
537824075,00000730,false,Rx,0,8,03,19,02,AE,00,00,00,00,
537829633,0000079A,false,Rx,0,8,03,59,02,99,AA,AA,AA,AA,
537884008,00000730,false,Rx,0,8,02,10,01,00,00,00,00,00,
537889445,0000079A,false,Rx,0,8,06,50,01,00,28,01,EF,AA,
538153971,0000071D,false,Rx,0,8,02,10,03,00,00,00,00,00,
538211807,17F00010,true,Rx,0,8,20,10,00,00,00,00,00,00,
538711799,17F00010,true,Rx,0,8,20,10,00,00,00,00,00,00,
539211774,17F00010,true,Rx,0,8,20,10,00,00,00,00,00,00,
539711757,17F00010,true,Rx,0,8,20,10,00,00,00,00,00,00,
540211754,17F00010,true,Rx,0,8,20,10,00,00,00,00,00,00,
540711739,17F00010,true,Rx,0,8,20,10,00,00,00,00,00,00,
540764022,0000070F,false,Rx,0,8,02,10,03,00,00,00,00,00,
540786581,00000779,false,Rx,0,8,06,50,03,00,32,01,F4,AA,
540824185,0000070F,false,Rx,0,8,04,14,FF,FF,FF,00,00,00,
540846500,00000779,false,Rx,0,8,01,54,AA,AA,AA,AA,AA,AA,
540884116,0000070F,false,Rx,0,8,03,19,02,AE,00,00,00,00,
540907009,00000779,false,Rx,0,8,03,59,02,19,AA,AA,AA,AA,
540944166,0000070F,false,Rx,0,8,02,10,01,00,00,00,00,00,
540966581,00000779,false,Rx,0,8,06,50,01,00,32,01,F4,AA,
541184012,00000731,false,Rx,0,8,02,10,03,00,00,00,00,00,
541193155,0000079B,false,Rx,0,8,06,50,03,00,32,01,F4,AA,
541211727,17F00010,true,Rx,0,8,20,10,00,00,00,00,00,00,
541244233,00000731,false,Rx,0,8,04,14,FF,FF,FF,00,00,00,
541254138,0000079B,false,Rx,0,8,01,54,AA,AA,AA,AA,AA,AA,
541304121,00000731,false,Rx,0,8,03,19,02,AE,00,00,00,00,
541313445,0000079B,false,Rx,0,8,03,59,02,99,AA,AA,AA,AA,
541364047,00000731,false,Rx,0,8,02,10,01,00,00,00,00,00,
541373218,0000079B,false,Rx,0,8,06,50,01,00,32,01,F4,AA,
541604096,0000074A,false,Rx,0,8,02,10,03,00,00,00,00,00,
541606561,000007B4,false,Rx,0,8,06,50,03,00,32,01,F4,AA,
541664206,0000074A,false,Rx,0,8,04,14,FF,FF,FF,00,00,00,
541667237,000007B4,false,Rx,0,8,01,54,AA,AA,AA,AA,AA,AA,
541711693,17F00010,true,Rx,0,8,20,10,00,00,00,00,00,00,
541754138,0000074A,false,Rx,0,8,03,19,02,AE,00,00,00,00,
541756930,000007B4,false,Rx,0,8,03,59,02,19,AA,AA,AA,AA,
541844087,0000074A,false,Rx,0,8,02,10,01,00,00,00,00,00,
541846832,000007B4,false,Rx,0,8,06,50,01,00,32,01,F4,AA,
542084037,00000712,false,Rx,0,8,02,10,03,00,00,00,00,00,
542094297,0000077C,false,Rx,0,8,06,50,03,00,32,01,F4,AA,
542144206,00000712,false,Rx,0,8,04,14,FF,FF,FF,00,00,00,
542159277,0000077C,false,Rx,0,8,03,7F,14,78,AA,AA,AA,AA,
542211692,17F00010,true,Rx,0,8,20,10,00,00,00,00,00,00,
542711688,17F00010,true,Rx,0,8,20,10,00,00,00,00,00,00,
543211656,17F00010,true,Rx,0,8,20,10,00,00,00,00,00,00,
543711650,17F00010,true,Rx,0,8,20,10,00,00,00,00,00,00,
543744305,0000077C,false,Rx,0,8,01,54,AA,AA,AA,AA,AA,AA,
543854119,00000712,false,Rx,0,8,03,19,02,AE,00,00,00,00,
543864296,0000077C,false,Rx,0,8,03,59,02,99,AA,AA,AA,AA,
543914126,00000712,false,Rx,0,8,02,10,01,00,00,00,00,00,
543924758,0000077C,false,Rx,0,8,06,50,01,00,32,01,F4,AA,
544154076,0000074B,false,Rx,0,8,02,10,03,00,00,00,00,00,
544162244,000007B5,false,Rx,0,8,06,50,03,00,32,01,F4,AA,
544211640,17F00010,true,Rx,0,8,20,10,00,00,00,00,00,00,
544214317,0000074B,false,Rx,0,8,04,14,FF,FF,FF,00,00,00,
544222718,000007B5,false,Rx,0,8,01,54,AA,AA,AA,AA,AA,AA,
544274196,0000074B,false,Rx,0,8,03,19,02,AE,00,00,00,00,
544282335,000007B5,false,Rx,0,8,03,59,02,19,AA,AA,AA,AA,
544334139,0000074B,false,Rx,0,8,02,10,01,00,00,00,00,00,
544342356,000007B5,false,Rx,0,8,06,50,01,00,32,01,F4,AA,
544574107,00000754,false,Rx,0,8,02,10,03,00,00,00,00,00,
544588569,000007BE,false,Rx,0,8,06,50,03,00,32,01,F4,AA,
544634336,00000754,false,Rx,0,8,04,14,FF,FF,FF,00,00,00,
544678640,000007BE,false,Rx,0,8,03,7F,14,78,AA,AA,AA,AA,
544711612,17F00010,true,Rx,0,8,20,10,00,00,00,00,00,00,
545211597,17F00010,true,Rx,0,8,20,10,00,00,00,00,00,00,
545498778,000007BE,false,Rx,0,8,01,54,AA,AA,AA,AA,AA,AA,
545534179,00000754,false,Rx,0,8,03,19,02,AE,00,00,00,00,
545548592,000007BE,false,Rx,0,8,03,59,02,99,AA,AA,AA,AA,
545594126,00000754,false,Rx,0,8,02,10,01,00,00,00,00,00,
545608642,000007BE,false,Rx,0,8,06,50,01,00,32,01,F4,AA,
545711580,17F00010,true,Rx,0,8,20,10,00,00,00,00,00,00,
545834096,00000773,false,Rx,0,8,02,10,03,00,00,00,00,00,
545841355,000007DD,false,Rx,0,8,06,50,03,00,32,00,FA,AA,
545894239,00000773,false,Rx,0,8,04,14,FF,FF,FF,00,00,00,
545896786,000007DD,false,Rx,0,8,03,7F,14,78,AA,AA,AA,AA,
546023277,000007DD,false,Rx,0,8,01,54,AA,AA,AA,AA,AA,AA,
546074334,00000773,false,Rx,0,8,03,19,02,AE,00,00,00,00,
546076785,000007DD,false,Rx,0,8,03,59,02,19,AA,AA,AA,AA,
546164113,00000773,false,Rx,0,8,02,10,01,00,00,00,00,00,
546168751,000007DD,false,Rx,0,8,06,50,01,00,32,00,FA,AA,
546211575,17F00010,true,Rx,0,8,20,10,00,00,00,00,00,00,
546404127,00000732,false,Rx,0,8,02,10,03,00,00,00,00,00,
546411009,0000079C,false,Rx,0,8,06,50,03,00,32,01,F4,AA,
546464313,00000732,false,Rx,0,8,04,14,FF,FF,FF,00,00,00,
546472560,0000079C,false,Rx,0,8,01,54,AA,AA,AA,AA,AA,AA,
546524226,00000732,false,Rx,0,8,03,19,02,AE,00,00,00,00,
546532267,0000079C,false,Rx,0,8,03,59,02,19,AA,AA,AA,AA,
546711553,17F00010,true,Rx,0,8,20,10,00,00,00,00,00,00,
547211537,17F00010,true,Rx,0,8,20,10,00,00,00,00,00,00,
547711521,17F00010,true,Rx,0,8,20,10,00,00,00,00,00,00,
548211519,17F00010,true,Rx,0,8,20,10,00,00,00,00,00,00,
548711502,17F00010,true,Rx,0,8,20,10,00,00,00,00,00,00,
549074175,00000732,false,Rx,0,8,02,3E,00,00,00,00,00,00,
549080982,0000079C,false,Rx,0,8,02,7E,00,AA,AA,AA,AA,AA,
549211474,17F00010,true,Rx,0,8,20,10,00,00,00,00,00,00,
549711462,17F00010,true,Rx,0,8,20,10,00,00,00,00,00,00,
550211460,17F00010,true,Rx,0,8,20,10,00,00,00,00,00,00,
550711443,17F00010,true,Rx,0,8,20,10,00,00,00,00,00,00,
551211419,17F00010,true,Rx,0,8,20,10,00,00,00,00,00,00,
551654116,00000732,false,Rx,0,8,02,3E,00,00,00,00,00,00,
551660095,0000079C,false,Rx,0,8,02,7E,00,AA,AA,AA,AA,AA,
551711412,17F00010,true,Rx,0,8,20,10,00,00,00,00,00,00,
552211401,17F00010,true,Rx,0,8,20,10,00,00,00,00,00,00,
552711381,17F00010,true,Rx,0,8,20,10,00,00,00,00,00,00,
553211360,17F00010,true,Rx,0,8,20,10,00,00,00,00,00,00,
553711340,17F00010,true,Rx,0,8,20,10,00,00,00,00,00,00,
554211341,17F00010,true,Rx,0,8,20,10,00,00,00,00,00,00,
554711322,17F00010,true,Rx,0,8,20,10,00,00,00,00,00,00,
555194138,00000732,false,Rx,0,8,02,3E,00,00,00,00,00,00,
555199422,0000079C,false,Rx,0,8,02,7E,00,AA,AA,AA,AA,AA,
555211296,17F00010,true,Rx,0,8,20,10,00,00,00,00,00,00,
555711284,17F00010,true,Rx,0,8,20,10,00,00,00,00,00,00,
556211282,17F00010,true,Rx,0,8,20,10,00,00,00,00,00,00,
